name,type,start_time,duration,"mosi","miso"
"SPI","result",11.712923,0.000915666667,0x88,0xFD
"SPI","result",11.7140218,0.000915666667,0x33,0x00
"SPI","result",11.7151817,0.000915666667,0x01,0x00
"SPI","result",11.7163415,0.000915666667,0x00,0x00
"SPI","result",11.7175014,0.000915666667,0x00,0x00
"SPI","result",11.7186613,0.000915666667,0x00,0x00
"SPI","result",11.7198211,0.000915666667,0x01,0x00
"SPI","result",11.720981,0.000915708333,0x00,0x00
"SPI","result",11.7221408,0.000915666667,0x00,0x81
"SPI","result",11.7233007,0.000915666667,0x00,0x00
"SPI","result",11.7803173,0.000915625,0x88,0x00
"SPI","result",11.7814161,0.000915666667,0x33,0x00
"SPI","result",11.782576,0.000915666667,0x04,0x00
"SPI","result",11.7837358,0.000915666667,0x00,0x00
"SPI","result",11.7848957,0.000915625,0x80,0x00
"SPI","result",11.7860555,0.000915666667,0x02,0x00
"SPI","result",11.7872154,0.000915666667,0xFF,0x00
"SPI","result",11.7883753,0.000915666667,0xFF,0x00
"SPI","result",11.7895352,0.000915666667,0xFF,0x00
"SPI","result",11.790695,0.000915666667,0xFF,0x00
"SPI","result",11.7918549,0.000915666667,0xFF,0x00
"SPI","result",11.7930147,0.000915666667,0xFF,0x00
"SPI","result",11.7941746,0.000915666667,0xFF,0x00
"SPI","result",11.7953345,0.000915625,0xFF,0x00
"SPI","result",11.7964943,0.000915666667,0xFF,0x00
"SPI","result",11.7976542,0.000915666667,0xFF,0x00
"SPI","result",11.7988141,0.000915666667,0xFF,0x00
"SPI","result",11.799974,0.000915666667,0xFF,0x00
"SPI","result",11.8011338,0.000915666667,0xFF,0x00
"SPI","result",11.8022937,0.000915666667,0xFF,0x00
"SPI","result",11.8034535,0.000915666667,0xFF,0x00
"SPI","result",11.8046134,0.000915666667,0xFF,0x00
"SPI","result",11.8057733,0.000915625,0xFF,0x00
"SPI","result",11.8069331,0.000915666667,0xFF,0x00
"SPI","result",11.808093,0.000915666667,0xFF,0x00
"SPI","result",11.8092529,0.000915666667,0xFF,0x00
"SPI","result",11.8104127,0.000915666667,0xFF,0x00
"SPI","result",11.8115726,0.000915666667,0xFF,0x00
"SPI","result",11.8127325,0.000915666667,0xFF,0x00
"SPI","result",11.8138923,0.000915666667,0xFF,0x00
"SPI","result",11.8150522,0.000915666667,0xFF,0x00
"SPI","result",11.8162121,0.000915625,0xFF,0x00
"SPI","result",11.8173719,0.000915666667,0xFF,0x00
"SPI","result",11.8185318,0.000915666667,0xFF,0x00
"SPI","result",11.8196917,0.000915666667,0xFF,0x00
"SPI","result",11.8208515,0.000915666667,0xFF,0x00
"SPI","result",11.8220114,0.000915666667,0xFF,0x00
"SPI","result",11.8231712,0.000915666667,0xFF,0x00
"SPI","result",11.8243311,0.000915666667,0xFF,0x00
"SPI","result",11.825491,0.000915666667,0xFF,0x00
"SPI","result",11.8266509,0.000915625,0xFF,0x00
"SPI","result",11.8278107,0.000915666667,0xFF,0x00
"SPI","result",11.8289706,0.000915666667,0xFF,0x00
"SPI","result",11.8301305,0.000915666667,0xFF,0x00
"SPI","result",11.8312903,0.000915666667,0xFF,0x00
"SPI","result",11.8324502,0.000915666667,0xFF,0x00
"SPI","result",11.83361,0.000915666667,0xFF,0x00
"SPI","result",11.8347699,0.000915666667,0xFF,0x00
"SPI","result",11.8359298,0.000915666667,0xFF,0x00
"SPI","result",11.8370897,0.000915625,0xFF,0x00
"SPI","result",11.8382495,0.000915666667,0xFF,0x00
"SPI","result",11.8394094,0.000915666667,0xFF,0x00
"SPI","result",11.8405692,0.000915666667,0xFF,0x00
"SPI","result",11.8417291,0.000915666667,0xFF,0x00
"SPI","result",11.842889,0.000915666667,0xFF,0x00
"SPI","result",11.8440488,0.000915666667,0xFF,0x00
"SPI","result",11.8452087,0.000915666667,0xFF,0x00
"SPI","result",11.8463686,0.000915666667,0xFF,0x00
"SPI","result",11.8475285,0.000915625,0xFF,0x00
"SPI","result",11.8486883,0.000915666667,0xFF,0x00
"SPI","result",11.8498482,0.000915666667,0xFF,0x00
"SPI","result",11.851008,0.000915666667,0xFF,0x00
"SPI","result",11.8521679,0.000915666667,0xFF,0x00
"SPI","result",11.8533278,0.000915666667,0xFF,0x00
"SPI","result",11.8544876,0.000915666667,0xFF,0x00
"SPI","result",11.8556475,0.000915666667,0xFF,0x00
"SPI","result",11.8568074,0.000915666667,0xFF,0x00
"SPI","result",11.8579672,0.000915625,0xFF,0x00
"SPI","result",11.8591271,0.000915666667,0xFF,0x00
"SPI","result",11.860287,0.000915666667,0xFF,0x00
"SPI","result",11.8614468,0.000915666667,0xFF,0x00
"SPI","result",11.8626067,0.000915666667,0xFF,0x00
"SPI","result",11.8637665,0.000915666667,0xFF,0x00
"SPI","result",11.8649264,0.000915666667,0xFF,0x00
"SPI","result",11.8660863,0.000915666667,0xFF,0x00
"SPI","result",11.8672462,0.000915666667,0xFF,0x00
"SPI","result",11.868406,0.000915625,0xFF,0x00
"SPI","result",11.8695659,0.000915666667,0xFF,0x00
"SPI","result",11.8707258,0.000915666667,0xFF,0x00
"SPI","result",11.8718856,0.000915666667,0xFF,0x00
"SPI","result",11.8730455,0.000915666667,0xFF,0x00
"SPI","result",11.8742053,0.000915666667,0xFF,0x00
"SPI","result",11.8753652,0.000915666667,0xFF,0x00
"SPI","result",11.8765251,0.000915666667,0xFF,0x00
"SPI","result",11.877685,0.000915666667,0xFF,0x00
"SPI","result",11.8788448,0.000915625,0xFF,0x00
"SPI","result",11.8800047,0.000915666667,0xFF,0x00
"SPI","result",11.8811645,0.000915666667,0xFF,0x00
"SPI","result",11.8823244,0.000915666667,0xFF,0x00
"SPI","result",11.8834843,0.000915666667,0xFF,0x00
"SPI","result",11.8846441,0.000915666667,0xFE,0x00
"SPI","result",11.885804,0.000915666667,0xFF,0x00
"SPI","result",11.8869639,0.000915666667,0xFE,0x00
"SPI","result",11.8881238,0.000915666667,0xFE,0x00
"SPI","result",11.8892836,0.000915625,0xFE,0x00
"SPI","result",11.8904435,0.000915625,0xFE,0x00
"SPI","result",11.8916033,0.000915666667,0xFE,0x00
"SPI","result",11.8927632,0.000915666667,0xFE,0x00
"SPI","result",11.8939841,0.000915666667,0xFE,0x00
"SPI","result",11.895144,0.000915625,0xFE,0x00
"SPI","result",11.8963039,0.000915625,0xFE,0x00
"SPI","result",11.8974637,0.000915666667,0xFE,0x00
"SPI","result",11.8986236,0.000915666667,0xFF,0x00
"SPI","result",11.8997835,0.000915666667,0xFF,0x00
"SPI","result",11.9009433,0.000915666667,0xFF,0x00
"SPI","result",11.9021032,0.000915666667,0xFF,0x00
"SPI","result",11.903263,0.000915666667,0x1C,0x00
"SPI","result",11.9044229,0.000915666667,0xFF,0x00
"SPI","result",11.9055828,0.000915666667,0x3E,0x00
"SPI","result",11.9067426,0.000915666667,0x1C,0x00
"SPI","result",11.9079025,0.000915666667,0x0C,0x00
"SPI","result",11.9090624,0.000915666667,0x1C,0x00
"SPI","result",11.9102223,0.000915666667,0x04,0x00
"SPI","result",11.9113821,0.000915666667,0x0C,0x00
"SPI","result",11.912542,0.000915666667,0x0C,0x00
"SPI","result",11.9137018,0.000915666667,0x04,0x00
"SPI","result",11.9148617,0.000915666667,0x24,0x00
"SPI","result",11.9160216,0.000915625,0x04,0x00
"SPI","result",11.9171815,0.000915625,0xFF,0x00
"SPI","result",11.9183413,0.000915666667,0xFF,0x00
"SPI","result",11.9195012,0.000915666667,0xFF,0x00
"SPI","result",11.920661,0.000915666667,0xFF,0x00
"SPI","result",11.9218209,0.000915666667,0x63,0x00
"SPI","result",11.9229808,0.000915666667,0xFF,0x00
"SPI","result",11.9241406,0.000915666667,0x07,0x00
"SPI","result",11.9253005,0.000915666667,0x63,0x00
"SPI","result",11.9264603,0.000915666667,0x43,0x00
"SPI","result",11.9276202,0.000915666667,0x23,0x00
"SPI","result",11.9287801,0.000915666667,0x63,0x00
"SPI","result",11.92994,0.000915666667,0x3F,0x00
"SPI","result",11.9310998,0.000915666667,0x02,0x00
"SPI","result",11.9322597,0.000915666667,0x62,0x00
"SPI","result",11.9334195,0.000915666667,0x02,0x00
"SPI","result",11.9345794,0.000915666667,0x62,0x00
"SPI","result",11.9357393,0.000915666667,0xFF,0x00
"SPI","result",11.9368992,0.000915625,0xFF,0x00
"SPI","result",11.938059,0.000915666667,0xFF,0x00
"SPI","result",11.9392189,0.000915666667,0xFF,0x00
"SPI","result",11.9403788,0.000915666667,0xFF,0x00
"SPI","result",11.9415386,0.000915666667,0xFF,0x00
"SPI","result",11.9426985,0.000915666667,0xFF,0x00
"SPI","result",11.9438583,0.000915666667,0xFF,0x00
"SPI","result",11.9450182,0.000915666667,0xFF,0x00
"SPI","result",11.9461781,0.000915666667,0xFF,0x00
"SPI","result",11.947338,0.000915625,0xF7,0x00
"SPI","result",11.9484978,0.000915666667,0xFE,0x00
"SPI","result",11.9496577,0.000915666667,0x03,0x00
"SPI","result",11.9508175,0.000915666667,0x01,0x00
"SPI","result",11.9519774,0.000915666667,0x11,0x00
"SPI","result",11.9531372,0.000915666667,0x00,0x00
"SPI","result",11.9542971,0.000915666667,0xFF,0x00
"SPI","result",11.955457,0.000915666667,0xFF,0x00
"SPI","result",11.9566169,0.000915666667,0xFF,0x00
"SPI","result",11.9577768,0.000915625,0xFF,0x00
"SPI","result",11.9589366,0.000915666667,0xFF,0x00
"SPI","result",11.9600965,0.000915666667,0xFF,0x00
"SPI","result",11.9612563,0.000915666667,0x8F,0x00
"SPI","result",11.9624162,0.000915666667,0xFF,0x00
"SPI","result",11.963576,0.000915666667,0x47,0x00
"SPI","result",11.9647359,0.000915666667,0x8F,0x00
"SPI","result",11.9658958,0.000915666667,0x05,0x00
"SPI","result",11.9670557,0.000915666667,0x03,0x00
"SPI","result",11.9682155,0.000915666667,0x00,0x00
"SPI","result",11.9693754,0.000915625,0x8E,0x00
"SPI","result",11.9705352,0.000915666667,0xC8,0x00
"SPI","result",11.9716951,0.000915666667,0x8C,0x00
"SPI","result",11.972855,0.000915666667,0xFF,0x00
"SPI","result",11.9740148,0.000915666667,0xFF,0x00
"SPI","result",11.9751747,0.000915666667,0xFF,0x00
"SPI","result",11.9763346,0.000915666667,0xFF,0x00
"SPI","result",11.9774945,0.000915666667,0xFF,0x00
"SPI","result",11.9786543,0.000915625,0xFF,0x00
"SPI","result",11.9798142,0.000915666667,0xFF,0x00
"SPI","result",11.980974,0.000915666667,0xFF,0x00
"SPI","result",11.9821339,0.000915666667,0xFF,0x00
"SPI","result",11.9832938,0.000915666667,0xFF,0x00
"SPI","result",11.9844536,0.000915666667,0x7F,0x00
"SPI","result",11.9856135,0.000915666667,0x9F,0x00
"SPI","result",11.9867734,0.000915666667,0x0E,0x00
"SPI","result",11.9879332,0.000915666667,0x04,0x00
"SPI","result",11.9890931,0.000915625,0xE0,0x00
"SPI","result",11.990253,0.000915666667,0x46,0x00
"SPI","result",11.9914128,0.000915666667,0xFF,0x00
"SPI","result",11.9925727,0.000915666667,0xFF,0x00
"SPI","result",11.9937326,0.000915666667,0xFF,0x00
"SPI","result",11.9948924,0.000915666667,0xFF,0x00
"SPI","result",11.9960523,0.000915666667,0xFF,0x00
"SPI","result",11.9972122,0.000915666667,0xFF,0x00
"SPI","result",11.998372,0.000915666667,0xFF,0x00
"SPI","result",11.9995319,0.000915625,0xFF,0x00
"SPI","result",12.0006917,0.000915666667,0xFF,0x00
"SPI","result",12.0018516,0.000915666667,0xFF,0x00
"SPI","result",12.0030115,0.000915666667,0xE7,0x00
"SPI","result",12.0041714,0.000915666667,0xFF,0x00
"SPI","result",12.0053312,0.000915666667,0x41,0x00
"SPI","result",12.0064911,0.000915666667,0x03,0x00
"SPI","result",12.007651,0.000915666667,0x21,0x00
"SPI","result",12.0088108,0.000915666667,0x01,0x00
"SPI","result",12.0099707,0.000915625,0xFF,0x00
"SPI","result",12.0111916,0.000915666667,0xFF,0x00
"SPI","result",12.0123515,0.000915666667,0xFF,0x00
"SPI","result",12.0135113,0.000915666667,0xFF,0x00
"SPI","result",12.0146712,0.000915666667,0xF8,0x00
"SPI","result",12.0158311,0.000915625,0xFF,0x00
"SPI","result",12.0169909,0.000915666667,0xF0,0x00
"SPI","result",12.0181508,0.000915666667,0xF8,0x00
"SPI","result",12.0193107,0.000915666667,0xF0,0x00
"SPI","result",12.0204705,0.000915666667,0xF8,0x00
"SPI","result",12.0216304,0.000915625,0xE0,0x00
"SPI","result",12.0227902,0.000915666667,0xF8,0x00
"SPI","result",12.0239501,0.000915666667,0xC0,0x00
"SPI","result",12.02511,0.000915666667,0x80,0x00
"SPI","result",12.0262699,0.000915625,0x18,0x00
"SPI","result",12.0274297,0.000915666667,0x00,0x00
"SPI","result",12.0285896,0.000915666667,0xFF,0x00
"SPI","result",12.0297495,0.000915666667,0xFF,0x00
"SPI","result",12.0309093,0.000915666667,0xFF,0x00
"SPI","result",12.0320692,0.000915666667,0xFF,0x00
"SPI","result",12.033229,0.000915666667,0xFF,0x00
"SPI","result",12.0343889,0.000915666667,0xFF,0x00
"SPI","result",12.0355488,0.000915666667,0x7F,0x00
"SPI","result",12.0367087,0.000915625,0xFF,0x00
"SPI","result",12.0378685,0.000915666667,0x7E,0x00
"SPI","result",12.0390284,0.000915666667,0xFF,0x00
"SPI","result",12.0401882,0.000915666667,0x6D,0x00
"SPI","result",12.0413481,0.000915666667,0xF3,0x00
"SPI","result",12.042508,0.000915666667,0x61,0x00
"SPI","result",12.0436678,0.000915666667,0xC0,0x00
"SPI","result",12.0448277,0.000915666667,0x44,0x00
"SPI","result",12.0459876,0.000915666667,0x8C,0x00
"SPI","result",12.0471475,0.000915625,0xFF,0x00
"SPI","result",12.0483073,0.000915666667,0xFF,0x00
"SPI","result",12.0494672,0.000915666667,0xFF,0x00
"SPI","result",12.050627,0.000915666667,0xFF,0x00
"SPI","result",12.0517869,0.000915666667,0xBF,0x00
"SPI","result",12.0529468,0.000915666667,0xFF,0x00
"SPI","result",12.0541066,0.000915666667,0xBF,0x00
"SPI","result",12.0552665,0.000915666667,0x1F,0x00
"SPI","result",12.0564264,0.000915666667,0x5F,0x00
"SPI","result",12.0575862,0.000915666667,0x0F,0x00
"SPI","result",12.0587461,0.000915666667,0x0F,0x00
"SPI","result",12.059906,0.000915666667,0x1F,0x00
"SPI","result",12.0610658,0.000915666667,0x9F,0x00
"SPI","result",12.0622257,0.000915666667,0xFF,0x00
"SPI","result",12.0633855,0.000915666667,0x3F,0x00
"SPI","result",12.0645454,0.000915666667,0x7F,0x00
"SPI","result",12.0657053,0.000915666667,0xFF,0x00
"SPI","result",12.0668652,0.000915666667,0xFF,0x00
"SPI","result",12.068025,0.000915625,0xFF,0x00
"SPI","result",12.0691849,0.000915666667,0xFF,0x00
"SPI","result",12.0703448,0.000915666667,0xFF,0x00
"SPI","result",12.0715046,0.000915666667,0xFF,0x00
"SPI","result",12.0726645,0.000915666667,0xFF,0x00
"SPI","result",12.0738243,0.000915666667,0xFF,0x00
"SPI","result",12.0749842,0.000915666667,0xFF,0x00
"SPI","result",12.0761441,0.000915666667,0xFF,0x00
"SPI","result",12.077304,0.000915666667,0xFF,0x00
"SPI","result",12.0784638,0.000915625,0xFF,0x00
"SPI","result",12.0796237,0.000915666667,0xFF,0x00
"SPI","result",12.0807835,0.000915666667,0xFF,0x00
"SPI","result",12.0819434,0.000915666667,0xFF,0x00
"SPI","result",12.0831033,0.000915666667,0xFF,0x00
"SPI","result",12.0842631,0.000915666667,0xFF,0x00
"SPI","result",12.085423,0.000915666667,0xFF,0x00
"SPI","result",12.0865829,0.000915666667,0xFF,0x00
"SPI","result",12.0877428,0.000915666667,0xFF,0x00
"SPI","result",12.0889026,0.000915625,0xFF,0x00
"SPI","result",12.0900625,0.000915666667,0xFF,0x00
"SPI","result",12.0912223,0.000915666667,0xFF,0x00
"SPI","result",12.0923822,0.000915666667,0xFF,0x00
"SPI","result",12.0935421,0.000915666667,0xFF,0x00
"SPI","result",12.0947019,0.000915666667,0xFF,0x00
"SPI","result",12.0958618,0.000915666667,0xFF,0x00
"SPI","result",12.0970217,0.000915666667,0xFF,0x00
"SPI","result",12.0981815,0.000915666667,0xFF,0x00
"SPI","result",12.0993414,0.000915625,0xFF,0x00
"SPI","result",12.1005013,0.000915666667,0xFF,0x00
"SPI","result",12.1016611,0.000915666667,0xFF,0x00
"SPI","result",12.102821,0.000915666667,0xFF,0x00
"SPI","result",12.1039809,0.000915666667,0xFF,0x00
"SPI","result",12.1051407,0.000915666667,0xFF,0x00
"SPI","result",12.1063006,0.000915666667,0xFF,0x00
"SPI","result",12.1074605,0.000915666667,0xFF,0x00
"SPI","result",12.1086203,0.000915666667,0xFF,0x00
"SPI","result",12.1097802,0.000915625,0xFF,0x00
"SPI","result",12.11094,0.000915666667,0xFF,0x00
"SPI","result",12.1120999,0.000915666667,0xFF,0x00
"SPI","result",12.1132598,0.000915666667,0xFF,0x00
"SPI","result",12.1144197,0.000915666667,0xFF,0x00
"SPI","result",12.1155795,0.000915666667,0xFF,0x00
"SPI","result",12.1167394,0.000915666667,0xFF,0x00
"SPI","result",12.1178993,0.000915666667,0xFF,0x00
"SPI","result",12.1190591,0.000915666667,0xFF,0x00
"SPI","result",12.120219,0.000915625,0xFF,0x00
"SPI","result",12.1213788,0.000915666667,0xFF,0x00
"SPI","result",12.1225387,0.000915666667,0xFF,0x00
"SPI","result",12.1236986,0.000915666667,0xFF,0x00
"SPI","result",12.1248585,0.000915666667,0xFF,0x00
"SPI","result",12.1260183,0.000915666667,0xFF,0x00
"SPI","result",12.1271782,0.000915666667,0xFF,0x00
"SPI","result",12.1283991,0.000915666667,0xFF,0x00
"SPI","result",12.129559,0.000915666667,0xFF,0x00
"SPI","result",12.1307188,0.000915666667,0xFF,0x00
"SPI","result",12.1318787,0.000915666667,0xFF,0x00
"SPI","result",12.1330385,0.000915666667,0xFF,0x00
"SPI","result",12.1341984,0.000915666667,0xFF,0x00
"SPI","result",12.1353583,0.000915666667,0xFF,0x00
"SPI","result",12.1365182,0.000915625,0xFF,0x00
"SPI","result",12.137678,0.000915666667,0xFF,0x00
"SPI","result",12.1388379,0.000915666667,0xFF,0x00
"SPI","result",12.1399977,0.000915666667,0xFF,0x00
"SPI","result",12.1411576,0.000915666667,0xFF,0x00
"SPI","result",12.1423175,0.000915666667,0xFF,0x00
"SPI","result",12.1434773,0.000915666667,0xFF,0x00
"SPI","result",12.1446372,0.000915666667,0xFF,0x00
"SPI","result",12.1457971,0.000915666667,0xFF,0x00
"SPI","result",12.146957,0.000915625,0xFF,0x00
"SPI","result",12.1481168,0.000915666667,0xFF,0x00
"SPI","result",12.1492767,0.000915666667,0xFF,0x00
"SPI","result",12.1504365,0.000915666667,0xFF,0x00
"SPI","result",12.1515964,0.000915666667,0xFF,0x00
"SPI","result",12.1527562,0.000915666667,0xFF,0x00
"SPI","result",12.1539161,0.000915666667,0xFF,0x00
"SPI","result",12.155076,0.000915666667,0xFF,0x00
"SPI","result",12.1562359,0.000915666667,0xFF,0x00
"SPI","result",12.1573957,0.000915625,0xFF,0x00
"SPI","result",12.1585556,0.000915666667,0xFF,0x00
"SPI","result",12.1597155,0.000915666667,0xFF,0x00
"SPI","result",12.1608753,0.000915666667,0xFF,0x00
"SPI","result",12.1620352,0.000915666667,0xFF,0x00
"SPI","result",12.163195,0.000915666667,0xFF,0x00
"SPI","result",12.1643549,0.000915666667,0xFF,0x00
"SPI","result",12.1655148,0.000915666667,0xFF,0x00
"SPI","result",12.1666747,0.000915666667,0xFF,0x00
"SPI","result",12.1678345,0.000915625,0xFF,0x00
"SPI","result",12.1689944,0.000915666667,0xFF,0x00
"SPI","result",12.1701542,0.000915666667,0xFF,0x00
"SPI","result",12.1713141,0.000915666667,0xFF,0x00
"SPI","result",12.172474,0.000915666667,0xFF,0x00
"SPI","result",12.1736338,0.000915666667,0xFF,0x00
"SPI","result",12.1747937,0.000915666667,0xFF,0x00
"SPI","result",12.1759536,0.000915666667,0xFF,0x00
"SPI","result",12.1771135,0.000915666667,0xFF,0x00
"SPI","result",12.1782733,0.000915625,0xFF,0x00
"SPI","result",12.1794332,0.000915666667,0xFF,0x00
"SPI","result",12.180593,0.000915666667,0xFF,0x00
"SPI","result",12.1817529,0.000915666667,0xFF,0x00
"SPI","result",12.1829128,0.000915666667,0xFF,0x00
"SPI","result",12.1840726,0.000915666667,0xFF,0x00
"SPI","result",12.1852325,0.000915666667,0xFF,0x00
"SPI","result",12.1863924,0.000915666667,0xFF,0x00
"SPI","result",12.1875522,0.000915666667,0xFF,0x00
"SPI","result",12.1887121,0.000915625,0xFF,0x00
"SPI","result",12.189872,0.000915666667,0xFF,0x00
"SPI","result",12.1910318,0.000915666667,0xFF,0x00
"SPI","result",12.1921917,0.000915666667,0xFF,0x00
"SPI","result",12.1933516,0.000915666667,0xFF,0x00
"SPI","result",12.1945114,0.000915666667,0xFF,0x00
"SPI","result",12.1956713,0.000915666667,0xFF,0x00
"SPI","result",12.1968312,0.000915666667,0xFF,0x00
"SPI","result",12.197991,0.000915666667,0xFF,0x00
"SPI","result",12.1991509,0.000915625,0xFF,0x00
"SPI","result",12.2003107,0.000915666667,0xFF,0x00
"SPI","result",12.2014706,0.000915666667,0xFF,0x00
"SPI","result",12.2026305,0.000915666667,0xFF,0x00
"SPI","result",12.2037904,0.000915666667,0xFF,0x00
"SPI","result",12.2049502,0.000915666667,0xFF,0x00
"SPI","result",12.2061101,0.000915666667,0xFF,0x00
"SPI","result",12.20727,0.000915666667,0xFF,0x00
"SPI","result",12.2084298,0.000915666667,0xFF,0x00
"SPI","result",12.2095897,0.000915625,0xFF,0x00
"SPI","result",12.2107495,0.000915666667,0xFF,0x00
"SPI","result",12.2119094,0.000915666667,0xFF,0x00
"SPI","result",12.2130693,0.000915666667,0xFF,0x00
"SPI","result",12.2142292,0.000915666667,0xFF,0x00
"SPI","result",12.215389,0.000915666667,0xFF,0x00
"SPI","result",12.2165489,0.000915666667,0xFF,0x00
"SPI","result",12.2177087,0.000915666667,0xFF,0x00
"SPI","result",12.2188686,0.000915666667,0xFF,0x00
"SPI","result",12.2200285,0.000915625,0xFF,0x00
"SPI","result",12.2211883,0.000915666667,0xFF,0x00
"SPI","result",12.2223482,0.000915666667,0xFF,0x00
"SPI","result",12.2235081,0.000915666667,0xFF,0x00
"SPI","result",12.224668,0.000915666667,0xFF,0x00
"SPI","result",12.2258278,0.000915666667,0xFF,0x00
"SPI","result",12.2269877,0.000915666667,0xFF,0x00
"SPI","result",12.2281475,0.000915666667,0xFF,0x00
"SPI","result",12.2293074,0.000915666667,0xFF,0x00
"SPI","result",12.2304673,0.000915625,0xFF,0x00
"SPI","result",12.2316271,0.000915666667,0xFF,0x00
"SPI","result",12.232787,0.000915666667,0xFF,0x00
"SPI","result",12.2339469,0.000915666667,0xFF,0x00
"SPI","result",12.2351067,0.000915666667,0xFF,0x00
"SPI","result",12.2362666,0.000915666667,0xFF,0x00
"SPI","result",12.2374265,0.000915666667,0xFF,0x00
"SPI","result",12.2385863,0.000915666667,0xFF,0x00
"SPI","result",12.2397462,0.000915666667,0xFF,0x00
"SPI","result",12.2409061,0.000915625,0xFF,0x00
"SPI","result",12.2420659,0.000915666667,0xFF,0x00
"SPI","result",12.2432258,0.000915666667,0xFF,0x00
"SPI","result",12.2443857,0.000915666667,0xFF,0x00
"SPI","result",12.2456066,0.000915666667,0xFF,0x00
"SPI","result",12.2467665,0.000915625,0xFF,0x00
"SPI","result",12.2479263,0.000915666667,0xFF,0x00
"SPI","result",12.2490862,0.000915666667,0xFF,0x00
"SPI","result",12.250246,0.000915666667,0xFF,0x00
"SPI","result",12.2514059,0.000915666667,0xFE,0x00
"SPI","result",12.2525658,0.000915625,0xFE,0x00
"SPI","result",12.2537256,0.000915666667,0xFE,0x00
"SPI","result",12.2548855,0.000915666667,0xFE,0x00
"SPI","result",12.2560454,0.000915666667,0xFE,0x00
"SPI","result",12.2572053,0.000915625,0xFE,0x00
"SPI","result",12.2583651,0.000915666667,0xFE,0x00
"SPI","result",12.259525,0.000915666667,0xFE,0x00
"SPI","result",12.2606848,0.000915666667,0xFE,0x00
"SPI","result",12.2618447,0.000915666667,0xFE,0x00
"SPI","result",12.2630046,0.000915625,0xFF,0x00
"SPI","result",12.2641644,0.000915666667,0xFF,0x00
"SPI","result",12.2653243,0.000915666667,0xFF,0x00
"SPI","result",12.2664842,0.000915666667,0xFF,0x00
"SPI","result",12.267644,0.000915625,0xFF,0x00
"SPI","result",12.2688039,0.000915666667,0xFF,0x00
"SPI","result",12.2699638,0.000915666667,0x24,0x00
"SPI","result",12.2711236,0.000915666667,0x10,0x00
"SPI","result",12.2722835,0.000915666667,0x30,0x00
"SPI","result",12.2734433,0.000915666667,0x10,0x00
"SPI","result",12.2746032,0.000915666667,0x30,0x00
"SPI","result",12.2757631,0.000915666667,0x18,0x00
"SPI","result",12.276923,0.000915666667,0x3C,0x00
"SPI","result",12.2780828,0.000915625,0x18,0x00
"SPI","result",12.2792427,0.000915666667,0x18,0x00
"SPI","result",12.2804025,0.000915666667,0x3C,0x00
"SPI","result",12.2815624,0.000915666667,0xFF,0x00
"SPI","result",12.2827223,0.000915666667,0xFF,0x00
"SPI","result",12.2838821,0.000915666667,0xFF,0x00
"SPI","result",12.285042,0.000915666667,0xFF,0x00
"SPI","result",12.2862019,0.000915666667,0xFF,0x00
"SPI","result",12.2873618,0.000915666667,0xFF,0x00
"SPI","result",12.2885216,0.000915666667,0x02,0x00
"SPI","result",12.2896815,0.000915666667,0x62,0x00
"SPI","result",12.2908413,0.000915666667,0x02,0x00
"SPI","result",12.2920012,0.000915666667,0x62,0x00
"SPI","result",12.2931611,0.000915666667,0x02,0x00
"SPI","result",12.2943209,0.000915666667,0x62,0x00
"SPI","result",12.2954808,0.000915666667,0x42,0x00
"SPI","result",12.2966407,0.000915666667,0x22,0x00
"SPI","result",12.2978005,0.000915666667,0x02,0x00
"SPI","result",12.2989604,0.000915625,0x62,0x00
"SPI","result",12.3001203,0.000915666667,0xFF,0x00
"SPI","result",12.3012801,0.000915666667,0xFF,0x00
"SPI","result",12.30244,0.000915666667,0xFF,0x00
"SPI","result",12.3035999,0.000915666667,0xFF,0x00
"SPI","result",12.3047597,0.000915666667,0xFF,0x00
"SPI","result",12.3059196,0.000915666667,0xFF,0x00
"SPI","result",12.3070795,0.000915666667,0x19,0x00
"SPI","result",12.3082393,0.000915666667,0x30,0x00
"SPI","result",12.3093992,0.000915666667,0x19,0x00
"SPI","result",12.310559,0.000915666667,0x30,0x00
"SPI","result",12.3117189,0.000915666667,0x19,0x00
"SPI","result",12.3128788,0.000915666667,0x30,0x00
"SPI","result",12.3140387,0.000915666667,0x19,0x00
"SPI","result",12.3151985,0.000915666667,0x30,0x00
"SPI","result",12.3163584,0.000915666667,0x11,0x00
"SPI","result",12.3175182,0.000915666667,0x38,0x00
"SPI","result",12.3186781,0.000915666667,0xFF,0x00
"SPI","result",12.319838,0.000915666667,0xFF,0x00
"SPI","result",12.3209978,0.000915666667,0xFF,0x00
"SPI","result",12.3221577,0.000915666667,0xFF,0x00
"SPI","result",12.3233176,0.000915666667,0xFF,0x00
"SPI","result",12.3244775,0.000915666667,0xFF,0x00
"SPI","result",12.3256373,0.000915666667,0x4C,0x00
"SPI","result",12.3267972,0.000915666667,0x88,0x00
"SPI","result",12.327957,0.000915666667,0x4C,0x00
"SPI","result",12.3291169,0.000915666667,0x88,0x00
"SPI","result",12.3302767,0.000915666667,0x4C,0x00
"SPI","result",12.3314366,0.000915666667,0x88,0x00
"SPI","result",12.3325965,0.000915666667,0x48,0x00
"SPI","result",12.3337564,0.000915666667,0x8C,0x00
"SPI","result",12.3349162,0.000915666667,0xCC,0x00
"SPI","result",12.3360761,0.000915625,0x8E,0x00
"SPI","result",12.337236,0.000915666667,0xFF,0x00
"SPI","result",12.3383958,0.000915666667,0xFF,0x00
"SPI","result",12.3395557,0.000915666667,0xFF,0x00
"SPI","result",12.3407155,0.000915666667,0xFF,0x00
"SPI","result",12.3418754,0.000915666667,0xFF,0x00
"SPI","result",12.3430353,0.000915666667,0xFF,0x00
"SPI","result",12.3441952,0.000915666667,0x06,0x00
"SPI","result",12.345355,0.000915666667,0x00,0x00
"SPI","result",12.3465149,0.000915625,0xFA,0x00
"SPI","result",12.3476747,0.000915666667,0x04,0x00
"SPI","result",12.3488346,0.000915666667,0x7A,0x00
"SPI","result",12.3499945,0.000915666667,0xE4,0x00
"SPI","result",12.3511544,0.000915625,0xA2,0x00
"SPI","result",12.3523142,0.000915666667,0x44,0x00
"SPI","result",12.3534741,0.000915666667,0x06,0x00
"SPI","result",12.354634,0.000915666667,0x0C,0x00
"SPI","result",12.3557938,0.000915666667,0xFF,0x00
"SPI","result",12.3569537,0.000915666667,0xFF,0x00
"SPI","result",12.3581135,0.000915666667,0xFF,0x00
"SPI","result",12.3592734,0.000915666667,0xFF,0x00
"SPI","result",12.3604333,0.000915666667,0xFF,0x00
"SPI","result",12.3615931,0.000915666667,0xFF,0x00
"SPI","result",12.3628751,0.000915666667,0x20,0x00
"SPI","result",12.364035,0.000915666667,0x31,0x00
"SPI","result",12.3651948,0.000915666667,0x21,0x00
"SPI","result",12.3663547,0.000915666667,0x30,0x00
"SPI","result",12.3675146,0.000915625,0x20,0x00
"SPI","result",12.3686744,0.000915666667,0x31,0x00
"SPI","result",12.3698343,0.000915666667,0x21,0x00
"SPI","result",12.3709942,0.000915666667,0x31,0x00
"SPI","result",12.372154,0.000915666667,0x61,0x00
"SPI","result",12.3733139,0.000915666667,0x31,0x00
"SPI","result",12.3744737,0.000915666667,0xFF,0x00
"SPI","result",12.3756336,0.000915666667,0xFF,0x00
"SPI","result",12.3767935,0.000915666667,0xFF,0x00
"SPI","result",12.3779534,0.000915625,0xFF,0x00
"SPI","result",12.3791132,0.000915666667,0xFF,0x00
"SPI","result",12.3802731,0.000915666667,0xFF,0x00
"SPI","result",12.381433,0.000915666667,0x00,0x00
"SPI","result",12.3825928,0.000915666667,0x18,0x00
"SPI","result",12.3837527,0.000915666667,0x00,0x00
"SPI","result",12.3849125,0.000915666667,0x18,0x00
"SPI","result",12.3860724,0.000915666667,0x00,0x00
"SPI","result",12.3872323,0.000915666667,0x18,0x00
"SPI","result",12.3883922,0.000915625,0x98,0x00
"SPI","result",12.389552,0.000915666667,0x00,0x00
"SPI","result",12.3907119,0.000915666667,0xC0,0x00
"SPI","result",12.3918717,0.000915666667,0x80,0x00
"SPI","result",12.3930316,0.000915666667,0xFF,0x00
"SPI","result",12.3941915,0.000915666667,0xFF,0x00
"SPI","result",12.3953513,0.000915666667,0xFF,0x00
"SPI","result",12.3965112,0.000915666667,0xFF,0x00
"SPI","result",12.3976711,0.000915666667,0xFF,0x00
"SPI","result",12.398831,0.000915625,0xFF,0x00
"SPI","result",12.3999908,0.000915666667,0x04,0x00
"SPI","result",12.4011507,0.000915666667,0x8C,0x00
"SPI","result",12.4023105,0.000915666667,0x84,0x00
"SPI","result",12.4034704,0.000915666667,0x0C,0x00
"SPI","result",12.4046303,0.000915666667,0x04,0x00
"SPI","result",12.4057901,0.000915666667,0x8C,0x00
"SPI","result",12.40695,0.000915666667,0x48,0x00
"SPI","result",12.4081099,0.000915666667,0x84,0x00
"SPI","result",12.4092697,0.000915625,0x61,0x00
"SPI","result",12.4104296,0.000915666667,0xC0,0x00
"SPI","result",12.4115895,0.000915666667,0xFF,0x00
"SPI","result",12.4127493,0.000915666667,0xFF,0x00
"SPI","result",12.4139092,0.000915666667,0xFF,0x00
"SPI","result",12.415069,0.000915666667,0xFF,0x00
"SPI","result",12.4162289,0.000915666667,0xFF,0x00
"SPI","result",12.4173888,0.000915666667,0xFF,0x00
"SPI","result",12.4185487,0.000915666667,0x7F,0x00
"SPI","result",12.4197085,0.000915666667,0x3F,0x00
"SPI","result",12.4208684,0.000915666667,0x7F,0x00
"SPI","result",12.4220283,0.000915666667,0x3F,0x00
"SPI","result",12.4231881,0.000915666667,0x7F,0x00
"SPI","result",12.424348,0.000915666667,0x3F,0x00
"SPI","result",12.4255078,0.000915666667,0x3F,0x00
"SPI","result",12.4266677,0.000915666667,0x7F,0x00
"SPI","result",12.4278276,0.000915666667,0x7F,0x00
"SPI","result",12.4289875,0.000915666667,0xFF,0x00
"SPI","result",12.4301473,0.000915625,0xFF,0x00
"SPI","result",12.4313072,0.000915666667,0xFF,0x00
"SPI","result",12.432467,0.000915666667,0xFF,0x00
"SPI","result",12.4336269,0.000915666667,0xFF,0x00
"SPI","result",12.4347868,0.000915666667,0xFF,0x00
"SPI","result",12.4359466,0.000915666667,0xFF,0x00
"SPI","result",12.4371065,0.000915666667,0xFF,0x00
"SPI","result",12.4382664,0.000915666667,0xFF,0x00
"SPI","result",12.4394263,0.000915666667,0xFF,0x00
"SPI","result",12.4405861,0.000915625,0xFF,0x00
"SPI","result",12.441746,0.000915666667,0xFF,0x00
"SPI","result",12.4429058,0.000915666667,0xFF,0x00
"SPI","result",12.4440657,0.000915666667,0xFF,0x00
"SPI","result",12.4452256,0.000915666667,0xFF,0x00
"SPI","result",12.4463854,0.000915666667,0xFF,0x00
"SPI","result",12.4475453,0.000915666667,0xFF,0x00
"SPI","result",12.4487052,0.000915666667,0xFF,0x00
"SPI","result",12.449865,0.000915666667,0xFF,0x00
"SPI","result",12.4510249,0.000915625,0xFF,0x00
"SPI","result",12.4521848,0.000915666667,0xFF,0x00
"SPI","result",12.4533446,0.000915666667,0xFF,0x00
"SPI","result",12.4545045,0.000915666667,0xFF,0x00
"SPI","result",12.4556644,0.000915666667,0xFF,0x00
"SPI","result",12.4568242,0.000915666667,0xFF,0x00
"SPI","result",12.4579841,0.000915666667,0xFF,0x00
"SPI","result",12.459144,0.000915666667,0xFF,0x00
"SPI","result",12.4603038,0.000915666667,0xFF,0x00
"SPI","result",12.4614637,0.000915625,0xFF,0x00
"SPI","result",12.4626235,0.000915666667,0xFF,0x00
"SPI","result",12.4637834,0.000915666667,0xFF,0x00
"SPI","result",12.4649433,0.000915666667,0xFF,0x00
"SPI","result",12.4661032,0.000915666667,0xFF,0x00
"SPI","result",12.467263,0.000915666667,0xFF,0x00
"SPI","result",12.4684229,0.000915666667,0xFF,0x00
"SPI","result",12.4695828,0.000915666667,0xFF,0x00
"SPI","result",12.4707426,0.000915666667,0xFF,0x00
"SPI","result",12.4719025,0.000915625,0xFF,0x00
"SPI","result",12.4730623,0.000915666667,0xFF,0x00
"SPI","result",12.4742222,0.000915666667,0xFF,0x00
"SPI","result",12.4753821,0.000915666667,0xFF,0x00
"SPI","result",12.476542,0.000915666667,0xFF,0x00
"SPI","result",12.4777018,0.000915666667,0xFF,0x00
"SPI","result",12.4788617,0.000915666667,0xFF,0x00
"SPI","result",12.4800826,0.000915666667,0xFF,0x00
"SPI","result",12.4812425,0.000915666667,0xFF,0x00
"SPI","result",12.4824023,0.000915666667,0xFF,0x00
"SPI","result",12.4835622,0.000915666667,0xFF,0x00
"SPI","result",12.484722,0.000915666667,0xFF,0x00
"SPI","result",12.4858819,0.000915666667,0xFF,0x00
"SPI","result",12.4870418,0.000915666667,0xFF,0x00
"SPI","result",12.4882017,0.000915625,0xFF,0x00
"SPI","result",12.4893615,0.000915666667,0xFF,0x00
"SPI","result",12.4905214,0.000915666667,0xFF,0x00
"SPI","result",12.4916812,0.000915666667,0xFF,0x00
"SPI","result",12.4928411,0.000915666667,0xFF,0x00
"SPI","result",12.494001,0.000915666667,0xFF,0x00
"SPI","result",12.4951608,0.000915666667,0xFF,0x00
"SPI","result",12.4963207,0.000915666667,0xFF,0x00
"SPI","result",12.4974806,0.000915666667,0xFF,0x00
"SPI","result",12.4986405,0.000915625,0xFF,0x00
"SPI","result",12.4998003,0.000915666667,0xFF,0x00
"SPI","result",12.5009602,0.000915666667,0xFF,0x00
"SPI","result",12.50212,0.000915666667,0xFF,0x00
"SPI","result",12.5032799,0.000915666667,0xFF,0x00
"SPI","result",12.5044397,0.000915666667,0xFF,0x00
"SPI","result",12.5055996,0.000915666667,0xFF,0x00
"SPI","result",12.5067595,0.000915666667,0xFF,0x00
"SPI","result",12.5079194,0.000915666667,0xFF,0x00
"SPI","result",12.5090792,0.000915625,0xFF,0x00
"SPI","result",12.5102391,0.000915666667,0xFF,0x00
"SPI","result",12.511399,0.000915666667,0xFF,0x00
"SPI","result",12.5125588,0.000915666667,0xFF,0x00
"SPI","result",12.5137187,0.000915666667,0xFF,0x00
"SPI","result",12.5148785,0.000915666667,0xFF,0x00
"SPI","result",12.5160384,0.000915666667,0xFF,0x00
"SPI","result",12.5171983,0.000915666667,0xFF,0x00
"SPI","result",12.5183582,0.000915666667,0xFF,0x00
"SPI","result",12.519518,0.000915625,0xFF,0x00
"SPI","result",12.5206779,0.000915666667,0xFF,0x00
"SPI","result",12.5218377,0.000915666667,0xFF,0x00
"SPI","result",12.5229976,0.000915666667,0xFF,0x00
"SPI","result",12.5241575,0.000915666667,0xFF,0x00
"SPI","result",12.5253173,0.000915666667,0xFF,0x00
"SPI","result",12.5264772,0.000915666667,0xFF,0x00
"SPI","result",12.5276371,0.000915666667,0xFF,0x00
"SPI","result",12.528797,0.000915666667,0xFF,0x00
"SPI","result",12.5298957,0.000915666667,0xC6,0x00
"SPI","result",12.5309946,0.000915666667,0x0C,0x00
"SPI","result",12.5320934,0.000915666667,0x00,0x81
"SPI","result",12.5331922,0.000915666667,0x00,0x00
"SPI","result",12.5809299,0.000915666667,0x88,0x00
"SPI","result",12.5820287,0.000915666667,0x33,0x00
"SPI","result",12.5831885,0.000915666667,0x0F,0x00
"SPI","result",12.5843484,0.000915666667,0x00,0x00
"SPI","result",12.5855083,0.000915666667,0x00,0x00
"SPI","result",12.5866681,0.000915666667,0x00,0x00
"SPI","result",12.587828,0.000915666667,0x0F,0x00
"SPI","result",12.5889879,0.000915666667,0x00,0x00
"SPI","result",12.5901477,0.000915666667,0x00,0x81
"SPI","result",12.5913076,0.000915625,0x00,0x00
"SPI","result",12.601258,0.000915666667,0x88,0x00
"SPI","result",12.6023569,0.000915625,0x33,0x00
"SPI","result",12.6035167,0.000915666667,0x04,0x00
"SPI","result",12.6046766,0.000915666667,0x00,0x00
"SPI","result",12.6058365,0.000915666667,0x80,0x00
"SPI","result",12.6069963,0.000915666667,0x02,0x00
"SPI","result",12.6081562,0.000915625,0xFF,0x00
"SPI","result",12.609316,0.000915666667,0xFF,0x00
"SPI","result",12.6104759,0.000915666667,0xFF,0x00
"SPI","result",12.6116358,0.000915666667,0xFF,0x00
"SPI","result",12.6127957,0.000915625,0xFF,0x00
"SPI","result",12.6140165,0.000915666667,0xFF,0x00
"SPI","result",12.6151764,0.000915666667,0xFF,0x00
"SPI","result",12.6163363,0.000915666667,0xFF,0x00
"SPI","result",12.6174962,0.000915666667,0xFF,0x00
"SPI","result",12.618656,0.000915625,0xFF,0x00
"SPI","result",12.6198159,0.000915666667,0xFF,0x00
"SPI","result",12.6209757,0.000915666667,0xFF,0x00
"SPI","result",12.6221356,0.000915666667,0xFF,0x00
"SPI","result",12.6232955,0.000915625,0xFF,0x00
"SPI","result",12.6244553,0.000915666667,0xFF,0x00
"SPI","result",12.6256152,0.000915666667,0xFF,0x00
"SPI","result",12.6267751,0.000915666667,0xFF,0x00
"SPI","result",12.627935,0.000915666667,0xFF,0x00
"SPI","result",12.6290948,0.000915666667,0xFF,0x00
"SPI","result",12.6302547,0.000915666667,0xFF,0x00
"SPI","result",12.6314145,0.000915666667,0xFF,0x00
"SPI","result",12.6325744,0.000915666667,0xFF,0x00
"SPI","result",12.6337343,0.000915666667,0xFF,0x00
"SPI","result",12.6348941,0.000915666667,0xFF,0x00
"SPI","result",12.636054,0.000915666667,0xFF,0x00
"SPI","result",12.6372139,0.000915666667,0xFF,0x00
"SPI","result",12.6383737,0.000915666667,0xFF,0x00
"SPI","result",12.6395336,0.000915666667,0xFF,0x00
"SPI","result",12.6406935,0.000915666667,0xFF,0x00
"SPI","result",12.6418533,0.000915666667,0xFF,0x00
"SPI","result",12.6430132,0.000915666667,0xFF,0x00
"SPI","result",12.6441731,0.000915666667,0xFF,0x00
"SPI","result",12.6453329,0.000915666667,0xFF,0x00
"SPI","result",12.6464928,0.000915666667,0xFF,0x00
"SPI","result",12.6476527,0.000915666667,0xFF,0x00
"SPI","result",12.6488125,0.000915666667,0xFF,0x00
"SPI","result",12.6499724,0.000915666667,0xFF,0x00
"SPI","result",12.6511322,0.000915666667,0xFF,0x00
"SPI","result",12.6522921,0.000915666667,0xFF,0x00
"SPI","result",12.653452,0.000915666667,0xFF,0x00
"SPI","result",12.6546119,0.000915666667,0xFF,0x00
"SPI","result",12.6557717,0.000915666667,0xFF,0x00
"SPI","result",12.6569316,0.000915666667,0xFF,0x00
"SPI","result",12.6580915,0.000915666667,0xFF,0x00
"SPI","result",12.6592513,0.000915666667,0xFF,0x00
"SPI","result",12.6604112,0.000915666667,0xFF,0x00
"SPI","result",12.661571,0.000915666667,0xFF,0x00
"SPI","result",12.6627309,0.000915666667,0xFF,0x00
"SPI","result",12.6638908,0.000915666667,0xFF,0x00
"SPI","result",12.6650507,0.000915666667,0xFF,0x00
"SPI","result",12.6662105,0.000915666667,0xFF,0x00
"SPI","result",12.6673704,0.000915666667,0xFF,0x00
"SPI","result",12.6685302,0.000915666667,0xFF,0x00
"SPI","result",12.6696901,0.000915666667,0xFF,0x00
"SPI","result",12.67085,0.000915666667,0xFF,0x00
"SPI","result",12.6720098,0.000915666667,0xFF,0x00
"SPI","result",12.6731697,0.000915666667,0xFF,0x00
"SPI","result",12.6743296,0.000915666667,0xFF,0x00
"SPI","result",12.6754895,0.000915666667,0xFF,0x00
"SPI","result",12.6766493,0.000915666667,0xFF,0x00
"SPI","result",12.6778092,0.000915666667,0xFF,0x00
"SPI","result",12.678969,0.000915666667,0xFF,0x00
"SPI","result",12.6801289,0.000915666667,0xFF,0x00
"SPI","result",12.6812888,0.000915666667,0xFF,0x00
"SPI","result",12.6824486,0.000915666667,0xFF,0x00
"SPI","result",12.6836085,0.000915666667,0xFF,0x00
"SPI","result",12.6847684,0.000915666667,0xFF,0x00
"SPI","result",12.6859282,0.000915625,0xFF,0x00
"SPI","result",12.6870881,0.000915666667,0xFF,0x00
"SPI","result",12.688248,0.000915666667,0xFF,0x00
"SPI","result",12.6894078,0.000915666667,0xFF,0x00
"SPI","result",12.6905677,0.000915666667,0xFF,0x00
"SPI","result",12.6917275,0.000915666667,0xFF,0x00
"SPI","result",12.6928874,0.000915666667,0xFF,0x00
"SPI","result",12.6940473,0.000915666667,0xFF,0x00
"SPI","result",12.6952072,0.000915666667,0xFF,0x00
"SPI","result",12.696367,0.000915625,0xFF,0x00
"SPI","result",12.6975269,0.000915666667,0xFF,0x00
"SPI","result",12.6986868,0.000915666667,0xFF,0x00
"SPI","result",12.6998466,0.000915666667,0xFF,0x00
"SPI","result",12.7010065,0.000915666667,0xFF,0x00
"SPI","result",12.7021663,0.000915666667,0xFF,0x00
"SPI","result",12.7033262,0.000915666667,0xFF,0x00
"SPI","result",12.7044861,0.000915666667,0xFF,0x00
"SPI","result",12.705646,0.000915666667,0xFF,0x00
"SPI","result",12.7068058,0.000915625,0xFF,0x00
"SPI","result",12.7079657,0.000915666667,0xFF,0x00
"SPI","result",12.7091255,0.000915666667,0xFF,0x00
"SPI","result",12.7102854,0.000915666667,0xFF,0x00
"SPI","result",12.7114453,0.000915666667,0xFF,0x00
"SPI","result",12.7126051,0.000915666667,0xFF,0x00
"SPI","result",12.713765,0.000915666667,0xFF,0x00
"SPI","result",12.7149249,0.000915666667,0xFF,0x00
"SPI","result",12.7160848,0.000915666667,0xFF,0x00
"SPI","result",12.7172446,0.000915666667,0xFF,0x00
"SPI","result",12.7184045,0.000915666667,0xFF,0x00
"SPI","result",12.7195643,0.000915666667,0xFF,0x00
"SPI","result",12.7207242,0.000915666667,0xFF,0x00
"SPI","result",12.7218841,0.000915666667,0xFF,0x00
"SPI","result",12.7230439,0.000915666667,0xFF,0x00
"SPI","result",12.7242038,0.000915666667,0xFF,0x00
"SPI","result",12.7253637,0.000915666667,0xFF,0x00
"SPI","result",12.7265235,0.000915666667,0xFF,0x00
"SPI","result",12.7276834,0.000915625,0xFF,0x00
"SPI","result",12.7288433,0.000915666667,0xFF,0x00
"SPI","result",12.7300031,0.000915666667,0xFF,0x00
"SPI","result",12.7312851,0.000915666667,0xFF,0x00
"SPI","result",12.732445,0.000915666667,0xFF,0x00
"SPI","result",12.7336048,0.000915666667,0xFF,0x00
"SPI","result",12.7347647,0.000915666667,0xFF,0x00
"SPI","result",12.7359245,0.000915666667,0xFF,0x00
"SPI","result",12.7370844,0.000915666667,0xFF,0x00
"SPI","result",12.7382443,0.000915666667,0xFF,0x00
"SPI","result",12.7394042,0.000915625,0xFF,0x00
"SPI","result",12.740564,0.000915666667,0xFF,0x00
"SPI","result",12.7417239,0.000915666667,0xFF,0x00
"SPI","result",12.7428838,0.000915666667,0xFF,0x00
"SPI","result",12.7440436,0.000915666667,0xFF,0x00
"SPI","result",12.7452035,0.000915666667,0xFF,0x00
"SPI","result",12.7463633,0.000915666667,0xFF,0x00
"SPI","result",12.7475232,0.000915666667,0xFF,0x00
"SPI","result",12.7486831,0.000915666667,0xFF,0x00
"SPI","result",12.749843,0.000915625,0xFF,0x00
"SPI","result",12.7510028,0.000915666667,0xFF,0x00
"SPI","result",12.7521627,0.000915666667,0xFF,0x00
"SPI","result",12.7533225,0.000915666667,0xFF,0x00
"SPI","result",12.7544824,0.000915666667,0xFF,0x00
"SPI","result",12.7556422,0.000915666667,0xFF,0x00
"SPI","result",12.7568021,0.000915666667,0xF5,0x00
"SPI","result",12.757962,0.000915666667,0xFF,0x00
"SPI","result",12.7591219,0.000915666667,0xF2,0x00
"SPI","result",12.7602818,0.000915625,0xFF,0x00
"SPI","result",12.7614416,0.000915666667,0xD5,0x00
"SPI","result",12.7626015,0.000915666667,0xFF,0x00
"SPI","result",12.7637613,0.000915666667,0xCA,0x00
"SPI","result",12.7649212,0.000915666667,0xFF,0x00
"SPI","result",12.766081,0.000915666667,0xD5,0x00
"SPI","result",12.7672409,0.000915666667,0xFF,0x00
"SPI","result",12.7684008,0.000915666667,0xA0,0x00
"SPI","result",12.7695607,0.000915666667,0xFF,0x00
"SPI","result",12.7707205,0.000915625,0xD5,0x00
"SPI","result",12.7718804,0.000915666667,0xFF,0x00
"SPI","result",12.7730402,0.000915666667,0xBF,0x00
"SPI","result",12.7742001,0.000915666667,0xFF,0x00
"SPI","result",12.77536,0.000915708333,0x42,0x00
"SPI","result",12.7765199,0.000915625,0xFD,0x00
"SPI","result",12.7776797,0.000915666667,0x00,0x00
"SPI","result",12.7788396,0.000915666667,0xFF,0x00
"SPI","result",12.7799995,0.000915666667,0x68,0x00
"SPI","result",12.7811593,0.000915625,0xD7,0x00
"SPI","result",12.7823192,0.000915666667,0x02,0x00
"SPI","result",12.783479,0.000915666667,0xFC,0x00
"SPI","result",12.7846389,0.000915666667,0x29,0x00
"SPI","result",12.7857988,0.000915666667,0xD4,0x00
"SPI","result",12.7869586,0.000915666667,0x02,0x00
"SPI","result",12.7881185,0.000915666667,0xF8,0x00
"SPI","result",12.7892784,0.000915666667,0x15,0x00
"SPI","result",12.7904382,0.000915666667,0xF0,0x00
"SPI","result",12.7915981,0.000915625,0x0A,0x00
"SPI","result",12.792758,0.000915666667,0xF0,0x00
"SPI","result",12.7939178,0.000915666667,0x17,0x00
"SPI","result",12.7950777,0.000915666667,0xC0,0x00
"SPI","result",12.7962376,0.000915666667,0xBF,0x00
"SPI","result",12.7973974,0.000915666667,0x00,0x00
"SPI","result",12.7985573,0.000915666667,0x55,0x00
"SPI","result",12.7997172,0.000915666667,0x00,0x00
"SPI","result",12.800877,0.000915666667,0xFF,0x00
"SPI","result",12.8020369,0.000915666667,0x00,0x00
"SPI","result",12.8031967,0.000915666667,0x55,0x00
"SPI","result",12.8043566,0.000915666667,0x00,0x00
"SPI","result",12.8055165,0.000915666667,0xBB,0x00
"SPI","result",12.8066763,0.000915708333,0x00,0x00
"SPI","result",12.8078362,0.000915666667,0x55,0x00
"SPI","result",12.8089961,0.000915666667,0x00,0x00
"SPI","result",12.810156,0.000915666667,0xAA,0x00
"SPI","result",12.8113158,0.000915666667,0x00,0x00
"SPI","result",12.8124757,0.000915625,0x76,0x00
"SPI","result",12.8136355,0.000915666667,0x01,0x00
"SPI","result",12.8147954,0.000915666667,0xFF,0x00
"SPI","result",12.8159553,0.000915666667,0x00,0x00
"SPI","result",12.8171152,0.000915666667,0x55,0x00
"SPI","result",12.818275,0.000915666667,0x00,0x00
"SPI","result",12.8194349,0.000915666667,0xFF,0x00
"SPI","result",12.8205947,0.000915666667,0x00,0x00
"SPI","result",12.8217546,0.000915666667,0x75,0x00
"SPI","result",12.8229145,0.000915666667,0x00,0x00
"SPI","result",12.8240743,0.000915666667,0xBF,0x00
"SPI","result",12.8252342,0.000915666667,0x00,0x00
"SPI","result",12.8263941,0.000915666667,0x55,0x00
"SPI","result",12.8275539,0.000915708333,0x00,0x00
"SPI","result",12.8287138,0.000915625,0xFF,0x00
"SPI","result",12.8298737,0.000915666667,0x00,0x00
"SPI","result",12.8310335,0.000915666667,0xBF,0x00
"SPI","result",12.8321934,0.000915666667,0x7F,0x00
"SPI","result",12.8333533,0.000915666667,0x3F,0x00
"SPI","result",12.8345131,0.000915666667,0xFF,0x00
"SPI","result",12.835673,0.000915666667,0xD5,0x00
"SPI","result",12.8368329,0.000915666667,0x7F,0x00
"SPI","result",12.8379927,0.000915666667,0xFE,0x00
"SPI","result",12.8391526,0.000915666667,0x3F,0x00
"SPI","result",12.8403125,0.000915666667,0x75,0x00
"SPI","result",12.8414723,0.000915666667,0x1F,0x00
"SPI","result",12.8426322,0.000915666667,0xFF,0x00
"SPI","result",12.843792,0.000915666667,0x0F,0x00
"SPI","result",12.8449519,0.000915666667,0x57,0x00
"SPI","result",12.8461118,0.000915666667,0x0C,0x00
"SPI","result",12.8472717,0.000915666667,0xEC,0x00
"SPI","result",12.8484926,0.000915666667,0x00,0x00
"SPI","result",12.8496525,0.000915625,0xFF,0x00
"SPI","result",12.8508123,0.000915666667,0xFF,0x00
"SPI","result",12.8519722,0.000915666667,0xFF,0x00
"SPI","result",12.853132,0.000915666667,0xFF,0x00
"SPI","result",12.8542919,0.000915708333,0x57,0x00
"SPI","result",12.8554518,0.000915666667,0xFC,0x00
"SPI","result",12.8566116,0.000915666667,0xA8,0x00
"SPI","result",12.8577715,0.000915666667,0xF0,0x00
"SPI","result",12.8589314,0.000915666667,0x71,0x00
"SPI","result",12.8600912,0.000915666667,0xC0,0x00
"SPI","result",12.8612511,0.000915666667,0x00,0x00
"SPI","result",12.862411,0.000915666667,0x80,0x00
"SPI","result",12.8635708,0.000915666667,0x15,0x00
"SPI","result",12.8647307,0.000915708333,0x00,0x00
"SPI","result",12.8658905,0.000915666667,0x0A,0x00
"SPI","result",12.8670504,0.000915666667,0x00,0x00
"SPI","result",12.8682103,0.000915666667,0xF5,0x00
"SPI","result",12.8693702,0.000915666667,0xFF,0x00
"SPI","result",12.87053,0.000915666667,0xFB,0x00
"SPI","result",12.8716899,0.000915666667,0x80,0x00
"SPI","result",12.8728498,0.000915666667,0x45,0x00
"SPI","result",12.8740096,0.000915666667,0x00,0x00
"SPI","result",12.8751695,0.000915666667,0x0A,0x00
"SPI","result",12.8763293,0.000915666667,0x00,0x00
"SPI","result",12.8774892,0.000915666667,0x55,0x00
"SPI","result",12.8786491,0.000915666667,0x00,0x00
"SPI","result",12.879809,0.000915666667,0x3B,0x00
"SPI","result",12.8809688,0.000915666667,0x00,0x00
"SPI","result",12.8821287,0.000915666667,0x55,0x00
"SPI","result",12.8832885,0.000915666667,0x00,0x00
"SPI","result",12.8844484,0.000915666667,0xAF,0x00
"SPI","result",12.8856083,0.000915708333,0x00,0x00
"SPI","result",12.8867682,0.000915625,0xFD,0x00
"SPI","result",12.887928,0.000915666667,0xFF,0x00
"SPI","result",12.8890879,0.000915666667,0x7F,0x00
"SPI","result",12.8902478,0.000915666667,0xFF,0x00
"SPI","result",12.8914076,0.000915666667,0xBD,0x00
"SPI","result",12.8925675,0.000915666667,0x7F,0x00
"SPI","result",12.8937273,0.000915666667,0xDE,0x00
"SPI","result",12.8948872,0.000915666667,0x3F,0x00
"SPI","result",12.896047,0.000915666667,0x6F,0x00
"SPI","result",12.8972069,0.000915666667,0x1F,0x00
"SPI","result",12.8983668,0.000915666667,0xFE,0x00
"SPI","result",12.8995267,0.000915666667,0x0F,0x00
"SPI","result",12.9006865,0.000915666667,0x5D,0x00
"SPI","result",12.9018464,0.000915666667,0x0F,0x00
"SPI","result",12.9030063,0.000915666667,0xFE,0x00
"SPI","result",12.9041661,0.000915666667,0x0F,0x00
"SPI","result",12.905326,0.000915666667,0x57,0x00
"SPI","result",12.9064859,0.000915625,0xFF,0x00
"SPI","result",12.9076457,0.000915666667,0x3B,0x00
"SPI","result",12.9088056,0.000915666667,0xFF,0x00
"SPI","result",12.9099655,0.000915666667,0x55,0x00
"SPI","result",12.9111253,0.000915666667,0xFF,0x00
"SPI","result",12.9122852,0.000915666667,0xAE,0x00
"SPI","result",12.913445,0.000915666667,0xFF,0x00
"SPI","result",12.9146049,0.000915666667,0x75,0x00
"SPI","result",12.9157648,0.000915666667,0xFF,0x00
"SPI","result",12.9169247,0.000915666667,0xEA,0x00
"SPI","result",12.9180845,0.000915625,0xFF,0x00
"SPI","result",12.9192444,0.000915666667,0x55,0x00
"SPI","result",12.9204043,0.000915666667,0xFF,0x00
"SPI","result",12.9215641,0.000915666667,0xEA,0x00
"SPI","result",12.922724,0.000915625,0xFF,0x00
"SPI","result",12.9238838,0.000915666667,0xD5,0x00
"SPI","result",12.9250437,0.000915666667,0xFF,0x00
"SPI","result",12.9262036,0.000915666667,0xFF,0x00
"SPI","result",12.9273635,0.000915625,0xFF,0x00
"SPI","result",12.9285233,0.000915666667,0xD5,0x00
"SPI","result",12.9296832,0.000915666667,0xFF,0x00
"SPI","result",12.930843,0.000915666667,0xEF,0x00
"SPI","result",12.9320029,0.000915666667,0xFF,0x00
"SPI","result",12.9331627,0.000915666667,0x55,0x00
"SPI","result",12.9343226,0.000915666667,0xFF,0x00
"SPI","result",12.9354825,0.000915666667,0xBF,0x00
"SPI","result",12.9366424,0.000915666667,0xFF,0x00
"SPI","result",12.9378022,0.000915666667,0x55,0x00
"SPI","result",12.9389621,0.000915666667,0xFF,0x00
"SPI","result",12.940122,0.000915666667,0xFF,0x00
"SPI","result",12.9412818,0.000915666667,0xFF,0x00
"SPI","result",12.9424417,0.000915666667,0xFF,0x00
"SPI","result",12.9436015,0.000915666667,0xFF,0x00
"SPI","result",12.9447614,0.000915666667,0xFF,0x00
"SPI","result",12.9459213,0.000915666667,0xFF,0x00
"SPI","result",12.9470812,0.000915666667,0xFF,0x00
"SPI","result",12.948241,0.000915666667,0xFF,0x00
"SPI","result",12.9494009,0.000915666667,0xFF,0x00
"SPI","result",12.9505607,0.000915666667,0xFF,0x00
"SPI","result",12.9517206,0.000915666667,0xFF,0x00
"SPI","result",12.9528805,0.000915666667,0xFF,0x00
"SPI","result",12.9540403,0.000915666667,0xFF,0x00
"SPI","result",12.9552002,0.000915666667,0xFF,0x00
"SPI","result",12.9563601,0.000915666667,0xFF,0x00
"SPI","result",12.95752,0.000915666667,0xFF,0x00
"SPI","result",12.9586798,0.000915625,0xFF,0x00
"SPI","result",12.9598397,0.000915666667,0xFF,0x00
"SPI","result",12.9609995,0.000915666667,0xFF,0x00
"SPI","result",12.9621594,0.000915666667,0xFF,0x00
"SPI","result",12.9633193,0.000915666667,0xFF,0x00
"SPI","result",12.9644791,0.000915666667,0xFF,0x00
"SPI","result",12.9657,0.000915666667,0xFF,0x00
"SPI","result",12.9668599,0.000915666667,0xFF,0x00
"SPI","result",12.9680198,0.000915666667,0xFF,0x00
"SPI","result",12.9691797,0.000915666667,0xFF,0x00
"SPI","result",12.9703395,0.000915666667,0xFF,0x00
"SPI","result",12.9714994,0.000915666667,0xFF,0x00
"SPI","result",12.9726592,0.000915666667,0xFF,0x00
"SPI","result",12.9738191,0.000915666667,0xFF,0x00
"SPI","result",12.974979,0.000915625,0xFF,0x00
"SPI","result",12.9761388,0.000915666667,0xFF,0x00
"SPI","result",12.9772987,0.000915666667,0xFF,0x00
"SPI","result",12.9784586,0.000915666667,0xFF,0x00
"SPI","result",12.9796185,0.000915666667,0xFF,0x00
"SPI","result",12.9807783,0.000915666667,0xFF,0x00
"SPI","result",12.9819382,0.000915666667,0xFF,0x00
"SPI","result",12.983098,0.000915666667,0xFF,0x00
"SPI","result",12.9842579,0.000915666667,0xFF,0x00
"SPI","result",12.9854178,0.000915625,0xFF,0x00
"SPI","result",12.9865776,0.000915666667,0xFF,0x00
"SPI","result",12.9877375,0.000915666667,0xFF,0x00
"SPI","result",12.9888974,0.000915666667,0xFF,0x00
"SPI","result",12.9900572,0.000915666667,0xFF,0x00
"SPI","result",12.9912171,0.000915666667,0xFF,0x00
"SPI","result",12.992377,0.000915666667,0xFF,0x00
"SPI","result",12.9935368,0.000915666667,0xFF,0x00
"SPI","result",12.9946967,0.000915666667,0xFF,0x00
"SPI","result",12.9958566,0.000915625,0xFF,0x00
"SPI","result",12.9970164,0.000915666667,0xFF,0x00
"SPI","result",12.9981763,0.000915666667,0xFF,0x00
"SPI","result",12.9993362,0.000915666667,0xFF,0x00
"SPI","result",13.000496,0.000915666667,0xFF,0x00
"SPI","result",13.0016559,0.000915666667,0xFF,0x00
"SPI","result",13.0028157,0.000915666667,0xFF,0x00
"SPI","result",13.0039756,0.000915666667,0xFF,0x00
"SPI","result",13.0051355,0.000915666667,0xFF,0x00
"SPI","result",13.0062954,0.000915625,0xFF,0x00
"SPI","result",13.0074552,0.000915666667,0xFF,0x00
"SPI","result",13.0086151,0.000915666667,0xFF,0x00
"SPI","result",13.009775,0.000915666667,0xFF,0x00
"SPI","result",13.0109348,0.000915666667,0xFF,0x00
"SPI","result",13.0120947,0.000915666667,0xFF,0x00
"SPI","result",13.0132545,0.000915666667,0xFF,0x00
"SPI","result",13.0144144,0.000915666667,0xFF,0x00
"SPI","result",13.0155743,0.000915666667,0xFF,0x00
"SPI","result",13.0167342,0.000915625,0xFF,0x00
"SPI","result",13.017894,0.000915666667,0xFF,0x00
"SPI","result",13.0190539,0.000915666667,0xFF,0x00
"SPI","result",13.0202137,0.000915666667,0xFF,0x00
"SPI","result",13.0213736,0.000915666667,0xFF,0x00
"SPI","result",13.0225335,0.000915666667,0xFF,0x00
"SPI","result",13.0236933,0.000915666667,0xFF,0x00
"SPI","result",13.0248532,0.000915666667,0xFF,0x00
"SPI","result",13.0260131,0.000915666667,0xFF,0x00
"SPI","result",13.027173,0.000915625,0xFF,0x00
"SPI","result",13.0283328,0.000915666667,0xFF,0x00
"SPI","result",13.0294927,0.000915666667,0xFF,0x00
"SPI","result",13.0306525,0.000915666667,0xFF,0x00
"SPI","result",13.0318124,0.000915666667,0xFF,0x00
"SPI","result",13.0329723,0.000915666667,0xFF,0x00
"SPI","result",13.0341321,0.000915666667,0xFF,0x00
"SPI","result",13.035292,0.000915666667,0xFF,0x00
"SPI","result",13.0364519,0.000915666667,0xFF,0x00
"SPI","result",13.0376117,0.000915625,0xFF,0x00
"SPI","result",13.0387716,0.000915666667,0xFF,0x00
"SPI","result",13.0399315,0.000915666667,0xFF,0x00
"SPI","result",13.0410913,0.000915666667,0xFF,0x00
"SPI","result",13.0422512,0.000915666667,0xFF,0x00
"SPI","result",13.043411,0.000915666667,0xFF,0x00
"SPI","result",13.0445709,0.000915666667,0xFF,0x00
"SPI","result",13.0457308,0.000915666667,0xFF,0x00
"SPI","result",13.0468907,0.000915666667,0xFF,0x00
"SPI","result",13.0480505,0.000915625,0xFF,0x00
"SPI","result",13.0492104,0.000915666667,0xFF,0x00
"SPI","result",13.0503703,0.000915666667,0xFF,0x00
"SPI","result",13.0515301,0.000915666667,0xFF,0x00
"SPI","result",13.05269,0.000915666667,0xFF,0x00
"SPI","result",13.0538498,0.000915666667,0xFF,0x00
"SPI","result",13.0550097,0.000915666667,0xFF,0x00
"SPI","result",13.0561696,0.000915666667,0xFF,0x00
"SPI","result",13.0573295,0.000915666667,0xFF,0x00
"SPI","result",13.0584893,0.000915625,0xFF,0x00
"SPI","result",13.0596492,0.000915666667,0xFF,0x00
"SPI","result",13.060809,0.000915666667,0xFD,0x00
"SPI","result",13.0619689,0.000915666667,0xFE,0x00
"SPI","result",13.0631288,0.000915666667,0xFD,0x00
"SPI","result",13.0642886,0.000915666667,0xF8,0x00
"SPI","result",13.0654485,0.000915666667,0xF2,0x00
"SPI","result",13.0666084,0.000915666667,0xF0,0x00
"SPI","result",13.0677683,0.000915666667,0xF5,0x00
"SPI","result",13.0689281,0.000915625,0xE0,0x00
"SPI","result",13.070088,0.000915666667,0xCA,0x00
"SPI","result",13.0712478,0.000915666667,0xE0,0x00
"SPI","result",13.0724077,0.000915666667,0xFF,0x00
"SPI","result",13.0735676,0.000915666667,0xFF,0x00
"SPI","result",13.0747274,0.000915666667,0xFF,0x00
"SPI","result",13.0758873,0.000915666667,0xFF,0x00
"SPI","result",13.0770472,0.000915666667,0xDF,0x00
"SPI","result",13.078207,0.000915666667,0xFF,0x00
"SPI","result",13.0793669,0.000915625,0xAF,0x00
"SPI","result",13.0805268,0.000915666667,0x00,0x00
"SPI","result",13.0816866,0.000915666667,0x55,0x00
"SPI","result",13.0829075,0.000915666667,0x00,0x00
"SPI","result",13.0840674,0.000915666667,0x22,0x00
"SPI","result",13.0852273,0.000915625,0x00,0x00
"SPI","result",13.0863871,0.000915666667,0x55,0x00
"SPI","result",13.087547,0.000915666667,0x00,0x00
"SPI","result",13.0887069,0.000915666667,0xAF,0x00
"SPI","result",13.0898667,0.000915708333,0x00,0x00
"SPI","result",13.0910266,0.000915625,0xFF,0x00
"SPI","result",13.0921865,0.000915666667,0xFF,0x00
"SPI","result",13.0933463,0.000915666667,0xFF,0x00
"SPI","result",13.0945062,0.000915666667,0xFF,0x00
"SPI","result",13.0956661,0.000915625,0xFF,0x00
"SPI","result",13.0968259,0.000915666667,0xFF,0x00
"SPI","result",13.0979858,0.000915666667,0x7F,0x00
"SPI","result",13.0991457,0.000915666667,0xFF,0x00
"SPI","result",13.1003055,0.000915708333,0x6F,0x00
"SPI","result",13.1014654,0.000915666667,0x17,0x00
"SPI","result",13.1026252,0.000915666667,0x0B,0x00
"SPI","result",13.1037851,0.000915666667,0x00,0x00
"SPI","result",13.104945,0.000915666667,0x55,0x00
"SPI","result",13.1061048,0.000915666667,0x00,0x00
"SPI","result",13.1072647,0.000915666667,0xE8,0x00
"SPI","result",13.1084246,0.000915666667,0x00,0x00
"SPI","result",13.1095845,0.000915666667,0xFF,0x00
"SPI","result",13.1107443,0.000915666667,0xFF,0x00
"SPI","result",13.1119042,0.000915666667,0xFF,0x00
"SPI","result",13.113064,0.000915666667,0xFF,0x00
"SPI","result",13.1142239,0.000915666667,0xFF,0x00
"SPI","result",13.1153838,0.000915666667,0xFF,0x00
"SPI","result",13.1165437,0.000915625,0xFF,0x00
"SPI","result",13.1177035,0.000915666667,0xFF,0x00
"SPI","result",13.1188634,0.000915666667,0xFF,0x00
"SPI","result",13.1200232,0.000915666667,0xFF,0x00
"SPI","result",13.1211831,0.000915708333,0x3F,0x00
"SPI","result",13.122343,0.000915666667,0xFF,0x00
"SPI","result",13.1235028,0.000915666667,0x77,0x00
"SPI","result",13.1246627,0.000915666667,0x0F,0x00
"SPI","result",13.1258226,0.000915666667,0x3F,0x00
"SPI","result",13.1269824,0.000915666667,0x00,0x00
"SPI","result",13.1281423,0.000915666667,0xD1,0x00
"SPI","result",13.1293022,0.000915666667,0xFF,0x00
"SPI","result",13.130462,0.000915666667,0xB0,0x00
"SPI","result",13.1316219,0.000915666667,0xFF,0x00
"SPI","result",13.1327817,0.000915666667,0xD8,0x00
"SPI","result",13.1339416,0.000915666667,0xF7,0x00
"SPI","result",13.1351015,0.000915666667,0x80,0x00
"SPI","result",13.1362614,0.000915666667,0xFF,0x00
"SPI","result",13.1374212,0.000915666667,0x09,0x00
"SPI","result",13.1385811,0.000915666667,0xF7,0x00
"SPI","result",13.139741,0.000915666667,0x01,0x00
"SPI","result",13.1409008,0.000915666667,0xFF,0x00
"SPI","result",13.1420607,0.000915666667,0x82,0x00
"SPI","result",13.1432206,0.000915625,0xFD,0x00
"SPI","result",13.1443804,0.000915666667,0xFE,0x00
"SPI","result",13.1455403,0.000915666667,0x00,0x00
"SPI","result",13.1467002,0.000915666667,0x15,0x00
"SPI","result",13.14786,0.000915625,0xE0,0x00
"SPI","result",13.1490199,0.000915666667,0x13,0x00
"SPI","result",13.1501797,0.000915666667,0xE0,0x00
"SPI","result",13.1513396,0.000915666667,0x55,0x00
"SPI","result",13.1524995,0.000915666667,0xC0,0x00
"SPI","result",13.1536593,0.000915666667,0x6E,0x00
"SPI","result",13.1548192,0.000915666667,0xC0,0x00
"SPI","result",13.1559791,0.000915666667,0x55,0x00
"SPI","result",13.157139,0.000915666667,0x80,0x00
"SPI","result",13.1582988,0.000915625,0xBA,0x00
"SPI","result",13.1594587,0.000915666667,0x80,0x00
"SPI","result",13.1606185,0.000915666667,0x55,0x00
"SPI","result",13.1617784,0.000915666667,0x00,0x00
"SPI","result",13.1629383,0.000915666667,0xAA,0x00
"SPI","result",13.1640981,0.000915666667,0x00,0x00
"SPI","result",13.165258,0.000915666667,0x55,0x00
"SPI","result",13.1664179,0.000915666667,0x00,0x00
"SPI","result",13.1675777,0.000915666667,0xA3,0x00
"SPI","result",13.1687376,0.000915666667,0x00,0x00
"SPI","result",13.1698975,0.000915666667,0x55,0x00
"SPI","result",13.1710573,0.000915666667,0x00,0x00
"SPI","result",13.1722172,0.000915666667,0xAF,0x00
"SPI","result",13.173377,0.000915708333,0x01,0x00
"SPI","result",13.1745369,0.000915666667,0x57,0x00
"SPI","result",13.1756968,0.000915666667,0x03,0x00
"SPI","result",13.1768567,0.000915666667,0xAF,0x00
"SPI","result",13.1780165,0.000915666667,0x07,0x00
"SPI","result",13.1791764,0.000915666667,0x5F,0x00
"SPI","result",13.1803362,0.000915666667,0x04,0x00
"SPI","result",13.1814961,0.000915666667,0xAC,0x00
"SPI","result",13.182656,0.000915666667,0x0C,0x00
"SPI","result",13.1838159,0.000915666667,0x55,0x00
"SPI","result",13.1849757,0.000915666667,0x00,0x00
"SPI","result",13.1861356,0.000915666667,0xFF,0x00
"SPI","result",13.1872955,0.000915666667,0x00,0x00
"SPI","result",13.1884553,0.000915666667,0xA5,0x00
"SPI","result",13.1896152,0.000915666667,0x50,0x00
"SPI","result",13.190775,0.000915666667,0xFA,0x00
"SPI","result",13.1919349,0.000915666667,0xFC,0x00
"SPI","result",13.1930948,0.000915666667,0xA5,0x00
"SPI","result",13.1942547,0.000915666667,0xDE,0x00
"SPI","result",13.1954145,0.000915666667,0x01,0x00
"SPI","result",13.1965744,0.000915666667,0x02,0x00
"SPI","result",13.1977342,0.000915666667,0x55,0x00
"SPI","result",13.1988941,0.000915666667,0x00,0x00
"SPI","result",13.200115,0.000915666667,0x0E,0x00
"SPI","result",13.2012749,0.000915666667,0x00,0x00
"SPI","result",13.2024348,0.000915666667,0x55,0x00
"SPI","result",13.2035946,0.000915666667,0x00,0x00
"SPI","result",13.2047545,0.000915666667,0xAE,0x00
"SPI","result",13.2059143,0.000915666667,0x00,0x00
"SPI","result",13.2070742,0.000915666667,0x55,0x00
"SPI","result",13.2082341,0.000915666667,0x00,0x00
"SPI","result",13.209394,0.000915666667,0xEF,0x00
"SPI","result",13.2105538,0.000915708333,0x00,0x00
"SPI","result",13.2117137,0.000915666667,0x57,0x00
"SPI","result",13.2128735,0.000915666667,0x00,0x00
"SPI","result",13.2140334,0.000915666667,0xBF,0x00
"SPI","result",13.2151933,0.000915666667,0x00,0x00
"SPI","result",13.2163531,0.000915666667,0x7F,0x00
"SPI","result",13.217513,0.000915666667,0x00,0x00
"SPI","result",13.2186729,0.000915666667,0xFF,0x00
"SPI","result",13.2198328,0.000915666667,0x00,0x00
"SPI","result",13.2209926,0.000915666667,0x55,0x00
"SPI","result",13.2221525,0.000915666667,0x00,0x00
"SPI","result",13.2233123,0.000915666667,0xA3,0x00
"SPI","result",13.2244722,0.000915666667,0x00,0x00
"SPI","result",13.2256321,0.000915666667,0x55,0x00
"SPI","result",13.2267919,0.000915666667,0x00,0x00
"SPI","result",13.2279518,0.000915666667,0xFE,0x00
"SPI","result",13.2291117,0.000915666667,0x00,0x00
"SPI","result",13.2302715,0.000915666667,0x77,0x00
"SPI","result",13.2314314,0.000915666667,0x00,0x00
"SPI","result",13.2325913,0.000915625,0xFF,0x00
"SPI","result",13.2337511,0.000915666667,0x00,0x00
"SPI","result",13.234911,0.000915666667,0xFB,0x00
"SPI","result",13.2360709,0.000915666667,0x04,0x00
"SPI","result",13.2372308,0.000915625,0xFF,0x00
"SPI","result",13.2383906,0.000915666667,0x00,0x00
"SPI","result",13.2395505,0.000915666667,0x55,0x00
"SPI","result",13.2407103,0.000915666667,0x00,0x00
"SPI","result",13.2418702,0.000915625,0xBB,0x00
"SPI","result",13.24303,0.000915666667,0x00,0x00
"SPI","result",13.2441899,0.000915666667,0x55,0x00
"SPI","result",13.2453498,0.000915666667,0x00,0x00
"SPI","result",13.2465097,0.000915666667,0xAF,0x00
"SPI","result",13.2476695,0.000915666667,0x00,0x00
"SPI","result",13.2488294,0.000915666667,0x55,0x00
"SPI","result",13.2499893,0.000915666667,0x00,0x00
"SPI","result",13.2511491,0.000915666667,0x82,0x00
"SPI","result",13.252309,0.000915666667,0x00,0x00
"SPI","result",13.2534689,0.000915625,0x85,0x00
"SPI","result",13.2546287,0.000915666667,0x40,0x00
"SPI","result",13.2557886,0.000915666667,0xDF,0x00
"SPI","result",13.2569485,0.000915666667,0x20,0x00
"SPI","result",13.2581083,0.000915666667,0x75,0x00
"SPI","result",13.2592682,0.000915666667,0x0F,0x00
"SPI","result",13.260428,0.000915666667,0xF6,0x00
"SPI","result",13.2615879,0.000915666667,0x0F,0x00
"SPI","result",13.2627478,0.000915666667,0x5D,0x00
"SPI","result",13.2639076,0.000915666667,0x07,0x00
"SPI","result",13.2650675,0.000915666667,0xFA,0x00
"SPI","result",13.2662274,0.000915666667,0x07,0x00
"SPI","result",13.2673873,0.000915666667,0x53,0x00
"SPI","result",13.2685471,0.000915666667,0x07,0x00
"SPI","result",13.269707,0.000915666667,0x2F,0x00
"SPI","result",13.2708668,0.000915666667,0x03,0x00
"SPI","result",13.2720267,0.000915666667,0x5E,0x00
"SPI","result",13.2731866,0.000915625,0x01,0x00
"SPI","result",13.2743464,0.000915666667,0xFF,0x00
"SPI","result",13.2755063,0.000915666667,0x00,0x00
"SPI","result",13.2766662,0.000915666667,0x55,0x00
"SPI","result",13.277826,0.000915666667,0xFF,0x00
"SPI","result",13.2789859,0.000915666667,0xBA,0x00
"SPI","result",13.2801458,0.000915666667,0xFF,0x00
"SPI","result",13.2813056,0.000915666667,0x55,0x00
"SPI","result",13.2824655,0.000915666667,0xFF,0x00
"SPI","result",13.2836254,0.000915666667,0xFE,0x00
"SPI","result",13.2847853,0.000915625,0xFF,0x00
"SPI","result",13.2859451,0.000915666667,0x55,0x00
"SPI","result",13.287105,0.000915666667,0xFF,0x00
"SPI","result",13.2882648,0.000915666667,0xAB,0x00
"SPI","result",13.2894247,0.000915666667,0xFF,0x00
"SPI","result",13.2905845,0.000915666667,0x57,0x00
"SPI","result",13.2917444,0.000915666667,0xFF,0x00
"SPI","result",13.2929043,0.000915666667,0xEE,0x00
"SPI","result",13.2940642,0.000915625,0x3F,0x00
"SPI","result",13.295224,0.000915666667,0x55,0x00
"SPI","result",13.2963839,0.000915666667,0xFF,0x00
"SPI","result",13.2975438,0.000915666667,0xBB,0x00
"SPI","result",13.2987036,0.000915666667,0xFF,0x00
"SPI","result",13.2998635,0.000915666667,0x55,0x00
"SPI","result",13.3010233,0.000915666667,0xFF,0x00
"SPI","result",13.3021832,0.000915666667,0xAE,0x00
"SPI","result",13.3033431,0.000915666667,0xFF,0x00
"SPI","result",13.3045029,0.000915708333,0x77,0x00
"SPI","result",13.3056628,0.000915666667,0xFF,0x00
"SPI","result",13.3068227,0.000915666667,0xAF,0x00
"SPI","result",13.3079825,0.000915666667,0xFF,0x00
"SPI","result",13.3091424,0.000915666667,0x55,0x00
"SPI","result",13.3103022,0.000915666667,0xFF,0x00
"SPI","result",13.3114621,0.000915666667,0xAE,0x00
"SPI","result",13.312622,0.000915666667,0xFF,0x00
"SPI","result",13.3137819,0.000915666667,0xFF,0x00
"SPI","result",13.3149417,0.000915625,0xFF,0x00
"SPI","result",13.3161016,0.000915666667,0xFF,0x00
"SPI","result",13.3173225,0.000915666667,0xFF,0x00
"SPI","result",13.3184824,0.000915666667,0xFF,0x00
"SPI","result",13.3196422,0.000915666667,0xFF,0x00
"SPI","result",13.3208021,0.000915625,0xFF,0x00
"SPI","result",13.321962,0.000915666667,0xFF,0x00
"SPI","result",13.3231218,0.000915666667,0xFF,0x00
"SPI","result",13.3242817,0.000915666667,0xFF,0x00
"SPI","result",13.3254416,0.000915666667,0xFF,0x00
"SPI","result",13.3266014,0.000915666667,0xFF,0x00
"SPI","result",13.3277613,0.000915666667,0xFF,0x00
"SPI","result",13.3289212,0.000915666667,0xFF,0x00
"SPI","result",13.330081,0.000915666667,0xFF,0x00
"SPI","result",13.3312409,0.000915625,0xFF,0x00
"SPI","result",13.3324007,0.000915666667,0xFF,0x00
"SPI","result",13.3335606,0.000915666667,0xFF,0x00
"SPI","result",13.3347205,0.000915666667,0xFF,0x00
"SPI","result",13.3358804,0.000915666667,0xFF,0x00
"SPI","result",13.3370402,0.000915666667,0xFF,0x00
"SPI","result",13.3382001,0.000915666667,0xFF,0x00
"SPI","result",13.33936,0.000915666667,0xFF,0x00
"SPI","result",13.3405198,0.000915666667,0xFF,0x00
"SPI","result",13.3416797,0.000915625,0xFF,0x00
"SPI","result",13.3428395,0.000915666667,0xFF,0x00
"SPI","result",13.3439994,0.000915666667,0xFF,0x00
"SPI","result",13.3451593,0.000915666667,0xFF,0x00
"SPI","result",13.3463192,0.000915666667,0xFF,0x00
"SPI","result",13.347479,0.000915666667,0xFF,0x00
"SPI","result",13.3486389,0.000915666667,0xFF,0x00
"SPI","result",13.3497987,0.000915666667,0xFF,0x00
"SPI","result",13.3508976,0.000915666667,0x6F,0x00
"SPI","result",13.3519964,0.000915666667,0xCF,0x00
"SPI","result",13.3530952,0.000915666667,0x00,0x81
"SPI","result",13.354194,0.000915666667,0x00,0x00
"SPI","result",13.4046177,0.000915666667,0x88,0x00
"SPI","result",13.4057165,0.000915666667,0x33,0x00
"SPI","result",13.4068763,0.000915666667,0x04,0x00
"SPI","result",13.4080362,0.000915666667,0x00,0x00
"SPI","result",13.4091961,0.000915666667,0x80,0x00
"SPI","result",13.410356,0.000915666667,0x02,0x00
"SPI","result",13.4115158,0.000915625,0xFF,0x00
"SPI","result",13.4126757,0.000915666667,0xFF,0x00
"SPI","result",13.4138355,0.000915666667,0xFF,0x00
"SPI","result",13.4149954,0.000915666667,0xFF,0x00
"SPI","result",13.4161553,0.000915666667,0xFF,0x00
"SPI","result",13.4173151,0.000915666667,0xFF,0x00
"SPI","result",13.418475,0.000915666667,0xFF,0x00
"SPI","result",13.4196349,0.000915666667,0xFF,0x00
"SPI","result",13.4207948,0.000915666667,0xFF,0x00
"SPI","result",13.4219546,0.000915666667,0xFF,0x00
"SPI","result",13.4231145,0.000915666667,0xFF,0x00
"SPI","result",13.4242743,0.000915666667,0xFF,0x00
"SPI","result",13.4254342,0.000915666667,0xFF,0x00
"SPI","result",13.4265941,0.000915666667,0xFF,0x00
"SPI","result",13.4277539,0.000915666667,0xFF,0x00
"SPI","result",13.4289138,0.000915666667,0xFF,0x00
"SPI","result",13.4300737,0.000915666667,0xFF,0x00
"SPI","result",13.4312335,0.000915666667,0xFF,0x00
"SPI","result",13.4323934,0.000915625,0xFF,0x00
"SPI","result",13.4335532,0.000915666667,0xFF,0x00
"SPI","result",13.4347131,0.000915666667,0xFF,0x00
"SPI","result",13.435873,0.000915666667,0xFF,0x00
"SPI","result",13.4370329,0.000915666667,0xFF,0x00
"SPI","result",13.4381927,0.000915666667,0xFF,0x00
"SPI","result",13.4393526,0.000915666667,0xFF,0x00
"SPI","result",13.4405125,0.000915666667,0xFF,0x00
"SPI","result",13.4416723,0.000915666667,0xFF,0x00
"SPI","result",13.4428322,0.000915625,0xFF,0x00
"SPI","result",13.443992,0.000915666667,0xFF,0x00
"SPI","result",13.4451519,0.000915666667,0xFF,0x00
"SPI","result",13.4463118,0.000915666667,0xFF,0x00
"SPI","result",13.4474717,0.000915666667,0xFF,0x00
"SPI","result",13.4486315,0.000915666667,0xFF,0x00
"SPI","result",13.4497914,0.000915666667,0xFF,0x00
"SPI","result",13.4509512,0.000915666667,0xFF,0x00
"SPI","result",13.4521111,0.000915666667,0xFF,0x00
"SPI","result",13.453271,0.000915666667,0xFF,0x00
"SPI","result",13.4544308,0.000915666667,0xFF,0x00
"SPI","result",13.4555907,0.000915666667,0xFF,0x00
"SPI","result",13.4567506,0.000915666667,0xFF,0x00
"SPI","result",13.4579105,0.000915666667,0xFF,0x00
"SPI","result",13.4590703,0.000915666667,0xFF,0x00
"SPI","result",13.4602302,0.000915666667,0xFF,0x00
"SPI","result",13.46139,0.000915666667,0xFF,0x00
"SPI","result",13.4625499,0.000915666667,0xFF,0x00
"SPI","result",13.4637098,0.000915625,0xFF,0x00
"SPI","result",13.4648696,0.000915666667,0xFF,0x00
"SPI","result",13.4660295,0.000915666667,0xFF,0x00
"SPI","result",13.4671894,0.000915666667,0xFF,0x00
"SPI","result",13.4683492,0.000915666667,0xFF,0x00
"SPI","result",13.4695091,0.000915666667,0xFF,0x00
"SPI","result",13.470669,0.000915666667,0xFF,0x00
"SPI","result",13.4718288,0.000915666667,0xFF,0x00
"SPI","result",13.4729887,0.000915666667,0xFF,0x00
"SPI","result",13.4741486,0.000915625,0xFF,0x00
"SPI","result",13.4753084,0.000915666667,0xFF,0x00
"SPI","result",13.4764683,0.000915666667,0xFF,0x00
"SPI","result",13.4776282,0.000915666667,0xFF,0x00
"SPI","result",13.478788,0.000915666667,0xFF,0x00
"SPI","result",13.4799479,0.000915666667,0xFF,0x00
"SPI","result",13.4811077,0.000915666667,0xFF,0x00
"SPI","result",13.4822676,0.000915666667,0xFF,0x00
"SPI","result",13.4834275,0.000915666667,0xFF,0x00
"SPI","result",13.4845874,0.000915625,0xFF,0x00
"SPI","result",13.4857472,0.000915666667,0xD5,0x00
"SPI","result",13.4869071,0.000915666667,0xC0,0x00
"SPI","result",13.488067,0.000915666667,0xFB,0x00
"SPI","result",13.4892268,0.000915666667,0xC0,0x00
"SPI","result",13.4903867,0.000915625,0xD5,0x00
"SPI","result",13.4915465,0.000915666667,0xC0,0x00
"SPI","result",13.4927064,0.000915666667,0xBF,0x00
"SPI","result",13.4938663,0.000915666667,0xC0,0x00
"SPI","result",13.4950262,0.000915625,0x97,0x00
"SPI","result",13.496186,0.000915666667,0xC0,0x00
"SPI","result",13.4973459,0.000915666667,0xBF,0x00
"SPI","result",13.4985057,0.000915666667,0xC0,0x00
"SPI","result",13.4996656,0.000915666667,0xBD,0x00
"SPI","result",13.5008255,0.000915666667,0xC0,0x00
"SPI","result",13.5019853,0.000915666667,0xBF,0x00
"SPI","result",13.5031452,0.000915666667,0xC0,0x00
"SPI","result",13.5043051,0.000915666667,0x55,0x00
"SPI","result",13.5054649,0.000915666667,0x00,0x00
"SPI","result",13.5066248,0.000915625,0xFF,0x00
"SPI","result",13.5077847,0.000915666667,0x00,0x00
"SPI","result",13.5089445,0.000915666667,0x55,0x00
"SPI","result",13.5101044,0.000915666667,0x00,0x00
"SPI","result",13.5112643,0.000915625,0xFF,0x00
"SPI","result",13.5124241,0.000915666667,0x00,0x00
"SPI","result",13.513584,0.000915666667,0x75,0x00
"SPI","result",13.5147439,0.000915666667,0x00,0x00
"SPI","result",13.5159037,0.000915625,0xFF,0x00
"SPI","result",13.5170636,0.000915666667,0x00,0x00
"SPI","result",13.5182845,0.000915666667,0xD5,0x00
"SPI","result",13.5194444,0.000915666667,0x00,0x00
"SPI","result",13.5206042,0.000915666667,0xFF,0x00
"SPI","result",13.5217641,0.000915666667,0x00,0x00
"SPI","result",13.522924,0.000915666667,0x55,0x00
"SPI","result",13.5240838,0.000915666667,0x00,0x00
"SPI","result",13.5252437,0.000915666667,0xBB,0x00
"SPI","result",13.5264036,0.000915666667,0x00,0x00
"SPI","result",13.5275634,0.000915666667,0x55,0x00
"SPI","result",13.5287233,0.000915666667,0x00,0x00
"SPI","result",13.5298832,0.000915666667,0xFF,0x00
"SPI","result",13.531043,0.000915666667,0x00,0x00
"SPI","result",13.5322029,0.000915625,0x55,0x00
"SPI","result",13.5333628,0.000915666667,0x00,0x00
"SPI","result",13.5345226,0.000915666667,0xBA,0x00
"SPI","result",13.5356825,0.000915666667,0x00,0x00
"SPI","result",13.5368424,0.000915666667,0x55,0x00
"SPI","result",13.5380022,0.000915666667,0x00,0x00
"SPI","result",13.5391621,0.000915666667,0xA8,0x00
"SPI","result",13.540322,0.000915666667,0x00,0x00
"SPI","result",13.5414818,0.000915666667,0x55,0x00
"SPI","result",13.5426417,0.000915666667,0x00,0x00
"SPI","result",13.5438015,0.000915666667,0xA2,0x00
"SPI","result",13.5449614,0.000915666667,0x00,0x00
"SPI","result",13.5461213,0.000915666667,0x54,0x00
"SPI","result",13.5472812,0.000915666667,0x00,0x00
"SPI","result",13.548441,0.000915625,0xE0,0x00
"SPI","result",13.5496009,0.000915666667,0x00,0x00
"SPI","result",13.5507608,0.000915666667,0x50,0x00
"SPI","result",13.5519206,0.000915666667,0x00,0x00
"SPI","result",13.5530805,0.000915625,0x00,0x00
"SPI","result",13.5542403,0.000915666667,0x00,0x00
"SPI","result",13.5554002,0.000915666667,0x00,0x00
"SPI","result",13.5565601,0.000915666667,0x00,0x00
"SPI","result",13.55772,0.000915666667,0x00,0x00
"SPI","result",13.5588798,0.000915666667,0x00,0x00
"SPI","result",13.5600397,0.000915666667,0x55,0x00
"SPI","result",13.5611995,0.000915666667,0x00,0x00
"SPI","result",13.5623594,0.000915666667,0x00,0x00
"SPI","result",13.5635193,0.000915625,0x00,0x00
"SPI","result",13.5646791,0.000915666667,0x40,0x00
"SPI","result",13.565839,0.000915666667,0x00,0x00
"SPI","result",13.5669989,0.000915666667,0x00,0x00
"SPI","result",13.5681588,0.000915666667,0x00,0x00
"SPI","result",13.5693186,0.000915666667,0x00,0x00
"SPI","result",13.5704785,0.000915666667,0x00,0x00
"SPI","result",13.5716383,0.000915666667,0x00,0x00
"SPI","result",13.5727982,0.000915666667,0x00,0x00
"SPI","result",13.5739581,0.000915625,0x00,0x00
"SPI","result",13.5751179,0.000915666667,0x00,0x00
"SPI","result",13.5762778,0.000915666667,0x00,0x00
"SPI","result",13.5774377,0.000915666667,0x00,0x00
"SPI","result",13.5785975,0.000915666667,0x55,0x00
"SPI","result",13.5797574,0.000915666667,0x00,0x00
"SPI","result",13.5809173,0.000915666667,0x22,0x00
"SPI","result",13.5820771,0.000915666667,0x00,0x00
"SPI","result",13.583237,0.000915666667,0x54,0x00
"SPI","result",13.5843969,0.000915625,0x00,0x00
"SPI","result",13.5855567,0.000915666667,0x88,0x00
"SPI","result",13.5867166,0.000915666667,0x00,0x00
"SPI","result",13.5878765,0.000915666667,0x55,0x00
"SPI","result",13.5890363,0.000915708333,0x00,0x00
"SPI","result",13.5901962,0.000915625,0xA2,0x00
"SPI","result",13.591356,0.000915666667,0x00,0x00
"SPI","result",13.5925159,0.000915666667,0x55,0x00
"SPI","result",13.5936758,0.000915666667,0x00,0x00
"SPI","result",13.5948357,0.000915625,0x8A,0x00
"SPI","result",13.5959955,0.000915666667,0x00,0x00
"SPI","result",13.5971554,0.000915666667,0x51,0x00
"SPI","result",13.5983153,0.000915666667,0x0C,0x00
"SPI","result",13.5994751,0.000915666667,0x3C,0x00
"SPI","result",13.600635,0.000915666667,0x08,0x00
"SPI","result",13.6017948,0.000915666667,0x59,0x00
"SPI","result",13.6029547,0.000915666667,0x04,0x00
"SPI","result",13.6041146,0.000915666667,0xA8,0x00
"SPI","result",13.6052745,0.000915625,0x04,0x00
"SPI","result",13.6064343,0.000915666667,0x56,0x00
"SPI","result",13.6075942,0.000915666667,0x00,0x00
"SPI","result",13.608754,0.000915666667,0x03,0x00
"SPI","result",13.6099139,0.000915708333,0x00,0x00
"SPI","result",13.6110737,0.000915666667,0x55,0x00
"SPI","result",13.6122336,0.000915666667,0x00,0x00
"SPI","result",13.6133935,0.000915666667,0x0A,0x00
"SPI","result",13.6145534,0.000915666667,0x00,0x00
"SPI","result",13.6157133,0.000915625,0x55,0x00
"SPI","result",13.6168731,0.000915666667,0x00,0x00
"SPI","result",13.618033,0.000915666667,0x2B,0x00
"SPI","result",13.6191928,0.000915666667,0x00,0x00
"SPI","result",13.6203527,0.000915666667,0x5D,0x00
"SPI","result",13.6215125,0.000915666667,0x00,0x00
"SPI","result",13.6226724,0.000915666667,0x8B,0x00
"SPI","result",13.6238323,0.000915666667,0x00,0x00
"SPI","result",13.6249922,0.000915666667,0x55,0x00
"SPI","result",13.626152,0.000915666667,0x00,0x00
"SPI","result",13.6273119,0.000915666667,0x0B,0x00
"SPI","result",13.6284717,0.000915666667,0x00,0x00
"SPI","result",13.6296316,0.000915666667,0x5D,0x00
"SPI","result",13.6307915,0.000915708333,0x00,0x00
"SPI","result",13.6319513,0.000915666667,0x26,0x00
"SPI","result",13.6331112,0.000915666667,0x08,0x00
"SPI","result",13.6342711,0.000915666667,0xF7,0x00
"SPI","result",13.635492,0.000915666667,0x00,0x00
"SPI","result",13.6366519,0.000915666667,0xFF,0x00
"SPI","result",13.6378117,0.000915666667,0x00,0x00
"SPI","result",13.6389716,0.000915666667,0xD7,0x00
"SPI","result",13.6401315,0.000915666667,0x00,0x00
"SPI","result",13.6412913,0.000915666667,0xFF,0x00
"SPI","result",13.6424512,0.000915666667,0x00,0x00
"SPI","result",13.643611,0.000915666667,0x56,0x00
"SPI","result",13.6447709,0.000915666667,0x01,0x00
"SPI","result",13.6459308,0.000915666667,0xBF,0x00
"SPI","result",13.6470906,0.000915708333,0x00,0x00
"SPI","result",13.6482505,0.000915666667,0x5E,0x00
"SPI","result",13.6494104,0.000915666667,0x01,0x00
"SPI","result",13.6505702,0.000915666667,0xFF,0x00
"SPI","result",13.6517301,0.000915666667,0x00,0x00
"SPI","result",13.65289,0.000915625,0x7F,0x00
"SPI","result",13.6540498,0.000915666667,0x00,0x00
"SPI","result",13.6552097,0.000915666667,0xFF,0x00
"SPI","result",13.6563696,0.000915666667,0x00,0x00
"SPI","result",13.6575295,0.000915666667,0xFF,0x00
"SPI","result",13.6586893,0.000915666667,0x00,0x00
"SPI","result",13.6598492,0.000915666667,0xFF,0x00
"SPI","result",13.661009,0.000915666667,0x00,0x00
"SPI","result",13.6621689,0.000915666667,0xF7,0x00
"SPI","result",13.6633287,0.000915666667,0x00,0x00
"SPI","result",13.6644886,0.000915666667,0xFF,0x00
"SPI","result",13.6656485,0.000915666667,0x00,0x00
"SPI","result",13.6668084,0.000915666667,0xF5,0x00
"SPI","result",13.6679682,0.000915708333,0x00,0x00
"SPI","result",13.6691281,0.000915625,0xFF,0x00
"SPI","result",13.670288,0.000915666667,0x00,0x00
"SPI","result",13.6714478,0.000915666667,0xF7,0x00
"SPI","result",13.6726077,0.000915666667,0x10,0x00
"SPI","result",13.6737676,0.000915625,0xF7,0x00
"SPI","result",13.6749274,0.000915666667,0x08,0x00
"SPI","result",13.6760873,0.000915666667,0xE3,0x00
"SPI","result",13.6772472,0.000915666667,0x1C,0x00
"SPI","result",13.678407,0.000915666667,0xFF,0x00
"SPI","result",13.6795669,0.000915666667,0x08,0x00
"SPI","result",13.6807267,0.000915666667,0x72,0x00
"SPI","result",13.6818866,0.000915666667,0x0D,0x00
"SPI","result",13.6830465,0.000915666667,0xF6,0x00
"SPI","result",13.6842063,0.000915666667,0x0F,0x00
"SPI","result",13.6853662,0.000915666667,0xF7,0x00
"SPI","result",13.6865261,0.000915666667,0x0F,0x00
"SPI","result",13.687686,0.000915666667,0xFB,0x00
"SPI","result",13.6888458,0.000915708333,0x0C,0x00
"SPI","result",13.6900057,0.000915625,0xEF,0x00
"SPI","result",13.6911655,0.000915666667,0x10,0x00
"SPI","result",13.6923254,0.000915666667,0xFF,0x00
"SPI","result",13.6934853,0.000915666667,0x00,0x00
"SPI","result",13.6946452,0.000915625,0xFF,0x00
"SPI","result",13.695805,0.000915666667,0x00,0x00
"SPI","result",13.6969649,0.000915666667,0xFF,0x00
"SPI","result",13.6981247,0.000915666667,0x00,0x00
"SPI","result",13.6992846,0.000915625,0xF7,0x00
"SPI","result",13.7004445,0.000915666667,0x00,0x00
"SPI","result",13.7016043,0.000915666667,0xFF,0x00
"SPI","result",13.7027642,0.000915666667,0x00,0x00
"SPI","result",13.7039241,0.000915666667,0x15,0x00
"SPI","result",13.7050839,0.000915666667,0xC0,0x00
"SPI","result",13.7062438,0.000915666667,0xFF,0x00
"SPI","result",13.7074037,0.000915666667,0xC0,0x00
"SPI","result",13.7085635,0.000915666667,0xF7,0x00
"SPI","result",13.7097234,0.000915666667,0x1F,0x00
"SPI","result",13.7108833,0.000915666667,0xFF,0x00
"SPI","result",13.7120431,0.000915666667,0x0F,0x00
"SPI","result",13.713203,0.000915666667,0xF5,0x00
"SPI","result",13.7143629,0.000915666667,0x0F,0x00
"SPI","result",13.7155227,0.000915666667,0xF6,0x00
"SPI","result",13.7166826,0.000915666667,0x0F,0x00
"SPI","result",13.7178425,0.000915666667,0x6B,0x00
"SPI","result",13.7190023,0.000915666667,0x17,0x00
"SPI","result",13.7201622,0.000915666667,0xFF,0x00
"SPI","result",13.721322,0.000915666667,0x03,0x00
"SPI","result",13.7224819,0.000915666667,0xEB,0x00
"SPI","result",13.7236418,0.000915666667,0x17,0x00
"SPI","result",13.7248017,0.000915666667,0xF3,0x00
"SPI","result",13.7259615,0.000915666667,0x0F,0x00
"SPI","result",13.7271214,0.000915666667,0xD5,0x00
"SPI","result",13.7282813,0.000915666667,0xFF,0x00
"SPI","result",13.7294411,0.000915666667,0xFB,0x00
"SPI","result",13.730601,0.000915625,0xFF,0x00
"SPI","result",13.7317608,0.000915666667,0xDD,0x00
"SPI","result",13.7329207,0.000915666667,0xFF,0x00
"SPI","result",13.7340806,0.000915666667,0xEF,0x00
"SPI","result",13.7352405,0.000915666667,0xFF,0x00
"SPI","result",13.7364003,0.000915666667,0x55,0x00
"SPI","result",13.7375602,0.000915666667,0xFF,0x00
"SPI","result",13.73872,0.000915666667,0xFA,0x00
"SPI","result",13.7398799,0.000915666667,0xFF,0x00
"SPI","result",13.7410398,0.000915625,0xF7,0x00
"SPI","result",13.7421996,0.000915666667,0xFF,0x00
"SPI","result",13.7433595,0.000915666667,0xFF,0x00
"SPI","result",13.7445194,0.000915666667,0xFF,0x00
"SPI","result",13.7456793,0.000915666667,0xFF,0x00
"SPI","result",13.7468391,0.000915666667,0xFF,0x00
"SPI","result",13.747999,0.000915666667,0xFF,0x00
"SPI","result",13.7491588,0.000915666667,0xFF,0x00
"SPI","result",13.7503187,0.000915666667,0xFF,0x00
"SPI","result",13.7514786,0.000915666667,0xFF,0x00
"SPI","result",13.7527605,0.000915625,0xFF,0x00
"SPI","result",13.7539204,0.000915666667,0xFF,0x00
"SPI","result",13.7550803,0.000915666667,0xFF,0x00
"SPI","result",13.7562401,0.000915666667,0xFF,0x00
"SPI","result",13.7574,0.000915666667,0xFF,0x00
"SPI","result",13.7585598,0.000915666667,0xFF,0x00
"SPI","result",13.7597197,0.000915666667,0xFF,0x00
"SPI","result",13.7608796,0.000915666667,0xFF,0x00
"SPI","result",13.7620395,0.000915666667,0xFF,0x00
"SPI","result",13.7631993,0.000915625,0xFF,0x00
"SPI","result",13.7643592,0.000915666667,0xFF,0x00
"SPI","result",13.765519,0.000915666667,0xFF,0x00
"SPI","result",13.7666789,0.000915666667,0xFF,0x00
"SPI","result",13.7678388,0.000915666667,0xFF,0x00
"SPI","result",13.7689986,0.000915666667,0xFF,0x00
"SPI","result",13.7701585,0.000915666667,0xFF,0x00
"SPI","result",13.7713184,0.000915666667,0xFF,0x00
"SPI","result",13.7724783,0.000915666667,0xFF,0x00
"SPI","result",13.7736381,0.000915625,0xFF,0x00
"SPI","result",13.774798,0.000915666667,0xFF,0x00
"SPI","result",13.7759578,0.000915666667,0xFF,0x00
"SPI","result",13.7771177,0.000915666667,0xFF,0x00
"SPI","result",13.7782776,0.000915666667,0xFF,0x00
"SPI","result",13.7794374,0.000915666667,0xFF,0x00
"SPI","result",13.7805973,0.000915666667,0xFF,0x00
"SPI","result",13.7817572,0.000915666667,0xFF,0x00
"SPI","result",13.782917,0.000915666667,0xFF,0x00
"SPI","result",13.7840769,0.000915625,0xFF,0x00
"SPI","result",13.7852367,0.000915666667,0xFF,0x00
"SPI","result",13.7863966,0.000915666667,0xFF,0x00
"SPI","result",13.7875565,0.000915666667,0xFF,0x00
"SPI","result",13.7887164,0.000915666667,0xFF,0x00
"SPI","result",13.7898762,0.000915666667,0xFF,0x00
"SPI","result",13.7910361,0.000915666667,0xFF,0x00
"SPI","result",13.792196,0.000915666667,0xFF,0x00
"SPI","result",13.7933558,0.000915666667,0xFF,0x00
"SPI","result",13.7945157,0.000915625,0xFF,0x00
"SPI","result",13.7956755,0.000915666667,0xFF,0x00
"SPI","result",13.7968354,0.000915666667,0xFF,0x00
"SPI","result",13.7979953,0.000915666667,0xFF,0x00
"SPI","result",13.7991552,0.000915666667,0xFF,0x00
"SPI","result",13.800315,0.000915666667,0xFF,0x00
"SPI","result",13.8014749,0.000915666667,0xFF,0x00
"SPI","result",13.8026347,0.000915666667,0xFF,0x00
"SPI","result",13.8037946,0.000915666667,0xFF,0x00
"SPI","result",13.8049545,0.000915625,0xFF,0x00
"SPI","result",13.8061143,0.000915666667,0xFF,0x00
"SPI","result",13.8072742,0.000915666667,0xFF,0x00
"SPI","result",13.8084341,0.000915666667,0xFF,0x00
"SPI","result",13.809594,0.000915666667,0xFF,0x00
"SPI","result",13.8107538,0.000915666667,0xFF,0x00
"SPI","result",13.8119137,0.000915666667,0xFF,0x00
"SPI","result",13.8130735,0.000915666667,0xFF,0x00
"SPI","result",13.8142334,0.000915666667,0xFF,0x00
"SPI","result",13.8153933,0.000915625,0xFF,0x00
"SPI","result",13.8165531,0.000915666667,0xFF,0x00
"SPI","result",13.817713,0.000915666667,0xFF,0x00
"SPI","result",13.8188729,0.000915666667,0xFF,0x00
"SPI","result",13.8200327,0.000915666667,0xFF,0x00
"SPI","result",13.8211926,0.000915666667,0xFF,0x00
"SPI","result",13.8223525,0.000915666667,0xFF,0x00
"SPI","result",13.8235123,0.000915666667,0xFF,0x00
"SPI","result",13.8246722,0.000915666667,0xFF,0x00
"SPI","result",13.8258321,0.000915625,0xFF,0x00
"SPI","result",13.8269919,0.000915666667,0xFF,0x00
"SPI","result",13.8281518,0.000915666667,0xFF,0x00
"SPI","result",13.8293117,0.000915666667,0xFF,0x00
"SPI","result",13.8304715,0.000915666667,0xFF,0x00
"SPI","result",13.8316314,0.000915666667,0xFF,0x00
"SPI","result",13.8327912,0.000915666667,0xFF,0x00
"SPI","result",13.8339511,0.000915666667,0xFF,0x00
"SPI","result",13.835111,0.000915666667,0xFF,0x00
"SPI","result",13.8362709,0.000915625,0xFF,0x00
"SPI","result",13.8374307,0.000915666667,0xFF,0x00
"SPI","result",13.8385906,0.000915666667,0xFF,0x00
"SPI","result",13.8397505,0.000915666667,0xFF,0x00
"SPI","result",13.8409103,0.000915666667,0xFF,0x00
"SPI","result",13.8420702,0.000915666667,0xFF,0x00
"SPI","result",13.84323,0.000915666667,0xFF,0x00
"SPI","result",13.8443899,0.000915666667,0xFF,0x00
"SPI","result",13.8455498,0.000915666667,0xFF,0x00
"SPI","result",13.8467097,0.000915625,0xFF,0x00
"SPI","result",13.8478695,0.000915666667,0xFF,0x00
"SPI","result",13.8490294,0.000915666667,0xFF,0x00
"SPI","result",13.8501892,0.000915666667,0xFF,0x00
"SPI","result",13.8513491,0.000915666667,0xFF,0x00
"SPI","result",13.852509,0.000915666667,0xFF,0x00
"SPI","result",13.8536688,0.000915666667,0xFF,0x00
"SPI","result",13.8548287,0.000915666667,0xFF,0x00
"SPI","result",13.8559886,0.000915666667,0xFF,0x00
"SPI","result",13.8571485,0.000915625,0xB7,0x00
"SPI","result",13.8583083,0.000915666667,0xC0,0x00
"SPI","result",13.8594682,0.000915666667,0xBF,0x00
"SPI","result",13.860628,0.000915666667,0xC0,0x00
"SPI","result",13.8617879,0.000915666667,0xEF,0x00
"SPI","result",13.8629478,0.000915666667,0xD0,0x00
"SPI","result",13.8641076,0.000915666667,0xDF,0x00
"SPI","result",13.8652675,0.000915666667,0xE0,0x00
"SPI","result",13.8664274,0.000915666667,0xEF,0x00
"SPI","result",13.8675872,0.000915625,0xD0,0x00
"SPI","result",13.8687471,0.000915666667,0xDF,0x00
"SPI","result",13.869968,0.000915666667,0xE0,0x00
"SPI","result",13.8711279,0.000915666667,0xCB,0x00
"SPI","result",13.8722877,0.000915666667,0xF4,0x00
"SPI","result",13.8734476,0.000915625,0xC7,0x00
"SPI","result",13.8746075,0.000915666667,0xF8,0x00
"SPI","result",13.8757673,0.000915666667,0x55,0x00
"SPI","result",13.8769272,0.000915666667,0x00,0x00
"SPI","result",13.8780871,0.000915625,0xFF,0x00
"SPI","result",13.8792469,0.000915666667,0x00,0x00
"SPI","result",13.8804068,0.000915666667,0xD5,0x00
"SPI","result",13.8815667,0.000915666667,0x00,0x00
"SPI","result",13.8827265,0.000915666667,0xFE,0x00
"SPI","result",13.8838864,0.000915666667,0x00,0x00
"SPI","result",13.8850463,0.000915666667,0x54,0x00
"SPI","result",13.8862061,0.000915666667,0x00,0x00
"SPI","result",13.887366,0.000915666667,0xF0,0x00
"SPI","result",13.8885259,0.000915666667,0x00,0x00
"SPI","result",13.8896857,0.000915666667,0x50,0x00
"SPI","result",13.8908456,0.000915666667,0x00,0x00
"SPI","result",13.8920055,0.000915666667,0xE0,0x00
"SPI","result",13.8931653,0.000915666667,0x00,0x00
"SPI","result",13.8943252,0.000915625,0x50,0x00
"SPI","result",13.895485,0.000915666667,0x00,0x00
"SPI","result",13.8966449,0.000915666667,0x80,0x00
"SPI","result",13.8978048,0.000915666667,0x00,0x00
"SPI","result",13.8989647,0.000915625,0x00,0x00
"SPI","result",13.9001245,0.000915666667,0x00,0x00
"SPI","result",13.9012844,0.000915666667,0x00,0x00
"SPI","result",13.9024443,0.000915666667,0x00,0x00
"SPI","result",13.9036041,0.000915666667,0x00,0x00
"SPI","result",13.904764,0.000915666667,0x00,0x00
"SPI","result",13.9059238,0.000915666667,0x00,0x00
"SPI","result",13.9070837,0.000915666667,0x00,0x00
"SPI","result",13.9082436,0.000915666667,0x00,0x00
"SPI","result",13.9094035,0.000915625,0x00,0x00
"SPI","result",13.9105633,0.000915666667,0x00,0x00
"SPI","result",13.9117232,0.000915666667,0x00,0x00
"SPI","result",13.912883,0.000915666667,0x00,0x00
"SPI","result",13.9140429,0.000915666667,0x00,0x00
"SPI","result",13.9152028,0.000915666667,0x00,0x00
"SPI","result",13.9163626,0.000915666667,0x00,0x00
"SPI","result",13.9175225,0.000915666667,0x00,0x00
"SPI","result",13.9186824,0.000915666667,0x00,0x00
"SPI","result",13.9198423,0.000915666667,0x00,0x00
"SPI","result",13.9210021,0.000915666667,0x00,0x00
"SPI","result",13.922162,0.000915666667,0x00,0x00
"SPI","result",13.9233218,0.000915666667,0x00,0x00
"SPI","result",13.9244817,0.000915666667,0x00,0x00
"SPI","result",13.9256415,0.000915666667,0x00,0x00
"SPI","result",13.9268014,0.000915666667,0x00,0x00
"SPI","result",13.9279613,0.000915666667,0x00,0x00
"SPI","result",13.9291212,0.000915666667,0x00,0x00
"SPI","result",13.930281,0.000915625,0x00,0x00
"SPI","result",13.9314409,0.000915666667,0x00,0x00
"SPI","result",13.9326008,0.000915666667,0x00,0x00
"SPI","result",13.9337606,0.000915666667,0x00,0x00
"SPI","result",13.9349205,0.000915666667,0x00,0x00
"SPI","result",13.9360803,0.000915666667,0x00,0x00
"SPI","result",13.9372402,0.000915666667,0x00,0x00
"SPI","result",13.9384001,0.000915666667,0x00,0x00
"SPI","result",13.93956,0.000915666667,0x00,0x00
"SPI","result",13.9407198,0.000915666667,0x00,0x00
"SPI","result",13.9418797,0.000915666667,0x00,0x00
"SPI","result",13.9430395,0.000915666667,0x00,0x00
"SPI","result",13.9441994,0.000915666667,0x00,0x00
"SPI","result",13.9453593,0.000915666667,0x00,0x00
"SPI","result",13.9465191,0.000915666667,0x00,0x00
"SPI","result",13.947679,0.000915666667,0x00,0x00
"SPI","result",13.9488389,0.000915666667,0x00,0x00
"SPI","result",13.9499988,0.000915666667,0x55,0x00
"SPI","result",13.9511586,0.000915666667,0x00,0x00
"SPI","result",13.9523185,0.000915666667,0x22,0x00
"SPI","result",13.9534783,0.000915666667,0x00,0x00
"SPI","result",13.9546382,0.000915666667,0x55,0x00
"SPI","result",13.9557981,0.000915666667,0x00,0x00
"SPI","result",13.9569579,0.000915666667,0x68,0x00
"SPI","result",13.9581178,0.000915666667,0x00,0x00
"SPI","result",13.9592777,0.000915666667,0x75,0x00
"SPI","result",13.9604375,0.000915666667,0x00,0x00
"SPI","result",13.9615974,0.000915625,0x00,0x00
"SPI","result",13.9627572,0.000915666667,0x20,0x00
"SPI","result",13.9639171,0.000915666667,0x15,0x00
"SPI","result",13.965077,0.000915666667,0x10,0x00
"SPI","result",13.9662369,0.000915666667,0x1A,0x00
"SPI","result",13.9673967,0.000915666667,0x0C,0x00
"SPI","result",13.9685566,0.000915666667,0x15,0x00
"SPI","result",13.9697165,0.000915666667,0x00,0x00
"SPI","result",13.9708763,0.000915666667,0x02,0x00
"SPI","result",13.9720362,0.000915666667,0x00,0x00
"SPI","result",13.973196,0.000915666667,0x55,0x00
"SPI","result",13.9743559,0.000915666667,0x00,0x00
"SPI","result",13.9755158,0.000915666667,0x00,0x00
"SPI","result",13.9766757,0.000915666667,0x00,0x00
"SPI","result",13.9778355,0.000915666667,0x11,0x00
"SPI","result",13.9789954,0.000915666667,0x00,0x00
"SPI","result",13.9801552,0.000915666667,0x00,0x00
"SPI","result",13.9813151,0.000915666667,0x00,0x00
"SPI","result",13.982475,0.000915625,0x05,0x00
"SPI","result",13.9836348,0.000915666667,0x00,0x00
"SPI","result",13.9847947,0.000915666667,0x82,0x00
"SPI","result",13.9859546,0.000915666667,0x00,0x00
"SPI","result",13.9871755,0.000915666667,0x5D,0x00
"SPI","result",13.9883353,0.000915666667,0x00,0x00
"SPI","result",13.9894952,0.000915666667,0x2B,0x00
"SPI","result",13.9906551,0.000915666667,0x04,0x00
"SPI","result",13.991815,0.000915666667,0x53,0x00
"SPI","result",13.9929748,0.000915666667,0x04,0x00
"SPI","result",13.9941347,0.000915625,0x83,0x00
"SPI","result",13.9952945,0.000915666667,0x02,0x00
"SPI","result",13.9964544,0.000915666667,0x51,0x00
"SPI","result",13.9976143,0.000915666667,0x01,0x00
"SPI","result",13.9987741,0.000915666667,0x21,0x00
"SPI","result",13.999934,0.000915666667,0x00,0x00
"SPI","result",14.0010939,0.000915666667,0x51,0x00
"SPI","result",14.0022537,0.000915666667,0x07,0x00
"SPI","result",14.0034136,0.000915666667,0xCE,0x00
"SPI","result",14.0045735,0.000915666667,0x3F,0x00
"SPI","result",14.0057333,0.000915666667,0x6A,0x00
"SPI","result",14.0068932,0.000915666667,0x15,0x00
"SPI","result",14.0080531,0.000915666667,0xFF,0x00
"SPI","result",14.0092129,0.000915666667,0x00,0x00
"SPI","result",14.0103728,0.000915666667,0x7D,0x00
"SPI","result",14.0115327,0.000915666667,0x00,0x00
"SPI","result",14.0126925,0.000915666667,0xFF,0x00
"SPI","result",14.0138524,0.000915666667,0x00,0x00
"SPI","result",14.0150122,0.000915666667,0x55,0x00
"SPI","result",14.0161721,0.000915666667,0x00,0x00
"SPI","result",14.017332,0.000915666667,0xBB,0x00
"SPI","result",14.0184919,0.000915666667,0xC0,0x00
"SPI","result",14.0196517,0.000915625,0xC5,0x00
"SPI","result",14.0208116,0.000915666667,0xF0,0x00
"SPI","result",14.0219715,0.000915666667,0x8C,0x00
"SPI","result",14.0231313,0.000915666667,0xFF,0x00
"SPI","result",14.0242912,0.000915666667,0xF7,0x00
"SPI","result",14.025451,0.000915666667,0x00,0x00
"SPI","result",14.0266109,0.000915666667,0xFF,0x00
"SPI","result",14.0277708,0.000915666667,0x00,0x00
"SPI","result",14.0289307,0.000915666667,0x55,0x00
"SPI","result",14.0300905,0.000915666667,0x00,0x00
"SPI","result",14.0312504,0.000915666667,0xFF,0x00
"SPI","result",14.0324102,0.000915666667,0x00,0x00
"SPI","result",14.0335701,0.000915666667,0x57,0x00
"SPI","result",14.03473,0.000915708333,0x00,0x00
"SPI","result",14.0358899,0.000915625,0xBE,0x00
"SPI","result",14.0370497,0.000915666667,0x01,0x00
"SPI","result",14.0382096,0.000915666667,0x5B,0x00
"SPI","result",14.0393695,0.000915666667,0x07,0x00
"SPI","result",14.0405293,0.000915666667,0x1F,0x00
"SPI","result",14.0416892,0.000915666667,0xFF,0x00
"SPI","result",14.042849,0.000915666667,0x6A,0x00
"SPI","result",14.0440089,0.000915666667,0x1D,0x00
"SPI","result",14.0451688,0.000915666667,0xE8,0x00
"SPI","result",14.0463286,0.000915666667,0x1F,0x00
"SPI","result",14.0474885,0.000915666667,0xFA,0x00
"SPI","result",14.0486484,0.000915666667,0x1D,0x00
"SPI","result",14.0498082,0.000915666667,0xF7,0x00
"SPI","result",14.0509681,0.000915666667,0x38,0x00
"SPI","result",14.052128,0.000915666667,0xFA,0x00
"SPI","result",14.0532878,0.000915666667,0x75,0x00
"SPI","result",14.0544477,0.000915666667,0xEF,0x00
"SPI","result",14.0556076,0.000915666667,0xF0,0x00
"SPI","result",14.0567675,0.000915625,0xEF,0x00
"SPI","result",14.0579273,0.000915666667,0xD0,0x00
"SPI","result",14.0590872,0.000915666667,0x7F,0x00
"SPI","result",14.060247,0.000915666667,0x80,0x00
"SPI","result",14.0614069,0.000915625,0x77,0x00
"SPI","result",14.0625668,0.000915666667,0x40,0x00
"SPI","result",14.0637266,0.000915666667,0xDF,0x00
"SPI","result",14.0648865,0.000915666667,0x20,0x00
"SPI","result",14.0660464,0.000915666667,0xFF,0x00
"SPI","result",14.0672062,0.000915666667,0x00,0x00
"SPI","result",14.0683661,0.000915666667,0xFF,0x00
"SPI","result",14.069526,0.000915666667,0x00,0x00
"SPI","result",14.0706858,0.000915666667,0x76,0x00
"SPI","result",14.0718457,0.000915625,0x01,0x00
"SPI","result",14.0730055,0.000915666667,0xFF,0x00
"SPI","result",14.0741654,0.000915666667,0x00,0x00
"SPI","result",14.0753253,0.000915666667,0xFB,0x00
"SPI","result",14.0764851,0.000915708333,0x04,0x00
"SPI","result",14.077645,0.000915625,0xFF,0x00
"SPI","result",14.0788049,0.000915666667,0x00,0x00
"SPI","result",14.0799648,0.000915666667,0x6B,0x00
"SPI","result",14.0811246,0.000915666667,0x17,0x00
"SPI","result",14.0822845,0.000915625,0xDF,0x00
"SPI","result",14.0834443,0.000915666667,0x23,0x00
"SPI","result",14.0846042,0.000915666667,0xEB,0x00
"SPI","result",14.0857641,0.000915666667,0x17,0x00
"SPI","result",14.086924,0.000915666667,0xFB,0x00
"SPI","result",14.0880838,0.000915666667,0x07,0x00
"SPI","result",14.0892437,0.000915666667,0xEB,0x00
"SPI","result",14.0904035,0.000915666667,0x17,0x00
"SPI","result",14.0915634,0.000915666667,0xFB,0x00
"SPI","result",14.0927233,0.000915666667,0x07,0x00
"SPI","result",14.0938831,0.000915666667,0xFF,0x00
"SPI","result",14.095043,0.000915666667,0x07,0x00
"SPI","result",14.0962029,0.000915666667,0xF7,0x00
"SPI","result",14.0973627,0.000915708333,0x0F,0x00
"SPI","result",14.0985226,0.000915666667,0xFF,0x00
"SPI","result",14.0996825,0.000915666667,0xFF,0x00
"SPI","result",14.1008423,0.000915666667,0xFF,0x00
"SPI","result",14.1020022,0.000915666667,0xFF,0x00
"SPI","result",14.1031621,0.000915625,0xFF,0x00
"SPI","result",14.104383,0.000915666667,0xFF,0x00
"SPI","result",14.1055428,0.000915666667,0xFF,0x00
"SPI","result",14.1067027,0.000915666667,0xFF,0x00
"SPI","result",14.1078626,0.000915666667,0xF7,0x00
"SPI","result",14.1090225,0.000915625,0xFF,0x00
"SPI","result",14.1101823,0.000915666667,0xFF,0x00
"SPI","result",14.1113422,0.000915666667,0xFF,0x00
"SPI","result",14.112502,0.000915666667,0xFF,0x00
"SPI","result",14.1136619,0.000915666667,0xFF,0x00
"SPI","result",14.1148218,0.000915666667,0xFF,0x00
"SPI","result",14.1159816,0.000915666667,0xFF,0x00
"SPI","result",14.1171415,0.000915666667,0xFF,0x00
"SPI","result",14.1183014,0.000915666667,0xFF,0x00
"SPI","result",14.1194613,0.000915625,0xFF,0x00
"SPI","result",14.1206211,0.000915666667,0xFF,0x00
"SPI","result",14.121781,0.000915666667,0xFF,0x00
"SPI","result",14.1229408,0.000915666667,0xFF,0x00
"SPI","result",14.1241007,0.000915666667,0xFF,0x00
"SPI","result",14.1252605,0.000915666667,0xFF,0x00
"SPI","result",14.1264204,0.000915666667,0xFF,0x00
"SPI","result",14.1275803,0.000915666667,0xFF,0x00
"SPI","result",14.1287402,0.000915666667,0xFF,0x00
"SPI","result",14.1299,0.000915625,0xFF,0x00
"SPI","result",14.1310599,0.000915666667,0xFF,0x00
"SPI","result",14.1322198,0.000915666667,0xFF,0x00
"SPI","result",14.1333796,0.000915666667,0xFF,0x00
"SPI","result",14.1345395,0.000915666667,0xFF,0x00
"SPI","result",14.1356993,0.000915666667,0xFF,0x00
"SPI","result",14.1368592,0.000915666667,0xFF,0x00
"SPI","result",14.1380191,0.000915666667,0xFF,0x00
"SPI","result",14.139179,0.000915666667,0xFF,0x00
"SPI","result",14.1403388,0.000915666667,0xFF,0x00
"SPI","result",14.1414987,0.000915666667,0xFF,0x00
"SPI","result",14.1426585,0.000915666667,0xFF,0x00
"SPI","result",14.1438184,0.000915666667,0xFF,0x00
"SPI","result",14.1449783,0.000915666667,0xFF,0x00
"SPI","result",14.1461381,0.000915666667,0xFF,0x00
"SPI","result",14.147298,0.000915666667,0xFF,0x00
"SPI","result",14.1484579,0.000915666667,0xFF,0x00
"SPI","result",14.1496178,0.000915666667,0xFF,0x00
"SPI","result",14.1507776,0.000915666667,0xFF,0x00
"SPI","result",14.1519375,0.000915666667,0xFF,0x00
"SPI","result",14.1530973,0.000915666667,0xFF,0x00
"SPI","result",14.1541962,0.000915666667,0x46,0x00
"SPI","result",14.155295,0.000915666667,0x66,0x00
"SPI","result",14.1563938,0.000915666667,0x00,0x81
"SPI","result",14.1574926,0.000915666667,0x00,0x08
"SPI","result",14.1885038,0.000915666667,0x88,0x00
"SPI","result",14.1896026,0.000915666667,0x33,0x00
"SPI","result",14.1907625,0.000915666667,0x0F,0x00
"SPI","result",14.1919223,0.000915666667,0x00,0x00
"SPI","result",14.1930822,0.000915666667,0x00,0x00
"SPI","result",14.194242,0.000915666667,0x00,0x00
"SPI","result",14.1954019,0.000915666667,0x0F,0x00
"SPI","result",14.1965618,0.000915666667,0x00,0x00
"SPI","result",14.1977216,0.000915666667,0x00,0x81
"SPI","result",14.1988815,0.000915666667,0x00,0x00
"SPI","result",14.208832,0.000915625,0x88,0x00
"SPI","result",14.2099307,0.000915666667,0x33,0x00
"SPI","result",14.2110906,0.000915666667,0x04,0x00
"SPI","result",14.2122505,0.000915666667,0x00,0x00
"SPI","result",14.2134104,0.000915625,0x80,0x00
"SPI","result",14.2145702,0.000915666667,0x02,0x00
"SPI","result",14.2157301,0.000915666667,0xFF,0x00
"SPI","result",14.21689,0.000915666667,0xFF,0x00
"SPI","result",14.2180498,0.000915625,0xFF,0x00
"SPI","result",14.2192097,0.000915666667,0xFF,0x00
"SPI","result",14.2203695,0.000915666667,0xFF,0x00
"SPI","result",14.2215905,0.000915666667,0xFF,0x00
"SPI","result",14.2227503,0.000915666667,0xFF,0x00
"SPI","result",14.2239102,0.000915625,0xFF,0x00
"SPI","result",14.22507,0.000915666667,0xFF,0x00
"SPI","result",14.2262299,0.000915666667,0xFF,0x00
"SPI","result",14.2273898,0.000915666667,0xFF,0x00
"SPI","result",14.2285497,0.000915666667,0xFF,0x00
"SPI","result",14.2297095,0.000915666667,0xFF,0x00
"SPI","result",14.2308694,0.000915666667,0xFF,0x00
"SPI","result",14.2320293,0.000915666667,0xFF,0x00
"SPI","result",14.2331891,0.000915666667,0xFF,0x00
"SPI","result",14.234349,0.000915625,0xFF,0x00
"SPI","result",14.2355088,0.000915666667,0xFF,0x00
"SPI","result",14.2366687,0.000915666667,0xFF,0x00
"SPI","result",14.2378286,0.000915666667,0xFF,0x00
"SPI","result",14.2389885,0.000915666667,0xFF,0x00
"SPI","result",14.2401483,0.000915666667,0xFF,0x00
"SPI","result",14.2413082,0.000915666667,0xFF,0x00
"SPI","result",14.242468,0.000915666667,0xFF,0x00
"SPI","result",14.2436279,0.000915666667,0xFF,0x00
"SPI","result",14.2447878,0.000915625,0xFF,0x00
"SPI","result",14.2459476,0.000915666667,0xFF,0x00
"SPI","result",14.2471075,0.000915666667,0xFF,0x00
"SPI","result",14.2482674,0.000915666667,0xFF,0x00
"SPI","result",14.2494273,0.000915666667,0xFF,0x00
"SPI","result",14.2505871,0.000915666667,0xFF,0x00
"SPI","result",14.251747,0.000915666667,0xFF,0x00
"SPI","result",14.2529068,0.000915666667,0xFF,0x00
"SPI","result",14.2540667,0.000915666667,0xFF,0x00
"SPI","result",14.2552266,0.000915625,0xFF,0x00
"SPI","result",14.2563864,0.000915666667,0xFF,0x00
"SPI","result",14.2575463,0.000915666667,0xFF,0x00
"SPI","result",14.2587062,0.000915666667,0xFF,0x00
"SPI","result",14.259866,0.000915666667,0xFF,0x00
"SPI","result",14.2610259,0.000915666667,0xFF,0x00
"SPI","result",14.2621858,0.000915666667,0xFF,0x00
"SPI","result",14.2633456,0.000915666667,0xFF,0x00
"SPI","result",14.2645055,0.000915666667,0xFF,0x00
"SPI","result",14.2656654,0.000915625,0xFF,0x00
"SPI","result",14.2668252,0.000915666667,0xFF,0x00
"SPI","result",14.2679851,0.000915666667,0xFF,0x00
"SPI","result",14.269145,0.000915666667,0xFF,0x00
"SPI","result",14.2703048,0.000915666667,0xFF,0x00
"SPI","result",14.2714647,0.000915666667,0xFF,0x00
"SPI","result",14.2726245,0.000915666667,0xFF,0x00
"SPI","result",14.2737844,0.000915666667,0xFF,0x00
"SPI","result",14.2749443,0.000915666667,0xFF,0x00
"SPI","result",14.2761042,0.000915625,0xFF,0x00
"SPI","result",14.277264,0.000915666667,0xFF,0x00
"SPI","result",14.2784239,0.000915666667,0xFF,0x00
"SPI","result",14.2795838,0.000915666667,0xFF,0x00
"SPI","result",14.2807436,0.000915666667,0xFF,0x00
"SPI","result",14.2819035,0.000915666667,0xFF,0x00
"SPI","result",14.2830633,0.000915666667,0xFF,0x00
"SPI","result",14.2842232,0.000915666667,0xFF,0x00
"SPI","result",14.2853831,0.000915666667,0xFF,0x00
"SPI","result",14.286543,0.000915625,0xFF,0x00
"SPI","result",14.2877028,0.000915666667,0xFF,0x00
"SPI","result",14.2888627,0.000915666667,0xFF,0x00
"SPI","result",14.2900225,0.000915666667,0xEB,0x00
"SPI","result",14.2911824,0.000915666667,0xF4,0x00
"SPI","result",14.2923423,0.000915625,0xEF,0x00
"SPI","result",14.2935021,0.000915666667,0xF0,0x00
"SPI","result",14.294662,0.000915666667,0xFF,0x00
"SPI","result",14.2958219,0.000915666667,0xF0,0x00
"SPI","result",14.2969818,0.000915625,0xF6,0x00
"SPI","result",14.2981416,0.000915666667,0xF8,0x00
"SPI","result",14.2993015,0.000915666667,0xF9,0x00
"SPI","result",14.3004613,0.000915666667,0xF4,0x00
"SPI","result",14.3016212,0.000915666667,0xF6,0x00
"SPI","result",14.3027811,0.000915625,0xF8,0x00
"SPI","result",14.3039409,0.000915666667,0xF9,0x00
"SPI","result",14.3051008,0.000915666667,0xFC,0x00
"SPI","result",14.3062607,0.000915666667,0xFE,0x00
"SPI","result",14.3074205,0.000915625,0xF8,0x00
"SPI","result",14.3085804,0.000915666667,0x40,0x00
"SPI","result",14.3097403,0.000915666667,0x00,0x00
"SPI","result",14.3109001,0.000915666667,0x80,0x00
"SPI","result",14.31206,0.000915666667,0x00,0x00
"SPI","result",14.3132198,0.000915666667,0x00,0x00
"SPI","result",14.3143797,0.000915666667,0x00,0x00
"SPI","result",14.3155396,0.000915666667,0x00,0x00
"SPI","result",14.3166995,0.000915666667,0x00,0x00
"SPI","result",14.3178593,0.000915625,0x00,0x00
"SPI","result",14.3190192,0.000915666667,0x00,0x00
"SPI","result",14.320179,0.000915666667,0x00,0x00
"SPI","result",14.3213389,0.000915666667,0x00,0x00
"SPI","result",14.3224988,0.000915666667,0x00,0x00
"SPI","result",14.3236586,0.000915666667,0x00,0x00
"SPI","result",14.3248185,0.000915666667,0x00,0x00
"SPI","result",14.3259784,0.000915666667,0x00,0x00
"SPI","result",14.3271383,0.000915666667,0x00,0x00
"SPI","result",14.3282981,0.000915625,0x00,0x00
"SPI","result",14.329458,0.000915666667,0x00,0x00
"SPI","result",14.3306178,0.000915666667,0x00,0x00
"SPI","result",14.3317777,0.000915666667,0x00,0x00
"SPI","result",14.3329376,0.000915666667,0x00,0x00
"SPI","result",14.3340974,0.000915666667,0x00,0x00
"SPI","result",14.3352573,0.000915666667,0x00,0x00
"SPI","result",14.3364172,0.000915666667,0x00,0x00
"SPI","result",14.337577,0.000915666667,0x00,0x00
"SPI","result",14.338859,0.000915666667,0x00,0x00
"SPI","result",14.3400188,0.000915666667,0x00,0x00
"SPI","result",14.3411787,0.000915666667,0x00,0x00
"SPI","result",14.3423386,0.000915666667,0x00,0x00
"SPI","result",14.3434985,0.000915666667,0x00,0x00
"SPI","result",14.3446583,0.000915625,0x00,0x00
"SPI","result",14.3458182,0.000915666667,0x00,0x00
"SPI","result",14.346978,0.000915666667,0x00,0x00
"SPI","result",14.3481379,0.000915666667,0x00,0x00
"SPI","result",14.3492978,0.000915666667,0x00,0x00
"SPI","result",14.3504576,0.000915666667,0x00,0x00
"SPI","result",14.3516175,0.000915666667,0x00,0x00
"SPI","result",14.3527774,0.000915666667,0x00,0x00
"SPI","result",14.3539372,0.000915666667,0x00,0x00
"SPI","result",14.3550971,0.000915666667,0x00,0x00
"SPI","result",14.356257,0.000915666667,0x00,0x00
"SPI","result",14.3574168,0.000915666667,0x00,0x00
"SPI","result",14.3585767,0.000915666667,0x00,0x00
"SPI","result",14.3597366,0.000915666667,0x00,0x00
"SPI","result",14.3608964,0.000915666667,0x00,0x00
"SPI","result",14.3620563,0.000915666667,0x00,0x00
"SPI","result",14.3632162,0.000915666667,0x00,0x00
"SPI","result",14.364376,0.000915666667,0x00,0x00
"SPI","result",14.3655359,0.000915625,0x00,0x00
"SPI","result",14.3666958,0.000915666667,0x00,0x00
"SPI","result",14.3678556,0.000915666667,0x00,0x00
"SPI","result",14.3690155,0.000915666667,0x00,0x00
"SPI","result",14.3701754,0.000915666667,0x00,0x00
"SPI","result",14.3713352,0.000915666667,0x00,0x00
"SPI","result",14.3724951,0.000915666667,0x00,0x00
"SPI","result",14.373655,0.000915666667,0x00,0x00
"SPI","result",14.3748148,0.000915666667,0x00,0x00
"SPI","result",14.3759747,0.000915666667,0x00,0x00
"SPI","result",14.3771345,0.000915666667,0x00,0x00
"SPI","result",14.3782944,0.000915666667,0x00,0x00
"SPI","result",14.3794543,0.000915666667,0x00,0x00
"SPI","result",14.3806142,0.000915666667,0x00,0x00
"SPI","result",14.381774,0.000915666667,0x00,0x00
"SPI","result",14.3829339,0.000915666667,0x0B,0x00
"SPI","result",14.3840937,0.000915666667,0x07,0x00
"SPI","result",14.3852536,0.000915666667,0x07,0x00
"SPI","result",14.3864135,0.000915666667,0x03,0x00
"SPI","result",14.3875733,0.000915666667,0x00,0x00
"SPI","result",14.3887332,0.000915666667,0x00,0x00
"SPI","result",14.3898931,0.000915666667,0x00,0x00
"SPI","result",14.391053,0.000915666667,0x00,0x00
"SPI","result",14.3922128,0.000915666667,0x00,0x00
"SPI","result",14.3933727,0.000915666667,0x00,0x00
"SPI","result",14.3945325,0.000915666667,0x00,0x00
"SPI","result",14.3956924,0.000915666667,0x00,0x00
"SPI","result",14.3968523,0.000915625,0x00,0x00
"SPI","result",14.3980121,0.000915666667,0x00,0x00
"SPI","result",14.399172,0.000915666667,0x00,0x00
"SPI","result",14.4003319,0.000915666667,0x00,0x00
"SPI","result",14.4014917,0.000915666667,0x0D,0x00
"SPI","result",14.4026516,0.000915666667,0xF7,0x00
"SPI","result",14.4038115,0.000915666667,0xFF,0x00
"SPI","result",14.4049713,0.000915666667,0xFF,0x00
"SPI","result",14.4061312,0.000915666667,0x54,0x00
"SPI","result",14.4072911,0.000915625,0x00,0x00
"SPI","result",14.4084509,0.000915666667,0x00,0x00
"SPI","result",14.4096108,0.000915666667,0x00,0x00
"SPI","result",14.4107707,0.000915666667,0x00,0x00
"SPI","result",14.4119305,0.000915666667,0x00,0x00
"SPI","result",14.4130904,0.000915666667,0x00,0x00
"SPI","result",14.4142503,0.000915666667,0x00,0x00
"SPI","result",14.4154101,0.000915666667,0x00,0x00
"SPI","result",14.41657,0.000915666667,0x00,0x00
"SPI","result",14.4177299,0.000915625,0x00,0x00
"SPI","result",14.4188897,0.000915666667,0x00,0x00
"SPI","result",14.4200496,0.000915666667,0x57,0x00
"SPI","result",14.4212095,0.000915666667,0xFF,0x00
"SPI","result",14.4223693,0.000915666667,0x98,0x00
"SPI","result",14.4235292,0.000915625,0xE0,0x00
"SPI","result",14.424689,0.000915666667,0x00,0x00
"SPI","result",14.4258489,0.000915666667,0x00,0x00
"SPI","result",14.4270088,0.000915666667,0x00,0x00
"SPI","result",14.4281687,0.000915625,0x00,0x00
"SPI","result",14.4293285,0.000915666667,0x00,0x00
"SPI","result",14.4304884,0.000915666667,0x00,0x00
"SPI","result",14.4316483,0.000915666667,0x00,0x00
"SPI","result",14.4328081,0.000915666667,0x00,0x00
"SPI","result",14.433968,0.000915666667,0x00,0x00
"SPI","result",14.4351278,0.000915666667,0x00,0x00
"SPI","result",14.4362877,0.000915666667,0x00,0x00
"SPI","result",14.4374476,0.000915666667,0x00,0x00
"SPI","result",14.4386075,0.000915625,0x97,0x00
"SPI","result",14.4397673,0.000915666667,0x7F,0x00
"SPI","result",14.4409272,0.000915666667,0x3F,0x00
"SPI","result",14.442087,0.000915666667,0x0F,0x00
"SPI","result",14.4432469,0.000915666667,0x16,0x00
"SPI","result",14.4444068,0.000915666667,0x01,0x00
"SPI","result",14.4455666,0.000915666667,0x00,0x00
"SPI","result",14.4467265,0.000915666667,0x00,0x00
"SPI","result",14.4478864,0.000915666667,0x00,0x00
"SPI","result",14.4490462,0.000915625,0x00,0x00
"SPI","result",14.4502061,0.000915666667,0x00,0x00
"SPI","result",14.451366,0.000915666667,0x00,0x00
"SPI","result",14.4525258,0.000915666667,0x00,0x00
"SPI","result",14.4536857,0.000915666667,0x00,0x00
"SPI","result",14.4548455,0.000915666667,0x00,0x00
"SPI","result",14.4560665,0.000915666667,0x00,0x00
"SPI","result",14.4572263,0.000915666667,0xFF,0x00
"SPI","result",14.4583862,0.000915666667,0xFC,0x00
"SPI","result",14.4595461,0.000915666667,0xFB,0x00
"SPI","result",14.4607059,0.000915666667,0xE0,0x00
"SPI","result",14.4618658,0.000915666667,0x45,0x00
"SPI","result",14.4630257,0.000915666667,0xF0,0x00
"SPI","result",14.4641855,0.000915666667,0x87,0x00
"SPI","result",14.4653454,0.000915666667,0x38,0x00
"SPI","result",14.4665053,0.000915666667,0x17,0x00
"SPI","result",14.4676651,0.000915666667,0x0C,0x00
"SPI","result",14.468825,0.000915666667,0x09,0x00
"SPI","result",14.4699848,0.000915708333,0x06,0x00
"SPI","result",14.4711447,0.000915666667,0x07,0x00
"SPI","result",14.4723046,0.000915666667,0x03,0x00
"SPI","result",14.4734645,0.000915666667,0x01,0x00
"SPI","result",14.4746243,0.000915666667,0x01,0x00
"SPI","result",14.4757842,0.000915666667,0x77,0x00
"SPI","result",14.476944,0.000915666667,0x00,0x00
"SPI","result",14.4781039,0.000915666667,0xFF,0x00
"SPI","result",14.4792638,0.000915666667,0x00,0x00
"SPI","result",14.4804237,0.000915666667,0xFB,0x00
"SPI","result",14.4815835,0.000915666667,0x04,0x00
"SPI","result",14.4827434,0.000915666667,0xFF,0x00
"SPI","result",14.4839032,0.000915666667,0x00,0x00
"SPI","result",14.4850631,0.000915666667,0x77,0x00
"SPI","result",14.486223,0.000915666667,0x00,0x00
"SPI","result",14.4873828,0.000915666667,0xFF,0x00
"SPI","result",14.4885427,0.000915666667,0x00,0x00
"SPI","result",14.4897026,0.000915666667,0xFF,0x00
"SPI","result",14.4908624,0.000915708333,0x00,0x00
"SPI","result",14.4920223,0.000915625,0xBF,0x00
"SPI","result",14.4931822,0.000915666667,0xC0,0x00
"SPI","result",14.494342,0.000915666667,0xEE,0x00
"SPI","result",14.4955019,0.000915666667,0x11,0x00
"SPI","result",14.4966618,0.000915625,0xFF,0x00
"SPI","result",14.4978216,0.000915666667,0x00,0x00
"SPI","result",14.4989815,0.000915666667,0xFF,0x00
"SPI","result",14.5001414,0.000915666667,0x00,0x00
"SPI","result",14.5013012,0.000915666667,0xFF,0x00
"SPI","result",14.5024611,0.000915666667,0x00,0x00
"SPI","result",14.503621,0.000915666667,0xFE,0x00
"SPI","result",14.5047808,0.000915666667,0x01,0x00
"SPI","result",14.5059407,0.000915666667,0xFD,0x00
"SPI","result",14.5071005,0.000915666667,0x02,0x00
"SPI","result",14.5082604,0.000915666667,0xDA,0x00
"SPI","result",14.5094203,0.000915666667,0x05,0x00
"SPI","result",14.5105802,0.000915666667,0xF5,0x00
"SPI","result",14.51174,0.000915708333,0x0B,0x00
"SPI","result",14.5128999,0.000915666667,0xE7,0x00
"SPI","result",14.5140597,0.000915666667,0x1F,0x00
"SPI","result",14.5152196,0.000915666667,0xCF,0x00
"SPI","result",14.5163795,0.000915666667,0x3F,0x00
"SPI","result",14.5175394,0.000915625,0xAF,0x00
"SPI","result",14.5186992,0.000915666667,0x5F,0x00
"SPI","result",14.5198591,0.000915666667,0x5F,0x00
"SPI","result",14.521019,0.000915666667,0xBF,0x00
"SPI","result",14.5221788,0.000915666667,0xBF,0x00
"SPI","result",14.5233387,0.000915666667,0x7F,0x00
"SPI","result",14.5244985,0.000915666667,0x7F,0x00
"SPI","result",14.5256584,0.000915666667,0xFF,0x00
"SPI","result",14.5268183,0.000915666667,0xFF,0x00
"SPI","result",14.5279782,0.000915625,0xFF,0x00
"SPI","result",14.529138,0.000915666667,0xFF,0x00
"SPI","result",14.5302979,0.000915666667,0xFF,0x00
"SPI","result",14.5314577,0.000915666667,0xFD,0x00
"SPI","result",14.5326176,0.000915666667,0xFF,0x00
"SPI","result",14.5337775,0.000915666667,0xFF,0x00
"SPI","result",14.5349373,0.000915666667,0xFF,0x00
"SPI","result",14.5360972,0.000915666667,0xFD,0x00
"SPI","result",14.5372571,0.000915666667,0xFF,0x00
"SPI","result",14.538417,0.000915625,0xFF,0x00
"SPI","result",14.5395768,0.000915666667,0xFF,0x00
"SPI","result",14.5407367,0.000915666667,0xFF,0x00
"SPI","result",14.5418965,0.000915666667,0xFF,0x00
"SPI","result",14.5430564,0.000915666667,0xFF,0x00
"SPI","result",14.5442162,0.000915666667,0xFF,0x00
"SPI","result",14.5453761,0.000915666667,0xFF,0x00
"SPI","result",14.546536,0.000915666667,0xFF,0x00
"SPI","result",14.5476959,0.000915666667,0xFF,0x00
"SPI","result",14.5488557,0.000915625,0xFF,0x00
"SPI","result",14.5500156,0.000915666667,0xFF,0x00
"SPI","result",14.5511755,0.000915666667,0xFF,0x00
"SPI","result",14.5523353,0.000915666667,0xFF,0x00
"SPI","result",14.5534952,0.000915666667,0xFF,0x00
"SPI","result",14.554655,0.000915666667,0xFF,0x00
"SPI","result",14.5558149,0.000915666667,0xFF,0x00
"SPI","result",14.5569748,0.000915666667,0xFF,0x00
"SPI","result",14.5581347,0.000915666667,0xFF,0x00
"SPI","result",14.5592945,0.000915625,0xFF,0x00
"SPI","result",14.5604544,0.000915666667,0xFF,0x00
"SPI","result",14.5616142,0.000915666667,0xFF,0x00
"SPI","result",14.5627741,0.000915666667,0xFF,0x00
"SPI","result",14.563934,0.000915666667,0xFF,0x00
"SPI","result",14.5650938,0.000915666667,0xFF,0x00
"SPI","result",14.5662537,0.000915666667,0xFF,0x00
"SPI","result",14.5674136,0.000915666667,0xFF,0x00
"SPI","result",14.5685735,0.000915666667,0xFF,0x00
"SPI","result",14.5697333,0.000915625,0xFF,0x00
"SPI","result",14.5708932,0.000915666667,0xFF,0x00
"SPI","result",14.572053,0.000915666667,0xFF,0x00
"SPI","result",14.573274,0.000915666667,0xFF,0x00
"SPI","result",14.5744338,0.000915666667,0xFF,0x00
"SPI","result",14.5755937,0.000915666667,0xFF,0x00
"SPI","result",14.5767535,0.000915666667,0xFF,0x00
"SPI","result",14.5779134,0.000915666667,0xFF,0x00
"SPI","result",14.5790733,0.000915666667,0xFF,0x00
"SPI","result",14.5802332,0.000915625,0xFF,0x00
"SPI","result",14.581393,0.000915666667,0xFF,0x00
"SPI","result",14.5825529,0.000915666667,0xFF,0x00
"SPI","result",14.5837128,0.000915666667,0xFF,0x00
"SPI","result",14.5848726,0.000915666667,0xFF,0x00
"SPI","result",14.5860325,0.000915666667,0xFF,0x00
"SPI","result",14.5871923,0.000915666667,0xFF,0x00
"SPI","result",14.5883522,0.000915666667,0xFF,0x00
"SPI","result",14.5895121,0.000915666667,0xFF,0x00
"SPI","result",14.590672,0.000915666667,0xFF,0x00
"SPI","result",14.5918318,0.000915666667,0xFF,0x00
"SPI","result",14.5929917,0.000915666667,0xFF,0x00
"SPI","result",14.5941515,0.000915666667,0xFF,0x00
"SPI","result",14.5953114,0.000915666667,0xFF,0x00
"SPI","result",14.5964713,0.000915666667,0xFF,0x00
"SPI","result",14.5976311,0.000915666667,0xFF,0x00
"SPI","result",14.598791,0.000915666667,0xFF,0x00
"SPI","result",14.5999509,0.000915666667,0xFF,0x00
"SPI","result",14.6011108,0.000915625,0xFF,0x00
"SPI","result",14.6022706,0.000915666667,0xFF,0x00
"SPI","result",14.6034305,0.000915666667,0xFF,0x00
"SPI","result",14.6045903,0.000915666667,0xFF,0x00
"SPI","result",14.6057502,0.000915666667,0xFF,0x00
"SPI","result",14.60691,0.000915666667,0xFF,0x00
"SPI","result",14.6080699,0.000915666667,0xFF,0x00
"SPI","result",14.6092298,0.000915666667,0xFF,0x00
"SPI","result",14.6103897,0.000915666667,0xFF,0x00
"SPI","result",14.6115495,0.000915625,0xFF,0x00
"SPI","result",14.6127094,0.000915666667,0xFF,0x00
"SPI","result",14.6138693,0.000915666667,0xFF,0x00
"SPI","result",14.6150291,0.000915666667,0xFF,0x00
"SPI","result",14.616189,0.000915666667,0xFF,0x00
"SPI","result",14.6173488,0.000915666667,0xFF,0x00
"SPI","result",14.6185087,0.000915666667,0xFF,0x00
"SPI","result",14.6196686,0.000915666667,0xFF,0x00
"SPI","result",14.6208285,0.000915666667,0xFF,0x00
"SPI","result",14.6219883,0.000915625,0xFF,0x00
"SPI","result",14.6231482,0.000915666667,0xFF,0x00
"SPI","result",14.624308,0.000915666667,0xFF,0x00
"SPI","result",14.6254679,0.000915666667,0xFF,0x00
"SPI","result",14.6266278,0.000915666667,0xFF,0x00
"SPI","result",14.6277876,0.000915666667,0xFF,0x00
"SPI","result",14.6289475,0.000915666667,0xFF,0x00
"SPI","result",14.6301074,0.000915666667,0xFF,0x00
"SPI","result",14.6312673,0.000915666667,0xFF,0x00
"SPI","result",14.6324271,0.000915625,0xFF,0x00
"SPI","result",14.633587,0.000915666667,0xFF,0x00
"SPI","result",14.6347468,0.000915666667,0xFF,0x00
"SPI","result",14.6359067,0.000915666667,0xFF,0x00
"SPI","result",14.6370666,0.000915666667,0xFF,0x00
"SPI","result",14.6382264,0.000915666667,0xFF,0x00
"SPI","result",14.6393863,0.000915666667,0xFF,0x00
"SPI","result",14.6405462,0.000915666667,0xFF,0x00
"SPI","result",14.641706,0.000915666667,0xFF,0x00
"SPI","result",14.6428659,0.000915625,0xFF,0x00
"SPI","result",14.6440258,0.000915666667,0xFF,0x00
"SPI","result",14.6451856,0.000915666667,0xFF,0x00
"SPI","result",14.6463455,0.000915666667,0xFF,0x00
"SPI","result",14.6475054,0.000915666667,0xFF,0x00
"SPI","result",14.6486652,0.000915666667,0xFF,0x00
"SPI","result",14.6498251,0.000915666667,0xFF,0x00
"SPI","result",14.650985,0.000915666667,0xFF,0x00
"SPI","result",14.6521448,0.000915666667,0xFF,0x00
"SPI","result",14.6533047,0.000915625,0xFF,0x00
"SPI","result",14.6544645,0.000915666667,0xFF,0x00
"SPI","result",14.6556244,0.000915666667,0xFF,0x00
"SPI","result",14.6567843,0.000915666667,0xFF,0x00
"SPI","result",14.6579442,0.000915666667,0xFF,0x00
"SPI","result",14.659104,0.000915666667,0xFF,0x00
"SPI","result",14.6602639,0.000915666667,0xFF,0x00
"SPI","result",14.6614238,0.000915666667,0xFD,0x00
"SPI","result",14.6625836,0.000915666667,0xF8,0x00
"SPI","result",14.6637435,0.000915625,0xFA,0x00
"SPI","result",14.6649033,0.000915666667,0xFC,0x00
"SPI","result",14.6660632,0.000915666667,0xFD,0x00
"SPI","result",14.6672231,0.000915666667,0xFC,0x00
"SPI","result",14.668383,0.000915666667,0xFC,0x00
"SPI","result",14.6695428,0.000915625,0xF8,0x00
"SPI","result",14.6707027,0.000915666667,0xFD,0x00
"SPI","result",14.6718625,0.000915666667,0xF8,0x00
"SPI","result",14.6730224,0.000915666667,0xFE,0x00
"SPI","result",14.6741823,0.000915625,0xF8,0x00
"SPI","result",14.6753421,0.000915666667,0xFD,0x00
"SPI","result",14.676502,0.000915666667,0xF8,0x00
"SPI","result",14.6776619,0.000915666667,0xF4,0x00
"SPI","result",14.6788217,0.000915666667,0xF8,0x00
"SPI","result",14.6799816,0.000915666667,0x00,0x00
"SPI","result",14.6811415,0.000915666667,0x00,0x00
"SPI","result",14.6823013,0.000915666667,0x00,0x00
"SPI","result",14.6834612,0.000915666667,0x00,0x00
"SPI","result",14.6846211,0.000915625,0x00,0x00
"SPI","result",14.6857809,0.000915666667,0x00,0x00
"SPI","result",14.6869408,0.000915666667,0x00,0x00
"SPI","result",14.6881007,0.000915666667,0x00,0x00
"SPI","result",14.6892605,0.000915666667,0x00,0x00
"SPI","result",14.6904815,0.000915625,0x00,0x00
"SPI","result",14.6916413,0.000915666667,0x00,0x00
"SPI","result",14.6928012,0.000915666667,0x00,0x00
"SPI","result",14.693961,0.000915666667,0x00,0x00
"SPI","result",14.6951209,0.000915666667,0x00,0x00
"SPI","result",14.6962807,0.000915666667,0x00,0x00
"SPI","result",14.6974406,0.000915666667,0x00,0x00
"SPI","result",14.6986005,0.000915666667,0x00,0x00
"SPI","result",14.6997604,0.000915666667,0x00,0x00
"SPI","result",14.7009202,0.000915625,0x00,0x00
"SPI","result",14.7020801,0.000915666667,0x00,0x00
"SPI","result",14.70324,0.000915666667,0x00,0x00
"SPI","result",14.7043998,0.000915666667,0x00,0x00
"SPI","result",14.7055597,0.000915666667,0x00,0x00
"SPI","result",14.7067195,0.000915666667,0x00,0x00
"SPI","result",14.7078794,0.000915666667,0x00,0x00
"SPI","result",14.7090393,0.000915666667,0x00,0x00
"SPI","result",14.7101992,0.000915666667,0x00,0x00
"SPI","result",14.711359,0.000915625,0x00,0x00
"SPI","result",14.7125189,0.000915666667,0x00,0x00
"SPI","result",14.7136787,0.000915666667,0x00,0x00
"SPI","result",14.7148386,0.000915666667,0x00,0x00
"SPI","result",14.7159985,0.000915666667,0x00,0x00
"SPI","result",14.7171583,0.000915666667,0x00,0x00
"SPI","result",14.7183182,0.000915666667,0x00,0x00
"SPI","result",14.7194781,0.000915666667,0x00,0x00
"SPI","result",14.720638,0.000915666667,0x00,0x00
"SPI","result",14.7217978,0.000915625,0x00,0x00
"SPI","result",14.7229577,0.000915666667,0x00,0x00
"SPI","result",14.7241175,0.000915666667,0x00,0x00
"SPI","result",14.7252774,0.000915666667,0x00,0x00
"SPI","result",14.7264373,0.000915666667,0x00,0x00
"SPI","result",14.7275971,0.000915666667,0x00,0x00
"SPI","result",14.728757,0.000915666667,0x00,0x00
"SPI","result",14.7299169,0.000915666667,0x00,0x00
"SPI","result",14.7310767,0.000915666667,0x00,0x00
"SPI","result",14.7322366,0.000915625,0x00,0x00
"SPI","result",14.7333965,0.000915666667,0x00,0x00
"SPI","result",14.7345563,0.000915666667,0x00,0x00
"SPI","result",14.7357162,0.000915666667,0x00,0x00
"SPI","result",14.7368761,0.000915666667,0x00,0x00
"SPI","result",14.7380359,0.000915666667,0x00,0x00
"SPI","result",14.7391958,0.000915666667,0x00,0x00
"SPI","result",14.7403557,0.000915666667,0x00,0x00
"SPI","result",14.7415155,0.000915666667,0x00,0x00
"SPI","result",14.7426754,0.000915666667,0x00,0x00
"SPI","result",14.7438353,0.000915666667,0x00,0x00
"SPI","result",14.7449951,0.000915666667,0x00,0x00
"SPI","result",14.746155,0.000915666667,0x00,0x00
"SPI","result",14.7473149,0.000915666667,0x00,0x00
"SPI","result",14.7484747,0.000915666667,0x00,0x00
"SPI","result",14.7496346,0.000915666667,0x00,0x00
"SPI","result",14.7507945,0.000915666667,0x00,0x00
"SPI","result",14.7519543,0.000915666667,0x00,0x00
"SPI","result",14.7531142,0.000915666667,0x00,0x00
"SPI","result",14.754274,0.000915666667,0x00,0x00
"SPI","result",14.7554339,0.000915666667,0x00,0x00
"SPI","result",14.7565938,0.000915666667,0x00,0x00
"SPI","result",14.7577537,0.000915666667,0x00,0x00
"SPI","result",14.7589135,0.000915666667,0x00,0x00
"SPI","result",14.7600734,0.000915666667,0x00,0x00
"SPI","result",14.7612333,0.000915666667,0x00,0x00
"SPI","result",14.7623931,0.000915666667,0x00,0x00
"SPI","result",14.763553,0.000915666667,0x00,0x00
"SPI","result",14.7647128,0.000915666667,0x00,0x00
"SPI","result",14.7658727,0.000915666667,0x00,0x00
"SPI","result",14.7670326,0.000915666667,0x00,0x00
"SPI","result",14.7681925,0.000915666667,0x00,0x00
"SPI","result",14.7693523,0.000915666667,0x00,0x00
"SPI","result",14.7705122,0.000915666667,0x00,0x00
"SPI","result",14.771672,0.000915666667,0x00,0x00
"SPI","result",14.7728319,0.000915666667,0x00,0x00
"SPI","result",14.7739918,0.000915666667,0x00,0x00
"SPI","result",14.7751516,0.000915666667,0x00,0x00
"SPI","result",14.7763115,0.000915666667,0x00,0x00
"SPI","result",14.7774714,0.000915666667,0x00,0x00
"SPI","result",14.7786313,0.000915666667,0x00,0x00
"SPI","result",14.7797911,0.000915666667,0x00,0x00
"SPI","result",14.780951,0.000915666667,0x00,0x00
"SPI","result",14.7821108,0.000915666667,0x00,0x00
"SPI","result",14.7832707,0.000915666667,0x00,0x00
"SPI","result",14.7844305,0.000915666667,0x00,0x00
"SPI","result",14.7855904,0.000915666667,0x00,0x00
"SPI","result",14.7867503,0.000915666667,0x00,0x00
"SPI","result",14.7879102,0.000915666667,0x00,0x00
"SPI","result",14.78907,0.000915625,0x00,0x00
"SPI","result",14.7902299,0.000915666667,0x00,0x00
"SPI","result",14.7913898,0.000915666667,0x00,0x00
"SPI","result",14.7925496,0.000915666667,0x00,0x00
"SPI","result",14.7937095,0.000915666667,0x00,0x00
"SPI","result",14.7948693,0.000915666667,0x00,0x00
"SPI","result",14.7960292,0.000915666667,0x00,0x00
"SPI","result",14.7971891,0.000915666667,0x00,0x00
"SPI","result",14.798349,0.000915666667,0x00,0x00
"SPI","result",14.7995088,0.000915625,0x00,0x00
"SPI","result",14.8006687,0.000915666667,0x00,0x00
"SPI","result",14.8018285,0.000915666667,0x00,0x00
"SPI","result",14.8029884,0.000915666667,0x00,0x00
"SPI","result",14.8041483,0.000915666667,0x00,0x00
"SPI","result",14.8053081,0.000915666667,0x00,0x00
"SPI","result",14.806468,0.000915666667,0x00,0x00
"SPI","result",14.8076889,0.000915666667,0x00,0x00
"SPI","result",14.8088488,0.000915666667,0x00,0x00
"SPI","result",14.8100087,0.000915666667,0x00,0x00
"SPI","result",14.8111685,0.000915666667,0x00,0x00
"SPI","result",14.8123284,0.000915666667,0x00,0x00
"SPI","result",14.8134883,0.000915666667,0x00,0x00
"SPI","result",14.8146481,0.000915666667,0x00,0x00
"SPI","result",14.815808,0.000915625,0x00,0x00
"SPI","result",14.8169678,0.000915666667,0x00,0x00
"SPI","result",14.8181277,0.000915666667,0x00,0x00
"SPI","result",14.8192876,0.000915666667,0x00,0x00
"SPI","result",14.8204475,0.000915666667,0x00,0x00
"SPI","result",14.8216073,0.000915666667,0x00,0x00
"SPI","result",14.8227672,0.000915666667,0x00,0x00
"SPI","result",14.823927,0.000915666667,0x00,0x00
"SPI","result",14.8250869,0.000915666667,0x00,0x00
"SPI","result",14.8262468,0.000915625,0x00,0x00
"SPI","result",14.8274066,0.000915666667,0x00,0x00
"SPI","result",14.8285665,0.000915666667,0x00,0x00
"SPI","result",14.8297264,0.000915666667,0x00,0x00
"SPI","result",14.8308863,0.000915666667,0x00,0x00
"SPI","result",14.8320461,0.000915666667,0x00,0x00
"SPI","result",14.833206,0.000915666667,0x00,0x00
"SPI","result",14.8343658,0.000915666667,0x00,0x00
"SPI","result",14.8355257,0.000915666667,0x00,0x00
"SPI","result",14.8366856,0.000915625,0x00,0x00
"SPI","result",14.8378454,0.000915666667,0x00,0x00
"SPI","result",14.8390053,0.000915666667,0x00,0x00
"SPI","result",14.8401652,0.000915666667,0x00,0x00
"SPI","result",14.841325,0.000915666667,0x00,0x00
"SPI","result",14.8424849,0.000915666667,0x00,0x00
"SPI","result",14.8436447,0.000915666667,0x00,0x00
"SPI","result",14.8448046,0.000915666667,0x00,0x00
"SPI","result",14.8459645,0.000915666667,0x00,0x00
"SPI","result",14.8471244,0.000915625,0x6F,0x00
"SPI","result",14.8482842,0.000915666667,0xF0,0x00
"SPI","result",14.8494441,0.000915666667,0x3C,0x00
"SPI","result",14.850604,0.000915666667,0x3F,0x00
"SPI","result",14.8517638,0.000915666667,0x1F,0x00
"SPI","result",14.8529237,0.000915666667,0x0F,0x00
"SPI","result",14.8540835,0.000915666667,0x0F,0x00
"SPI","result",14.8552434,0.000915666667,0x03,0x00
"SPI","result",14.8564033,0.000915666667,0x11,0x00
"SPI","result",14.8575631,0.000915666667,0x00,0x00
"SPI","result",14.858723,0.000915666667,0x02,0x00
"SPI","result",14.8598829,0.000915666667,0x00,0x00
"SPI","result",14.8610427,0.000915666667,0x15,0x00
"SPI","result",14.8622026,0.000915666667,0x00,0x00
"SPI","result",14.8633625,0.000915666667,0x02,0x00
"SPI","result",14.8645223,0.000915666667,0x00,0x00
"SPI","result",14.8656822,0.000915666667,0x6F,0x00
"SPI","result",14.8668421,0.000915666667,0x17,0x00
"SPI","result",14.8680019,0.000915666667,0x3F,0x00
"SPI","result",14.8691618,0.000915666667,0xFF,0x00
"SPI","result",14.8703217,0.000915666667,0xFF,0x00
"SPI","result",14.8714815,0.000915666667,0xFF,0x00
"SPI","result",14.8726414,0.000915666667,0xFF,0x00
"SPI","result",14.8738012,0.000915666667,0xFF,0x00
"SPI","result",14.8749611,0.000915666667,0x7F,0x00
"SPI","result",14.876121,0.000915666667,0xFF,0x00
"SPI","result",14.8772809,0.000915666667,0xF2,0x00
"SPI","result",14.8784407,0.000915625,0x0F,0x00
"SPI","result",14.8796006,0.000915666667,0x59,0x00
"SPI","result",14.8807605,0.000915666667,0x07,0x00
"SPI","result",14.8819203,0.000915666667,0xBC,0x00
"SPI","result",14.8830802,0.000915666667,0x03,0x00
"SPI","result",14.88424,0.000915666667,0xFF,0x00
"SPI","result",14.8853999,0.000915666667,0xFF,0x00
"SPI","result",14.8865598,0.000915666667,0xFF,0x00
"SPI","result",14.8877197,0.000915666667,0xFF,0x00
"SPI","result",14.8888795,0.000915625,0xFF,0x00
"SPI","result",14.8900394,0.000915666667,0xFF,0x00
"SPI","result",14.8911992,0.000915666667,0xFF,0x00
"SPI","result",14.8923591,0.000915666667,0xFF,0x00
"SPI","result",14.893519,0.000915666667,0xFF,0x00
"SPI","result",14.8946788,0.000915666667,0xFF,0x00
"SPI","result",14.8958387,0.000915666667,0xBF,0x00
"SPI","result",14.8969986,0.000915666667,0xFF,0x00
"SPI","result",14.8981585,0.000915666667,0x7F,0x00
"SPI","result",14.8993183,0.000915625,0xFF,0x00
"SPI","result",14.9004782,0.000915666667,0xFF,0x00
"SPI","result",14.901638,0.000915666667,0xFF,0x00
"SPI","result",14.9027979,0.000915666667,0xFF,0x00
"SPI","result",14.9039578,0.000915666667,0xFF,0x00
"SPI","result",14.9051176,0.000915666667,0xFF,0x00
"SPI","result",14.9062775,0.000915666667,0xFF,0x00
"SPI","result",14.9074374,0.000915666667,0xFF,0x00
"SPI","result",14.9085972,0.000915666667,0xFF,0x00
"SPI","result",14.9097571,0.000915625,0xFF,0x00
"SPI","result",14.910917,0.000915666667,0xFF,0x00
"SPI","result",14.9120768,0.000915666667,0xFF,0x00
"SPI","result",14.9132367,0.000915666667,0xFF,0x00
"SPI","result",14.9143966,0.000915666667,0xFF,0x00
"SPI","result",14.9155564,0.000915666667,0xFF,0x00
"SPI","result",14.9167163,0.000915666667,0xFF,0x00
"SPI","result",14.9178762,0.000915666667,0xFF,0x00
"SPI","result",14.919036,0.000915666667,0xFF,0x00
"SPI","result",14.9201959,0.000915625,0xFF,0x00
"SPI","result",14.9213558,0.000915666667,0xFF,0x00
"SPI","result",14.9225156,0.000915666667,0xFF,0x00
"SPI","result",14.9236755,0.000915666667,0xFF,0x00
"SPI","result",14.9248964,0.000915666667,0xFF,0x00
"SPI","result",14.9260563,0.000915625,0xFF,0x00
"SPI","result",14.9272161,0.000915666667,0xFF,0x00
"SPI","result",14.928376,0.000915666667,0xFF,0x00
"SPI","result",14.9295359,0.000915666667,0xFF,0x00
"SPI","result",14.9306957,0.000915666667,0xFF,0x00
"SPI","result",14.9318556,0.000915666667,0xFF,0x00
"SPI","result",14.9330155,0.000915666667,0xFF,0x00
"SPI","result",14.9341753,0.000915666667,0xFF,0x00
"SPI","result",14.9353352,0.000915666667,0xFF,0x00
"SPI","result",14.9364951,0.000915625,0xFF,0x00
"SPI","result",14.9376549,0.000915666667,0xFF,0x00
"SPI","result",14.9388148,0.000915666667,0xFF,0x00
"SPI","result",14.9399747,0.000915666667,0xFF,0x00
"SPI","result",14.9411345,0.000915666667,0xFF,0x00
"SPI","result",14.9422944,0.000915666667,0xFF,0x00
"SPI","result",14.9434543,0.000915666667,0xFF,0x00
"SPI","result",14.9446141,0.000915666667,0xFF,0x00
"SPI","result",14.945774,0.000915666667,0xFF,0x00
"SPI","result",14.9469339,0.000915625,0xFF,0x00
"SPI","result",14.9480937,0.000915666667,0xFF,0x00
"SPI","result",14.9492536,0.000915666667,0xFF,0x00
"SPI","result",14.9504135,0.000915666667,0xFF,0x00
"SPI","result",14.9515733,0.000915666667,0xFF,0x00
"SPI","result",14.9527332,0.000915666667,0xFF,0x00
"SPI","result",14.953893,0.000915666667,0xFF,0x00
"SPI","result",14.9550529,0.000915666667,0xFF,0x00
"SPI","result",14.9562128,0.000915666667,0xFF,0x00
"SPI","result",14.9573726,0.000915666667,0xFF,0x00
"SPI","result",14.9584715,0.000915666667,0x35,0x00
"SPI","result",14.9595703,0.000915666667,0x42,0x00
"SPI","result",14.9606691,0.000915625,0x00,0x81
"SPI","result",14.9617679,0.000915666667,0x00,0x00
"SPI","result",15.0121916,0.000915625,0x88,0x00
"SPI","result",15.0132904,0.000915666667,0x33,0x00
"SPI","result",15.0144502,0.000915666667,0x04,0x00
"SPI","result",15.0156101,0.000915666667,0x00,0x00
"SPI","result",15.01677,0.000915625,0x80,0x00
"SPI","result",15.0179298,0.000915666667,0x02,0x00
"SPI","result",15.0190897,0.000915666667,0xFF,0x00
"SPI","result",15.0202496,0.000915666667,0xFF,0x00
"SPI","result",15.0214095,0.000915666667,0xFF,0x00
"SPI","result",15.0225693,0.000915666667,0xFF,0x00
"SPI","result",15.0237292,0.000915666667,0xFF,0x00
"SPI","result",15.024889,0.000915666667,0xFF,0x00
"SPI","result",15.0260489,0.000915666667,0xFF,0x00
"SPI","result",15.0272088,0.000915625,0xFF,0x00
"SPI","result",15.0283686,0.000915666667,0xFF,0x00
"SPI","result",15.0295285,0.000915666667,0xFF,0x00
"SPI","result",15.0306884,0.000915666667,0xFF,0x00
"SPI","result",15.0318482,0.000915666667,0xFF,0x00
"SPI","result",15.0330081,0.000915666667,0xFF,0x00
"SPI","result",15.034168,0.000915666667,0xFF,0x00
"SPI","result",15.0353278,0.000915666667,0xFF,0x00
"SPI","result",15.0364877,0.000915666667,0xFF,0x00
"SPI","result",15.0376476,0.000915625,0xFF,0x00
"SPI","result",15.0388074,0.000915666667,0xFF,0x00
"SPI","result",15.0399673,0.000915666667,0xFF,0x00
"SPI","result",15.0411272,0.000915666667,0xFF,0x00
"SPI","result",15.042287,0.000915666667,0xFF,0x00
"SPI","result",15.0434469,0.000915666667,0xFF,0x00
"SPI","result",15.0446067,0.000915666667,0xFF,0x00
"SPI","result",15.0457666,0.000915666667,0xFF,0x00
"SPI","result",15.0469265,0.000915666667,0xFF,0x00
"SPI","result",15.0480863,0.000915666667,0xFF,0x00
"SPI","result",15.0492462,0.000915666667,0xFF,0x00
"SPI","result",15.0504061,0.000915666667,0xFF,0x00
"SPI","result",15.051566,0.000915666667,0xFF,0x00
"SPI","result",15.0527258,0.000915666667,0xFF,0x00
"SPI","result",15.0538857,0.000915666667,0xFF,0x00
"SPI","result",15.0550455,0.000915666667,0xFF,0x00
"SPI","result",15.0562054,0.000915666667,0xFF,0x00
"SPI","result",15.0573653,0.000915666667,0xFF,0x00
"SPI","result",15.0585252,0.000915625,0xFF,0x00
"SPI","result",15.059685,0.000915666667,0xFF,0x00
"SPI","result",15.0608449,0.000915666667,0xFF,0x00
"SPI","result",15.0620047,0.000915666667,0xFF,0x00
"SPI","result",15.0631646,0.000915666667,0xFF,0x00
"SPI","result",15.0643245,0.000915666667,0xFF,0x00
"SPI","result",15.0654843,0.000915666667,0xFF,0x00
"SPI","result",15.0666442,0.000915666667,0xFF,0x00
"SPI","result",15.0678041,0.000915666667,0xFF,0x00
"SPI","result",15.0689639,0.000915666667,0xFF,0x00
"SPI","result",15.0701238,0.000915666667,0xFF,0x00
"SPI","result",15.0712837,0.000915666667,0xFF,0x00
"SPI","result",15.0724435,0.000915666667,0xFF,0x00
"SPI","result",15.0736034,0.000915625,0xFF,0x00
"SPI","result",15.0747633,0.000915666667,0xFF,0x00
"SPI","result",15.0759231,0.000915666667,0xFF,0x00
"SPI","result",15.077083,0.000915666667,0xFF,0x00
"SPI","result",15.0782429,0.000915666667,0xFF,0x00
"SPI","result",15.0794027,0.000915666667,0xFF,0x00
"SPI","result",15.0805626,0.000915666667,0xFF,0x00
"SPI","result",15.0817225,0.000915666667,0xFF,0x00
"SPI","result",15.0828823,0.000915666667,0xFF,0x00
"SPI","result",15.0840422,0.000915625,0xFF,0x00
"SPI","result",15.085202,0.000915666667,0xFF,0x00
"SPI","result",15.0863619,0.000915666667,0xFF,0x00
"SPI","result",15.0875218,0.000915666667,0xFF,0x00
"SPI","result",15.0886817,0.000915666667,0xFF,0x00
"SPI","result",15.0898415,0.000915666667,0xFF,0x00
"SPI","result",15.0910014,0.000915666667,0xFF,0x00
"SPI","result",15.0921613,0.000915666667,0xFF,0x00
"SPI","result",15.0933211,0.000915666667,0xFD,0x00
"SPI","result",15.094481,0.000915666667,0xF0,0x00
"SPI","result",15.0956409,0.000915625,0xFA,0x00
"SPI","result",15.0968007,0.000915666667,0xF0,0x00
"SPI","result",15.0979606,0.000915666667,0xFD,0x00
"SPI","result",15.0991205,0.000915666667,0xF0,0x00
"SPI","result",15.1002803,0.000915625,0xFC,0x00
"SPI","result",15.1014402,0.000915666667,0xF0,0x00
"SPI","result",15.1026,0.000915666667,0xF5,0x00
"SPI","result",15.1037599,0.000915666667,0xF0,0x00
"SPI","result",15.1049198,0.000915625,0xFA,0x00
"SPI","result",15.1060797,0.000915625,0xF0,0x00
"SPI","result",15.1072395,0.000915666667,0xF5,0x00
"SPI","result",15.1083994,0.000915666667,0xF0,0x00
"SPI","result",15.1095593,0.000915666667,0xFE,0x00
"SPI","result",15.1107191,0.000915625,0xF0,0x00
"SPI","result",15.111879,0.000915666667,0x00,0x00
"SPI","result",15.1130388,0.000915666667,0x00,0x00
"SPI","result",15.1141987,0.000915666667,0x00,0x00
"SPI","result",15.1153586,0.000915625,0x00,0x00
"SPI","result",15.1165184,0.000915666667,0x00,0x00
"SPI","result",15.1176783,0.000915666667,0x00,0x00
"SPI","result",15.1188382,0.000915666667,0x00,0x00
"SPI","result",15.119998,0.000915666667,0x00,0x00
"SPI","result",15.1211579,0.000915666667,0x10,0x00
"SPI","result",15.1223178,0.000915666667,0x00,0x00
"SPI","result",15.1234776,0.000915666667,0x00,0x00
"SPI","result",15.1246375,0.000915666667,0x00,0x00
"SPI","result",15.1258584,0.000915666667,0x54,0x00
"SPI","result",15.1270183,0.000915666667,0x00,0x00
"SPI","result",15.1281781,0.000915666667,0x00,0x00
"SPI","result",15.129338,0.000915666667,0x00,0x00
"SPI","result",15.1304979,0.000915666667,0x00,0x00
"SPI","result",15.1316578,0.000915625,0x00,0x00
"SPI","result",15.1328176,0.000915666667,0x00,0x00
"SPI","result",15.1339775,0.000915666667,0x00,0x00
"SPI","result",15.1351373,0.000915666667,0x00,0x00
"SPI","result",15.1362972,0.000915666667,0x00,0x00
"SPI","result",15.137457,0.000915666667,0x00,0x00
"SPI","result",15.1386169,0.000915666667,0x00,0x00
"SPI","result",15.1397768,0.000915666667,0x00,0x00
"SPI","result",15.1409367,0.000915666667,0x00,0x00
"SPI","result",15.1420965,0.000915625,0x00,0x00
"SPI","result",15.1432564,0.000915666667,0x00,0x00
"SPI","result",15.1444163,0.000915666667,0x00,0x00
"SPI","result",15.1455761,0.000915666667,0x00,0x00
"SPI","result",15.146736,0.000915666667,0x00,0x00
"SPI","result",15.1478958,0.000915666667,0x00,0x00
"SPI","result",15.1490557,0.000915666667,0x00,0x00
"SPI","result",15.1502156,0.000915666667,0x00,0x00
"SPI","result",15.1513755,0.000915666667,0x00,0x00
"SPI","result",15.1525353,0.000915625,0x00,0x00
"SPI","result",15.1536952,0.000915666667,0x00,0x00
"SPI","result",15.154855,0.000915666667,0x00,0x00
"SPI","result",15.1560149,0.000915666667,0x00,0x00
"SPI","result",15.1571748,0.000915666667,0x00,0x00
"SPI","result",15.1583346,0.000915666667,0x00,0x00
"SPI","result",15.1594945,0.000915666667,0x00,0x00
"SPI","result",15.1606544,0.000915666667,0x00,0x00
"SPI","result",15.1618143,0.000915666667,0x00,0x00
"SPI","result",15.1629741,0.000915625,0x00,0x00
"SPI","result",15.164134,0.000915666667,0x00,0x00
"SPI","result",15.1652938,0.000915666667,0x00,0x00
"SPI","result",15.1664537,0.000915666667,0x00,0x00
"SPI","result",15.1676136,0.000915666667,0x00,0x00
"SPI","result",15.1687734,0.000915666667,0x00,0x00
"SPI","result",15.1699333,0.000915666667,0x00,0x00
"SPI","result",15.1710932,0.000915666667,0x00,0x00
"SPI","result",15.172253,0.000915666667,0x00,0x00
"SPI","result",15.1734129,0.000915625,0x00,0x00
"SPI","result",15.1745727,0.000915666667,0x00,0x00
"SPI","result",15.1757326,0.000915666667,0x00,0x00
"SPI","result",15.1768925,0.000915666667,0x00,0x00
"SPI","result",15.1780524,0.000915666667,0x00,0x00
"SPI","result",15.1792122,0.000915666667,0x00,0x00
"SPI","result",15.1803721,0.000915666667,0x00,0x00
"SPI","result",15.181532,0.000915666667,0x00,0x00
"SPI","result",15.1826918,0.000915666667,0x00,0x00
"SPI","result",15.1838517,0.000915625,0x00,0x00
"SPI","result",15.1850115,0.000915666667,0x00,0x00
"SPI","result",15.1861714,0.000915666667,0x00,0x00
"SPI","result",15.1873313,0.000915666667,0x00,0x00
"SPI","result",15.1884912,0.000915666667,0x00,0x00
"SPI","result",15.189651,0.000915666667,0x00,0x00
"SPI","result",15.1908109,0.000915666667,0x00,0x00
"SPI","result",15.1919707,0.000915666667,0x00,0x00
"SPI","result",15.1931306,0.000915666667,0x00,0x00
"SPI","result",15.1942905,0.000915625,0x00,0x00
"SPI","result",15.1954503,0.000915666667,0x00,0x00
"SPI","result",15.1966102,0.000915666667,0x00,0x00
"SPI","result",15.1977701,0.000915666667,0x00,0x00
"SPI","result",15.19893,0.000915666667,0x00,0x00
"SPI","result",15.2000898,0.000915666667,0x00,0x00
"SPI","result",15.2012497,0.000915666667,0x00,0x00
"SPI","result",15.2024095,0.000915666667,0x00,0x00
"SPI","result",15.2035694,0.000915666667,0x00,0x00
"SPI","result",15.2047293,0.000915625,0x00,0x00
"SPI","result",15.2058891,0.000915666667,0x00,0x00
"SPI","result",15.207049,0.000915666667,0x00,0x00
"SPI","result",15.2082089,0.000915666667,0x00,0x00
"SPI","result",15.2093687,0.000915666667,0x00,0x00
"SPI","result",15.2105286,0.000915666667,0x00,0x00
"SPI","result",15.2116885,0.000915666667,0x00,0x00
"SPI","result",15.2128483,0.000915666667,0x00,0x00
"SPI","result",15.2140082,0.000915666667,0x00,0x00
"SPI","result",15.2151681,0.000915625,0x00,0x00
"SPI","result",15.2163279,0.000915666667,0x00,0x00
"SPI","result",15.2174878,0.000915666667,0x00,0x00
"SPI","result",15.2186477,0.000915666667,0x00,0x00
"SPI","result",15.2198075,0.000915666667,0x00,0x00
"SPI","result",15.2209674,0.000915666667,0x00,0x00
"SPI","result",15.2221272,0.000915666667,0x00,0x00
"SPI","result",15.2232871,0.000915666667,0x00,0x00
"SPI","result",15.224447,0.000915666667,0x00,0x00
"SPI","result",15.2256069,0.000915625,0x00,0x00
"SPI","result",15.2267667,0.000915666667,0x00,0x00
"SPI","result",15.2279266,0.000915666667,0x00,0x00
"SPI","result",15.2290865,0.000915666667,0x00,0x00
"SPI","result",15.2302463,0.000915666667,0x00,0x00
"SPI","result",15.2314062,0.000915666667,0x00,0x00
"SPI","result",15.232566,0.000915666667,0x00,0x00
"SPI","result",15.2337259,0.000915666667,0x00,0x00
"SPI","result",15.2348858,0.000915666667,0x00,0x00
"SPI","result",15.2360457,0.000915625,0x00,0x00
"SPI","result",15.2372055,0.000915666667,0x00,0x00
"SPI","result",15.2383654,0.000915666667,0x00,0x00
"SPI","result",15.2395252,0.000915666667,0x00,0x00
"SPI","result",15.2406851,0.000915666667,0x00,0x00
"SPI","result",15.241845,0.000915666667,0x00,0x00
"SPI","result",15.2430659,0.000915666667,0x00,0x00
"SPI","result",15.2442258,0.000915666667,0x00,0x00
"SPI","result",15.2453856,0.000915666667,0x00,0x00
"SPI","result",15.2465455,0.000915666667,0x00,0x00
"SPI","result",15.2477053,0.000915666667,0x00,0x00
"SPI","result",15.2488652,0.000915666667,0x00,0x00
"SPI","result",15.2500251,0.000915666667,0x00,0x00
"SPI","result",15.251185,0.000915666667,0x00,0x00
"SPI","result",15.2523448,0.000915666667,0x00,0x00
"SPI","result",15.2535047,0.000915666667,0x00,0x00
"SPI","result",15.2546645,0.000915666667,0x00,0x00
"SPI","result",15.2558244,0.000915666667,0x00,0x00
"SPI","result",15.2569843,0.000915625,0x00,0x00
"SPI","result",15.2581441,0.000915666667,0x00,0x00
"SPI","result",15.259304,0.000915666667,0x00,0x00
"SPI","result",15.2604639,0.000915666667,0x01,0x00
"SPI","result",15.2616238,0.000915666667,0x00,0x00
"SPI","result",15.2627836,0.000915666667,0x00,0x00
"SPI","result",15.2639435,0.000915666667,0x00,0x00
"SPI","result",15.2651033,0.000915666667,0x00,0x00
"SPI","result",15.2662632,0.000915666667,0x00,0x00
"SPI","result",15.2674231,0.000915625,0x00,0x00
"SPI","result",15.2685829,0.000915666667,0x00,0x00
"SPI","result",15.2697428,0.000915666667,0x00,0x00
"SPI","result",15.2709027,0.000915666667,0x00,0x00
"SPI","result",15.2720625,0.000915666667,0x00,0x00
"SPI","result",15.2732224,0.000915666667,0x00,0x00
"SPI","result",15.2743823,0.000915666667,0x00,0x00
"SPI","result",15.2755421,0.000915666667,0x00,0x00
"SPI","result",15.276702,0.000915666667,0x00,0x00
"SPI","result",15.2778619,0.000915666667,0x00,0x00
"SPI","result",15.2790217,0.000915666667,0x15,0x00
"SPI","result",15.2801816,0.000915666667,0x00,0x00
"SPI","result",15.2813415,0.000915666667,0x02,0x00
"SPI","result",15.2825013,0.000915666667,0x00,0x00
"SPI","result",15.2836612,0.000915666667,0x55,0x00
"SPI","result",15.284821,0.000915666667,0x00,0x00
"SPI","result",15.2859809,0.000915666667,0x02,0x00
"SPI","result",15.2871408,0.000915666667,0x00,0x00
"SPI","result",15.2883007,0.000915625,0x15,0x00
"SPI","result",15.2894605,0.000915666667,0x00,0x00
"SPI","result",15.2906204,0.000915666667,0x23,0x00
"SPI","result",15.2917803,0.000915666667,0x00,0x00
"SPI","result",15.2929401,0.000915666667,0x55,0x00
"SPI","result",15.2941,0.000915666667,0x00,0x00
"SPI","result",15.2952598,0.000915666667,0x0A,0x00
"SPI","result",15.2964197,0.000915666667,0x00,0x00
"SPI","result",15.2975796,0.000915666667,0x58,0x00
"SPI","result",15.2987395,0.000915625,0x07,0x00
"SPI","result",15.2998993,0.000915666667,0xBC,0x00
"SPI","result",15.3010592,0.000915666667,0x03,0x00
"SPI","result",15.302219,0.000915666667,0x5A,0x00
"SPI","result",15.3033789,0.000915666667,0x05,0x00
"SPI","result",15.3045388,0.000915666667,0xFC,0x00
"SPI","result",15.3056986,0.000915666667,0x03,0x00
"SPI","result",15.3068585,0.000915666667,0x78,0x00
"SPI","result",15.3080184,0.000915666667,0x07,0x00
"SPI","result",15.3091783,0.000915625,0xFC,0x00
"SPI","result",15.3103381,0.000915666667,0x03,0x00
"SPI","result",15.311498,0.000915666667,0x79,0x00
"SPI","result",15.3126578,0.000915666667,0x07,0x00
"SPI","result",15.3138177,0.000915666667,0xF0,0x00
"SPI","result",15.3149775,0.000915666667,0x0F,0x00
"SPI","result",15.3161374,0.000915666667,0x7F,0x00
"SPI","result",15.3172973,0.000915666667,0xFF,0x00
"SPI","result",15.3184572,0.000915666667,0xBF,0x00
"SPI","result",15.319617,0.000915625,0xFF,0x00
"SPI","result",15.3207769,0.000915666667,0x7F,0x00
"SPI","result",15.3219368,0.000915666667,0xFF,0x00
"SPI","result",15.3230966,0.000915666667,0xFF,0x00
"SPI","result",15.3242565,0.000915666667,0xFF,0x00
"SPI","result",15.3254163,0.000915666667,0x7F,0x00
"SPI","result",15.3265762,0.000915666667,0xFF,0x00
"SPI","result",15.3277361,0.000915666667,0xFF,0x00
"SPI","result",15.328896,0.000915666667,0xFF,0x00
"SPI","result",15.3300558,0.000915625,0xFF,0x00
"SPI","result",15.3312157,0.000915666667,0xFF,0x00
"SPI","result",15.3323755,0.000915666667,0xFF,0x00
"SPI","result",15.3335354,0.000915666667,0xFF,0x00
"SPI","result",15.3346953,0.000915666667,0xFF,0x00
"SPI","result",15.3358551,0.000915666667,0xFF,0x00
"SPI","result",15.337015,0.000915666667,0xFF,0x00
"SPI","result",15.3381749,0.000915666667,0xFF,0x00
"SPI","result",15.3393348,0.000915666667,0xFF,0x00
"SPI","result",15.3404946,0.000915625,0xFF,0x00
"SPI","result",15.3416545,0.000915666667,0xFF,0x00
"SPI","result",15.3428143,0.000915666667,0xFF,0x00
"SPI","result",15.3439742,0.000915666667,0xFF,0x00
"SPI","result",15.3451341,0.000915666667,0xFF,0x00
"SPI","result",15.3462939,0.000915666667,0xFF,0x00
"SPI","result",15.3474538,0.000915666667,0xFF,0x00
"SPI","result",15.3486137,0.000915666667,0xFF,0x00
"SPI","result",15.3497735,0.000915666667,0xFF,0x00
"SPI","result",15.3509334,0.000915625,0xFF,0x00
"SPI","result",15.3520932,0.000915666667,0xFF,0x00
"SPI","result",15.3532531,0.000915666667,0xFF,0x00
"SPI","result",15.354413,0.000915666667,0xFF,0x00
"SPI","result",15.3555729,0.000915666667,0xFF,0x00
"SPI","result",15.3567327,0.000915666667,0xFF,0x00
"SPI","result",15.3578926,0.000915666667,0xFF,0x00
"SPI","result",15.3590525,0.000915666667,0xFF,0x00
"SPI","result",15.3603344,0.000915666667,0xFF,0x00
"SPI","result",15.3614943,0.000915666667,0xFF,0x00
"SPI","result",15.3626542,0.000915625,0xFF,0x00
"SPI","result",15.363814,0.000915666667,0xFF,0x00
"SPI","result",15.3649739,0.000915666667,0xFF,0x00
"SPI","result",15.3661337,0.000915666667,0xFF,0x00
"SPI","result",15.3672936,0.000915666667,0xFF,0x00
"SPI","result",15.3684535,0.000915666667,0xFF,0x00
"SPI","result",15.3696133,0.000915666667,0xFF,0x00
"SPI","result",15.3707732,0.000915666667,0xFF,0x00
"SPI","result",15.3719331,0.000915666667,0xFF,0x00
"SPI","result",15.3730929,0.000915666667,0xFF,0x00
"SPI","result",15.3742528,0.000915666667,0xFF,0x00
"SPI","result",15.3754127,0.000915666667,0xFF,0x00
"SPI","result",15.3765725,0.000915666667,0xFF,0x00
"SPI","result",15.3777324,0.000915666667,0xFF,0x00
"SPI","result",15.3788922,0.000915666667,0xFF,0x00
"SPI","result",15.3800521,0.000915666667,0xFF,0x00
"SPI","result",15.381212,0.000915666667,0xFF,0x00
"SPI","result",15.3823719,0.000915666667,0xFF,0x00
"SPI","result",15.3835317,0.000915625,0xFF,0x00
"SPI","result",15.3846916,0.000915666667,0xFF,0x00
"SPI","result",15.3858515,0.000915666667,0xFF,0x00
"SPI","result",15.3870113,0.000915666667,0xFF,0x00
"SPI","result",15.3881712,0.000915666667,0xFF,0x00
"SPI","result",15.389331,0.000915666667,0xFF,0x00
"SPI","result",15.3904909,0.000915666667,0xFF,0x00
"SPI","result",15.3916508,0.000915666667,0xFF,0x00
"SPI","result",15.3928107,0.000915666667,0xFF,0x00
"SPI","result",15.3939705,0.000915666667,0xFF,0x00
"SPI","result",15.3951304,0.000915666667,0xFF,0x00
"SPI","result",15.3962902,0.000915666667,0xFF,0x00
"SPI","result",15.3974501,0.000915666667,0xFF,0x00
"SPI","result",15.39861,0.000915666667,0xFF,0x00
"SPI","result",15.3997698,0.000915666667,0xFF,0x00
"SPI","result",15.4009297,0.000915666667,0xFF,0x00
"SPI","result",15.4020896,0.000915666667,0xFF,0x00
"SPI","result",15.4032495,0.000915666667,0xFF,0x00
"SPI","result",15.4044093,0.000915666667,0xFF,0x00
"SPI","result",15.4055692,0.000915666667,0xFF,0x00
"SPI","result",15.406729,0.000915666667,0xFF,0x00
"SPI","result",15.4078889,0.000915666667,0xFF,0x00
"SPI","result",15.4090488,0.000915625,0xFF,0x00
"SPI","result",15.4102086,0.000915666667,0xFF,0x00
"SPI","result",15.4113685,0.000915666667,0xFF,0x00
"SPI","result",15.4125284,0.000915666667,0xFF,0x00
"SPI","result",15.4136882,0.000915666667,0xFF,0x00
"SPI","result",15.4148481,0.000915666667,0xFF,0x00
"SPI","result",15.416008,0.000915666667,0xFF,0x00
"SPI","result",15.4171678,0.000915666667,0xFF,0x00
"SPI","result",15.4183277,0.000915666667,0xFF,0x00
"SPI","result",15.4194876,0.000915625,0xFF,0x00
"SPI","result",15.4206474,0.000915666667,0xFF,0x00
"SPI","result",15.4218073,0.000915666667,0xFF,0x00
"SPI","result",15.4229672,0.000915666667,0xFF,0x00
"SPI","result",15.424127,0.000915666667,0xFF,0x00
"SPI","result",15.4252869,0.000915666667,0xFF,0x00
"SPI","result",15.4264468,0.000915666667,0xFF,0x00
"SPI","result",15.4276066,0.000915666667,0xFF,0x00
"SPI","result",15.4287665,0.000915666667,0xFF,0x00
"SPI","result",15.4299264,0.000915666667,0xFF,0x00
"SPI","result",15.4310862,0.000915666667,0xFF,0x00
"SPI","result",15.4322461,0.000915666667,0xFF,0x00
"SPI","result",15.433406,0.000915666667,0xFF,0x00
"SPI","result",15.4345658,0.000915666667,0xFF,0x00
"SPI","result",15.4357257,0.000915666667,0xFF,0x00
"SPI","result",15.4368855,0.000915666667,0xFF,0x00
"SPI","result",15.4380454,0.000915666667,0xFF,0x00
"SPI","result",15.4392053,0.000915666667,0xFF,0x00
"SPI","result",15.4403652,0.000915625,0xFF,0x00
"SPI","result",15.441525,0.000915666667,0xFF,0x00
"SPI","result",15.4426849,0.000915666667,0xFF,0x00
"SPI","result",15.4438448,0.000915666667,0xFF,0x00
"SPI","result",15.4450046,0.000915666667,0xFF,0x00
"SPI","result",15.4461645,0.000915666667,0xFF,0x00
"SPI","result",15.4473243,0.000915666667,0xFF,0x00
"SPI","result",15.4484842,0.000915666667,0xFF,0x00
"SPI","result",15.4496441,0.000915666667,0xFF,0x00
"SPI","result",15.450804,0.000915625,0xFF,0x00
"SPI","result",15.4519638,0.000915666667,0xFF,0x00
"SPI","result",15.4531237,0.000915666667,0xFF,0x00
"SPI","result",15.4542835,0.000915666667,0xFF,0x00
"SPI","result",15.4554434,0.000915666667,0xFF,0x00
"SPI","result",15.4566033,0.000915666667,0xFF,0x00
"SPI","result",15.4577631,0.000915666667,0xFF,0x00
"SPI","result",15.458923,0.000915666667,0xFF,0x00
"SPI","result",15.4600829,0.000915666667,0xFF,0x00
"SPI","result",15.4612428,0.000915625,0xFF,0x00
"SPI","result",15.4624026,0.000915666667,0xFF,0x00
"SPI","result",15.4635625,0.000915666667,0xFF,0x00
"SPI","result",15.4647223,0.000915666667,0xF5,0x00
"SPI","result",15.4658822,0.000915666667,0xF0,0x00
"SPI","result",15.4670421,0.000915625,0xFF,0x00
"SPI","result",15.4682019,0.000915666667,0xF0,0x00
"SPI","result",15.4693618,0.000915666667,0xFD,0x00
"SPI","result",15.4705217,0.000915666667,0xF0,0x00
"SPI","result",15.4716815,0.000915625,0xF7,0x00
"SPI","result",15.4728414,0.000915666667,0xF8,0x00
"SPI","result",15.4740013,0.000915666667,0xFF,0x00
"SPI","result",15.4751611,0.000915666667,0xF0,0x00
"SPI","result",15.476321,0.000915666667,0xF7,0x00
"SPI","result",15.4775419,0.000915625,0xF8,0x00
"SPI","result",15.4787018,0.000915666667,0xF3,0x00
"SPI","result",15.4798616,0.000915666667,0xFC,0x00
"SPI","result",15.4810215,0.000915666667,0xF7,0x00
"SPI","result",15.4821814,0.000915666667,0xF8,0x00
"SPI","result",15.4833412,0.000915666667,0x51,0x00
"SPI","result",15.4845011,0.000915666667,0x00,0x00
"SPI","result",15.485661,0.000915666667,0x20,0x00
"SPI","result",15.4868208,0.000915666667,0x00,0x00
"SPI","result",15.4879807,0.000915625,0x54,0x00
"SPI","result",15.4891405,0.000915666667,0x00,0x00
"SPI","result",15.4903004,0.000915666667,0xA8,0x00
"SPI","result",15.4914603,0.000915666667,0x00,0x00
"SPI","result",15.4926202,0.000915666667,0x55,0x00
"SPI","result",15.49378,0.000915666667,0x00,0x00
"SPI","result",15.4949399,0.000915666667,0xAA,0x00
"SPI","result",15.4960998,0.000915666667,0x00,0x00
"SPI","result",15.4972596,0.000915666667,0x55,0x00
"SPI","result",15.4984195,0.000915666667,0x00,0x00
"SPI","result",15.4995793,0.000915666667,0xEA,0x00
"SPI","result",15.5007392,0.000915666667,0x00,0x00
"SPI","result",15.5018991,0.000915666667,0x00,0x00
"SPI","result",15.503059,0.000915666667,0x00,0x00
"SPI","result",15.5042188,0.000915666667,0x00,0x00
"SPI","result",15.5053787,0.000915666667,0x00,0x00
"SPI","result",15.5065385,0.000915666667,0x00,0x00
"SPI","result",15.5076984,0.000915666667,0x00,0x00
"SPI","result",15.5088583,0.000915625,0x00,0x00
"SPI","result",15.5100181,0.000915666667,0x00,0x00
"SPI","result",15.511178,0.000915666667,0x00,0x00
"SPI","result",15.5123379,0.000915666667,0x00,0x00
"SPI","result",15.5134978,0.000915666667,0x00,0x00
"SPI","result",15.5146576,0.000915666667,0x00,0x00
"SPI","result",15.5158175,0.000915666667,0x40,0x00
"SPI","result",15.5169773,0.000915666667,0x00,0x00
"SPI","result",15.5181372,0.000915666667,0x00,0x00
"SPI","result",15.5192971,0.000915625,0x00,0x00
"SPI","result",15.5204569,0.000915666667,0x00,0x00
"SPI","result",15.5216168,0.000915666667,0x00,0x00
"SPI","result",15.5227767,0.000915666667,0x00,0x00
"SPI","result",15.5239365,0.000915666667,0x00,0x00
"SPI","result",15.5250964,0.000915666667,0x00,0x00
"SPI","result",15.5262562,0.000915666667,0x00,0x00
"SPI","result",15.5274161,0.000915666667,0x00,0x00
"SPI","result",15.528576,0.000915666667,0x00,0x00
"SPI","result",15.5297359,0.000915625,0x00,0x00
"SPI","result",15.5308957,0.000915666667,0x00,0x00
"SPI","result",15.5320556,0.000915666667,0x00,0x00
"SPI","result",15.5332155,0.000915666667,0x00,0x00
"SPI","result",15.5343753,0.000915666667,0x00,0x00
"SPI","result",15.5355352,0.000915666667,0x00,0x00
"SPI","result",15.536695,0.000915666667,0x00,0x00
"SPI","result",15.5378549,0.000915666667,0x00,0x00
"SPI","result",15.5390148,0.000915666667,0x00,0x00
"SPI","result",15.5401746,0.000915666667,0x00,0x00
"SPI","result",15.5413345,0.000915666667,0x00,0x00
"SPI","result",15.5424944,0.000915666667,0x00,0x00
"SPI","result",15.5436542,0.000915666667,0x00,0x00
"SPI","result",15.5448141,0.000915666667,0x00,0x00
"SPI","result",15.545974,0.000915666667,0x00,0x00
"SPI","result",15.5471338,0.000915666667,0x00,0x00
"SPI","result",15.5482937,0.000915666667,0x00,0x00
"SPI","result",15.5494536,0.000915666667,0x00,0x00
"SPI","result",15.5506134,0.000915666667,0x00,0x00
"SPI","result",15.5517733,0.000915666667,0x00,0x00
"SPI","result",15.5529332,0.000915666667,0x00,0x00
"SPI","result",15.554093,0.000915666667,0x00,0x00
"SPI","result",15.5552529,0.000915625,0x00,0x00
"SPI","result",15.5564127,0.000915666667,0x00,0x00
"SPI","result",15.5575726,0.000915666667,0x00,0x00
"SPI","result",15.5587325,0.000915666667,0x00,0x00
"SPI","result",15.5598924,0.000915666667,0x00,0x00
"SPI","result",15.5610522,0.000915666667,0x00,0x00
"SPI","result",15.5622121,0.000915666667,0x00,0x00
"SPI","result",15.563372,0.000915666667,0x00,0x00
"SPI","result",15.5645318,0.000915666667,0x00,0x00
"SPI","result",15.5656917,0.000915666667,0x00,0x00
"SPI","result",15.5668515,0.000915666667,0x00,0x00
"SPI","result",15.5680114,0.000915666667,0x00,0x00
"SPI","result",15.5691713,0.000915666667,0x00,0x00
"SPI","result",15.5703312,0.000915666667,0x00,0x00
"SPI","result",15.571491,0.000915666667,0x00,0x00
"SPI","result",15.5726509,0.000915666667,0x00,0x00
"SPI","result",15.5738107,0.000915666667,0x00,0x00
"SPI","result",15.5749706,0.000915666667,0x00,0x00
"SPI","result",15.5761305,0.000915625,0x00,0x00
"SPI","result",15.5772903,0.000915666667,0x00,0x00
"SPI","result",15.5784502,0.000915666667,0x00,0x00
"SPI","result",15.5796101,0.000915666667,0x00,0x00
"SPI","result",15.58077,0.000915666667,0x00,0x00
"SPI","result",15.5819298,0.000915666667,0x00,0x00
"SPI","result",15.5830897,0.000915666667,0x00,0x00
"SPI","result",15.5842495,0.000915666667,0x00,0x00
"SPI","result",15.5854094,0.000915666667,0x00,0x00
"SPI","result",15.5865693,0.000915625,0x00,0x00
"SPI","result",15.5877291,0.000915666667,0x00,0x00
"SPI","result",15.588889,0.000915666667,0x00,0x00
"SPI","result",15.5900489,0.000915666667,0x00,0x00
"SPI","result",15.5912087,0.000915666667,0x00,0x00
"SPI","result",15.5923686,0.000915666667,0x00,0x00
"SPI","result",15.5935285,0.000915666667,0x00,0x00
"SPI","result",15.5947494,0.000915666667,0x00,0x00
"SPI","result",15.5959093,0.000915666667,0x00,0x00
"SPI","result",15.5970691,0.000915666667,0x00,0x00
"SPI","result",15.598229,0.000915666667,0x00,0x00
"SPI","result",15.5993888,0.000915666667,0x00,0x00
"SPI","result",15.6005487,0.000915666667,0x00,0x00
"SPI","result",15.6017086,0.000915666667,0x00,0x00
"SPI","result",15.6028685,0.000915625,0x00,0x00
"SPI","result",15.6040283,0.000915666667,0x00,0x00
"SPI","result",15.6051882,0.000915666667,0x00,0x00
"SPI","result",15.606348,0.000915666667,0x00,0x00
"SPI","result",15.6075079,0.000915666667,0x00,0x00
"SPI","result",15.6086678,0.000915666667,0x00,0x00
"SPI","result",15.6098276,0.000915666667,0x00,0x00
"SPI","result",15.6109875,0.000915666667,0x00,0x00
"SPI","result",15.6121474,0.000915666667,0x00,0x00
"SPI","result",15.6133073,0.000915625,0x00,0x00
"SPI","result",15.6144671,0.000915666667,0x00,0x00
"SPI","result",15.615627,0.000915666667,0x00,0x00
"SPI","result",15.6167868,0.000915666667,0x00,0x00
"SPI","result",15.6179467,0.000915666667,0x00,0x00
"SPI","result",15.6191065,0.000915666667,0x00,0x00
"SPI","result",15.6202664,0.000915666667,0x00,0x00
"SPI","result",15.6214263,0.000915666667,0x00,0x00
"SPI","result",15.6225862,0.000915666667,0x11,0x00
"SPI","result",15.623746,0.000915666667,0x00,0x00
"SPI","result",15.6249059,0.000915666667,0x00,0x00
"SPI","result",15.6260658,0.000915666667,0x00,0x00
"SPI","result",15.6272256,0.000915666667,0x55,0x00
"SPI","result",15.6283855,0.000915708333,0x00,0x00
"SPI","result",15.6295453,0.000915666667,0x02,0x00
"SPI","result",15.6307052,0.000915666667,0x00,0x00
"SPI","result",15.6318651,0.000915666667,0x11,0x00
"SPI","result",15.633025,0.000915666667,0x00,0x00
"SPI","result",15.6341848,0.000915625,0x00,0x00
"SPI","result",15.6353447,0.000915666667,0x00,0x00
"SPI","result",15.6365045,0.000915666667,0x15,0x00
"SPI","result",15.6376644,0.000915666667,0x00,0x00
"SPI","result",15.6388243,0.000915666667,0x00,0x00
"SPI","result",15.6399841,0.000915666667,0x00,0x00
"SPI","result",15.641144,0.000915666667,0x55,0x00
"SPI","result",15.6423039,0.000915666667,0x00,0x00
"SPI","result",15.6434638,0.000915666667,0x23,0x00
"SPI","result",15.6446236,0.000915666667,0x00,0x00
"SPI","result",15.6457835,0.000915666667,0x55,0x00
"SPI","result",15.6469433,0.000915666667,0x00,0x00
"SPI","result",15.6481032,0.000915666667,0xAF,0x00
"SPI","result",15.649263,0.000915708333,0x00,0x00
"SPI","result",15.6504229,0.000915666667,0x55,0x00
"SPI","result",15.6515828,0.000915666667,0x00,0x00
"SPI","result",15.6527427,0.000915666667,0x2B,0x00
"SPI","result",15.6539025,0.000915666667,0x00,0x00
"SPI","result",15.6550624,0.000915625,0x55,0x00
"SPI","result",15.6562223,0.000915666667,0x00,0x00
"SPI","result",15.6573821,0.000915666667,0xAF,0x00
"SPI","result",15.658542,0.000915666667,0x00,0x00
"SPI","result",15.6597019,0.000915666667,0x57,0x00
"SPI","result",15.6608617,0.000915666667,0x00,0x00
"SPI","result",15.6620216,0.000915666667,0xBF,0x00
"SPI","result",15.6631815,0.000915666667,0x00,0x00
"SPI","result",15.6643413,0.000915666667,0x57,0x00
"SPI","result",15.6655012,0.000915666667,0x00,0x00
"SPI","result",15.666661,0.000915666667,0xFF,0x00
"SPI","result",15.6678209,0.000915666667,0x00,0x00
"SPI","result",15.6689808,0.000915666667,0x69,0x00
"SPI","result",15.6701406,0.000915708333,0x17,0x00
"SPI","result",15.6713005,0.000915666667,0xF2,0x00
"SPI","result",15.6724604,0.000915666667,0x0F,0x00
"SPI","result",15.6736203,0.000915666667,0xE9,0x00
"SPI","result",15.6747801,0.000915666667,0x17,0x00
"SPI","result",15.67594,0.000915625,0xF2,0x00
"SPI","result",15.6770998,0.000915666667,0x0F,0x00
"SPI","result",15.6782597,0.000915666667,0x61,0x00
"SPI","result",15.6794196,0.000915666667,0x1F,0x00
"SPI","result",15.6805795,0.000915666667,0xC3,0x00
"SPI","result",15.6817393,0.000915666667,0x3F,0x00
"SPI","result",15.6828992,0.000915666667,0xA5,0x00
"SPI","result",15.684059,0.000915666667,0x5F,0x00
"SPI","result",15.6852189,0.000915666667,0x87,0x00
"SPI","result",15.6863787,0.000915666667,0x7F,0x00
"SPI","result",15.6875386,0.000915666667,0xFF,0x00
"SPI","result",15.6886985,0.000915666667,0xFF,0x00
"SPI","result",15.6898584,0.000915666667,0xFF,0x00
"SPI","result",15.6910183,0.000915666667,0xFF,0x00
"SPI","result",15.6921781,0.000915666667,0xFF,0x00
"SPI","result",15.693338,0.000915666667,0xFF,0x00
"SPI","result",15.6944978,0.000915666667,0xFF,0x00
"SPI","result",15.6956577,0.000915666667,0xFF,0x00
"SPI","result",15.6968176,0.000915625,0xFF,0x00
"SPI","result",15.6979774,0.000915666667,0xFF,0x00
"SPI","result",15.6991373,0.000915666667,0xFF,0x00
"SPI","result",15.7002972,0.000915666667,0xFF,0x00
"SPI","result",15.701457,0.000915666667,0xFF,0x00
"SPI","result",15.7026169,0.000915666667,0xFF,0x00
"SPI","result",15.7037767,0.000915666667,0xFF,0x00
"SPI","result",15.7049366,0.000915666667,0xFF,0x00
"SPI","result",15.7060965,0.000915666667,0xFF,0x00
"SPI","result",15.7072564,0.000915625,0xFF,0x00
"SPI","result",15.7084162,0.000915666667,0xFF,0x00
"SPI","result",15.7095761,0.000915666667,0xFF,0x00
"SPI","result",15.710736,0.000915666667,0xFF,0x00
"SPI","result",15.7119569,0.000915666667,0xFF,0x00
"SPI","result",15.7131167,0.000915666667,0xFF,0x00
"SPI","result",15.7142766,0.000915666667,0xFF,0x00
"SPI","result",15.7154365,0.000915666667,0xFF,0x00
"SPI","result",15.7165963,0.000915666667,0xFF,0x00
"SPI","result",15.7177562,0.000915666667,0xFF,0x00
"SPI","result",15.718916,0.000915666667,0xFF,0x00
"SPI","result",15.7200759,0.000915666667,0xFF,0x00
"SPI","result",15.7212358,0.000915666667,0xFF,0x00
"SPI","result",15.7223957,0.000915666667,0xFF,0x00
"SPI","result",15.7235555,0.000915666667,0xFF,0x00
"SPI","result",15.7247154,0.000915666667,0xFF,0x00
"SPI","result",15.7258752,0.000915666667,0xFF,0x00
"SPI","result",15.7270351,0.000915666667,0xFF,0x00
"SPI","result",15.728195,0.000915666667,0xFF,0x00
"SPI","result",15.7293548,0.000915666667,0xFF,0x00
"SPI","result",15.7305147,0.000915666667,0xFF,0x00
"SPI","result",15.7316746,0.000915666667,0xFF,0x00
"SPI","result",15.7328345,0.000915666667,0xFF,0x00
"SPI","result",15.7339943,0.000915666667,0xFF,0x00
"SPI","result",15.7351542,0.000915666667,0xFF,0x00
"SPI","result",15.736314,0.000915666667,0xFF,0x00
"SPI","result",15.7374739,0.000915666667,0xFF,0x00
"SPI","result",15.7386338,0.000915625,0xFF,0x00
"SPI","result",15.7397936,0.000915666667,0xFF,0x00
"SPI","result",15.7409535,0.000915666667,0xFF,0x00
"SPI","result",15.7421134,0.000915666667,0xFF,0x00
"SPI","result",15.7432732,0.000915666667,0xFF,0x00
"SPI","result",15.7444331,0.000915666667,0xFF,0x00
"SPI","result",15.745593,0.000915666667,0xFF,0x00
"SPI","result",15.7467528,0.000915666667,0xFF,0x00
"SPI","result",15.7479127,0.000915666667,0xFF,0x00
"SPI","result",15.7490726,0.000915666667,0xFF,0x00
"SPI","result",15.7502324,0.000915666667,0xFF,0x00
"SPI","result",15.7513923,0.000915666667,0xFF,0x00
"SPI","result",15.7525522,0.000915666667,0xFF,0x00
"SPI","result",15.753712,0.000915666667,0xFF,0x00
"SPI","result",15.7548719,0.000915666667,0xFF,0x00
"SPI","result",15.7560318,0.000915666667,0xFF,0x00
"SPI","result",15.7571916,0.000915666667,0xFF,0x00
"SPI","result",15.7583515,0.000915666667,0xFF,0x00
"SPI","result",15.7595114,0.000915625,0xFF,0x00
"SPI","result",15.7606712,0.000915666667,0xFF,0x00
"SPI","result",15.76177,0.000915666667,0x5A,0x00
"SPI","result",15.7628689,0.000915666667,0x34,0x00
"SPI","result",15.7639677,0.000915666667,0x00,0x81
"SPI","result",15.7650665,0.000915666667,0x00,0x08
"SPI","result",15.7960777,0.000915666667,0x88,0x00
"SPI","result",15.7971765,0.000915666667,0x33,0x00
"SPI","result",15.7983363,0.000915666667,0x0F,0x00
"SPI","result",15.7994962,0.000915666667,0x00,0x00
"SPI","result",15.8006561,0.000915666667,0x00,0x00
"SPI","result",15.8018159,0.000915666667,0x00,0x00
"SPI","result",15.8029758,0.000915666667,0x0F,0x00
"SPI","result",15.8041357,0.000915666667,0x00,0x00
"SPI","result",15.8052955,0.000915666667,0x00,0x81
"SPI","result",15.8064554,0.000915666667,0x00,0x00
"SPI","result",15.8164058,0.000915666667,0x88,0x00
"SPI","result",15.8175046,0.000915666667,0x33,0x00
"SPI","result",15.8186645,0.000915666667,0x04,0x00
"SPI","result",15.8198244,0.000915666667,0x00,0x00
"SPI","result",15.8209842,0.000915666667,0x80,0x00
"SPI","result",15.8221441,0.000915625,0x02,0x00
"SPI","result",15.823304,0.000915666667,0xFF,0x00
"SPI","result",15.8244638,0.000915666667,0xFF,0x00
"SPI","result",15.8256237,0.000915666667,0xFF,0x00
"SPI","result",15.8267836,0.000915666667,0xFF,0x00
"SPI","result",15.8279434,0.000915666667,0xFF,0x00
"SPI","result",15.8291643,0.000915666667,0xFF,0x00
"SPI","result",15.8303242,0.000915666667,0xFF,0x00
"SPI","result",15.8314841,0.000915666667,0xFF,0x00
"SPI","result",15.832644,0.000915666667,0xFF,0x00
"SPI","result",15.8338038,0.000915666667,0xFF,0x00
"SPI","result",15.8349637,0.000915666667,0xFF,0x00
"SPI","result",15.8361235,0.000915666667,0xFF,0x00
"SPI","result",15.8372834,0.000915666667,0xFF,0x00
"SPI","result",15.8384433,0.000915625,0xFF,0x00
"SPI","result",15.8396031,0.000915666667,0xFF,0x00
"SPI","result",15.840763,0.000915666667,0xFF,0x00
"SPI","result",15.8419229,0.000915666667,0xFF,0x00
"SPI","result",15.8430828,0.000915666667,0xFF,0x00
"SPI","result",15.8442426,0.000915666667,0xFF,0x00
"SPI","result",15.8454025,0.000915666667,0xFF,0x00
"SPI","result",15.8465623,0.000915666667,0xFF,0x00
"SPI","result",15.8477222,0.000915666667,0xFF,0x00
"SPI","result",15.8488821,0.000915625,0xFF,0x00
"SPI","result",15.8500419,0.000915666667,0xFF,0x00
"SPI","result",15.8512018,0.000915666667,0xFF,0x00
"SPI","result",15.8523617,0.000915666667,0xFF,0x00
"SPI","result",15.8535215,0.000915666667,0xFF,0x00
"SPI","result",15.8546814,0.000915666667,0xFF,0x00
"SPI","result",15.8558412,0.000915666667,0xFF,0x00
"SPI","result",15.8570011,0.000915666667,0xFF,0x00
"SPI","result",15.858161,0.000915666667,0xFF,0x00
"SPI","result",15.8593209,0.000915625,0xFF,0x00
"SPI","result",15.8604807,0.000915666667,0xFF,0x00
"SPI","result",15.8616406,0.000915666667,0xFF,0x00
"SPI","result",15.8628005,0.000915666667,0xFF,0x00
"SPI","result",15.8639603,0.000915666667,0xFF,0x00
"SPI","result",15.8651202,0.000915666667,0xFF,0x00
"SPI","result",15.86628,0.000915666667,0xFF,0x00
"SPI","result",15.8674399,0.000915666667,0xFF,0x00
"SPI","result",15.8685998,0.000915666667,0xFF,0x00
"SPI","result",15.8697596,0.000915666667,0xFF,0x00
"SPI","result",15.8709195,0.000915666667,0xFF,0x00
"SPI","result",15.8720794,0.000915666667,0xFF,0x00
"SPI","result",15.8732392,0.000915666667,0xFF,0x00
"SPI","result",15.8743991,0.000915666667,0xFF,0x00
"SPI","result",15.875559,0.000915666667,0xFF,0x00
"SPI","result",15.8767188,0.000915666667,0xFF,0x00
"SPI","result",15.8778787,0.000915666667,0xFF,0x00
"SPI","result",15.8790386,0.000915666667,0xFF,0x00
"SPI","result",15.8801984,0.000915666667,0xFF,0x00
"SPI","result",15.8813583,0.000915666667,0xFF,0x00
"SPI","result",15.8825182,0.000915666667,0xFF,0x00
"SPI","result",15.883678,0.000915666667,0xFF,0x00
"SPI","result",15.8848379,0.000915625,0xFF,0x00
"SPI","result",15.8859977,0.000915666667,0xFF,0x00
"SPI","result",15.8871576,0.000915666667,0xFF,0x00
"SPI","result",15.8883175,0.000915666667,0xFF,0x00
"SPI","result",15.8894774,0.000915666667,0xFF,0x00
"SPI","result",15.8906372,0.000915666667,0xFF,0x00
"SPI","result",15.8917971,0.000915666667,0xFF,0x00
"SPI","result",15.892957,0.000915666667,0xFF,0x00
"SPI","result",15.8941168,0.000915666667,0xFF,0x00
"SPI","result",15.8952767,0.000915666667,0xFF,0x00
"SPI","result",15.8964365,0.000915666667,0xFF,0x00
"SPI","result",15.8975964,0.000915666667,0xFB,0x00
"SPI","result",15.8987563,0.000915666667,0xFC,0x00
"SPI","result",15.8999162,0.000915666667,0xFF,0x00
"SPI","result",15.901076,0.000915666667,0xF8,0x00
"SPI","result",15.9022359,0.000915666667,0xFF,0x00
"SPI","result",15.9033957,0.000915666667,0xFC,0x00
"SPI","result",15.9045556,0.000915666667,0xFD,0x00
"SPI","result",15.9057155,0.000915625,0xFE,0x00
"SPI","result",15.9068754,0.000915625,0xFC,0x00
"SPI","result",15.9080352,0.000915666667,0xFF,0x00
"SPI","result",15.9091951,0.000915666667,0xFC,0x00
"SPI","result",15.910355,0.000915666667,0xFF,0x00
"SPI","result",15.9115148,0.000915666667,0xFD,0x00
"SPI","result",15.9126747,0.000915666667,0xFF,0x00
"SPI","result",15.9138345,0.000915666667,0xFF,0x00
"SPI","result",15.9149944,0.000915666667,0xFF,0x00
"SPI","result",15.9161542,0.000915708333,0x55,0x00
"SPI","result",15.9173141,0.000915666667,0x00,0x00
"SPI","result",15.918474,0.000915666667,0xFA,0x00
"SPI","result",15.9196339,0.000915666667,0x00,0x00
"SPI","result",15.9207937,0.000915666667,0x55,0x00
"SPI","result",15.9219536,0.000915666667,0x00,0x00
"SPI","result",15.9231135,0.000915666667,0xFF,0x00
"SPI","result",15.9242733,0.000915666667,0x00,0x00
"SPI","result",15.9254332,0.000915666667,0xB7,0x00
"SPI","result",15.926593,0.000915666667,0x40,0x00
"SPI","result",15.927753,0.000915625,0xFF,0x00
"SPI","result",15.9289128,0.000915666667,0x03,0x00
"SPI","result",15.9300727,0.000915666667,0xBF,0x00
"SPI","result",15.9312325,0.000915666667,0x47,0x00
"SPI","result",15.9323924,0.000915666667,0x1F,0x00
"SPI","result",15.9335522,0.000915666667,0xE7,0x00
"SPI","result",15.9347121,0.000915666667,0x51,0x00
"SPI","result",15.935872,0.000915666667,0x00,0x00
"SPI","result",15.9370319,0.000915625,0x00,0x00
"SPI","result",15.9381917,0.000915666667,0x00,0x00
"SPI","result",15.9393516,0.000915666667,0x55,0x00
"SPI","result",15.9405115,0.000915666667,0x00,0x00
"SPI","result",15.9416713,0.000915666667,0xA8,0x00
"SPI","result",15.9428312,0.000915666667,0x00,0x00
"SPI","result",15.943991,0.000915666667,0x55,0x00
"SPI","result",15.9451509,0.000915666667,0x00,0x00
"SPI","result",15.9464329,0.000915666667,0x7A,0x00
"SPI","result",15.9475928,0.000915666667,0x80,0x00
"SPI","result",15.9487526,0.000915625,0xD5,0x00
"SPI","result",15.9499125,0.000915666667,0xC0,0x00
"SPI","result",15.9510723,0.000915666667,0xFE,0x00
"SPI","result",15.9522322,0.000915666667,0xE0,0x00
"SPI","result",15.9533921,0.000915666667,0x10,0x00
"SPI","result",15.9545519,0.000915666667,0x00,0x00
"SPI","result",15.9557118,0.000915666667,0x00,0x00
"SPI","result",15.9568717,0.000915666667,0x00,0x00
"SPI","result",15.9580315,0.000915666667,0x54,0x00
"SPI","result",15.9591914,0.000915625,0x00,0x00
"SPI","result",15.9603513,0.000915666667,0x00,0x00
"SPI","result",15.9615111,0.000915666667,0x00,0x00
"SPI","result",15.962671,0.000915666667,0x55,0x00
"SPI","result",15.9638308,0.000915708333,0x00,0x00
"SPI","result",15.9649907,0.000915666667,0x22,0x00
"SPI","result",15.9661506,0.000915666667,0x00,0x00
"SPI","result",15.9673105,0.000915666667,0x55,0x00
"SPI","result",15.9684703,0.000915666667,0x00,0x00
"SPI","result",15.9696302,0.000915625,0xAA,0x00
"SPI","result",15.97079,0.000915666667,0x00,0x00
"SPI","result",15.9719499,0.000915666667,0x00,0x00
"SPI","result",15.9731098,0.000915666667,0x00,0x00
"SPI","result",15.9742697,0.000915666667,0x00,0x00
"SPI","result",15.9754295,0.000915666667,0x00,0x00
"SPI","result",15.9765894,0.000915666667,0x05,0x00
"SPI","result",15.9777493,0.000915666667,0x00,0x00
"SPI","result",15.9789091,0.000915666667,0x00,0x00
"SPI","result",15.980069,0.000915625,0x00,0x00
"SPI","result",15.9812288,0.000915666667,0x15,0x00
"SPI","result",15.9823887,0.000915666667,0x00,0x00
"SPI","result",15.9835486,0.000915666667,0x22,0x00
"SPI","result",15.9847085,0.000915666667,0x00,0x00
"SPI","result",15.9858683,0.000915666667,0x55,0x00
"SPI","result",15.9870282,0.000915666667,0x00,0x00
"SPI","result",15.988188,0.000915666667,0xA8,0x00
"SPI","result",15.9893479,0.000915666667,0x00,0x00
"SPI","result",15.9905078,0.000915625,0x11,0x00
"SPI","result",15.9916676,0.000915666667,0x00,0x00
"SPI","result",15.9928275,0.000915666667,0x00,0x00
"SPI","result",15.9939874,0.000915666667,0x00,0x00
"SPI","result",15.9951473,0.000915666667,0x55,0x00
"SPI","result",15.9963071,0.000915666667,0x00,0x00
"SPI","result",15.997467,0.000915666667,0x00,0x00
"SPI","result",15.9986268,0.000915666667,0x00,0x00
"SPI","result",15.9997867,0.000915666667,0x55,0x00
"SPI","result",16.0009465,0.000915666667,0x00,0x00
"SPI","result",16.0021064,0.000915666667,0x22,0x00
"SPI","result",16.0032663,0.000915666667,0x00,0x00
"SPI","result",16.0044262,0.000915666667,0x55,0x00
"SPI","result",16.005586,0.000915708333,0x00,0x00
"SPI","result",16.0067459,0.000915625,0xAA,0x00
"SPI","result",16.0079057,0.000915666667,0x00,0x00
"SPI","result",16.0090656,0.000915666667,0x11,0x00
"SPI","result",16.0102255,0.000915666667,0x00,0x00
"SPI","result",16.0113854,0.000915625,0x00,0x00
"SPI","result",16.0125452,0.000915666667,0x00,0x00
"SPI","result",16.0137051,0.000915666667,0x55,0x00
"SPI","result",16.014865,0.000915666667,0x00,0x00
"SPI","result",16.0160248,0.000915666667,0x00,0x00
"SPI","result",16.0171847,0.000915666667,0x00,0x00
"SPI","result",16.0183445,0.000915666667,0x55,0x00
"SPI","result",16.0195044,0.000915666667,0x00,0x00
"SPI","result",16.0206643,0.000915666667,0x22,0x00
"SPI","result",16.0218241,0.000915666667,0x00,0x00
"SPI","result",16.022984,0.000915666667,0x55,0x00
"SPI","result",16.0241439,0.000915666667,0x00,0x00
"SPI","result",16.0253037,0.000915666667,0xAA,0x00
"SPI","result",16.0264636,0.000915666667,0x00,0x00
"SPI","result",16.0276235,0.000915666667,0x11,0x00
"SPI","result",16.0287833,0.000915666667,0x00,0x00
"SPI","result",16.0299432,0.000915666667,0x00,0x00
"SPI","result",16.0311031,0.000915666667,0x00,0x00
"SPI","result",16.0322629,0.000915666667,0x55,0x00
"SPI","result",16.0334228,0.000915666667,0x00,0x00
"SPI","result",16.0345827,0.000915666667,0xAA,0x00
"SPI","result",16.0357425,0.000915666667,0x00,0x00
"SPI","result",16.0369024,0.000915625,0x55,0x00
"SPI","result",16.0380622,0.000915666667,0x00,0x00
"SPI","result",16.0392221,0.000915666667,0x2B,0x00
"SPI","result",16.040382,0.000915666667,0x00,0x00
"SPI","result",16.0415419,0.000915666667,0x55,0x00
"SPI","result",16.0427017,0.000915666667,0x00,0x00
"SPI","result",16.0438616,0.000915666667,0xAF,0x00
"SPI","result",16.0450215,0.000915666667,0x00,0x00
"SPI","result",16.0461813,0.000915666667,0x55,0x00
"SPI","result",16.0473412,0.000915708333,0x00,0x00
"SPI","result",16.048501,0.000915666667,0x2B,0x00
"SPI","result",16.0496609,0.000915666667,0x00,0x00
"SPI","result",16.0508208,0.000915666667,0x55,0x00
"SPI","result",16.0519806,0.000915708333,0x00,0x00
"SPI","result",16.0531405,0.000915625,0xAF,0x00
"SPI","result",16.0543004,0.000915666667,0x01,0x00
"SPI","result",16.0554602,0.000915666667,0x57,0x00
"SPI","result",16.0566201,0.000915666667,0x03,0x00
"SPI","result",16.05778,0.000915625,0xBF,0x00
"SPI","result",16.0589398,0.000915666667,0x03,0x00
"SPI","result",16.0600997,0.000915666667,0x57,0x00
"SPI","result",16.0612596,0.000915666667,0x03,0x00
"SPI","result",16.0624195,0.000915666667,0xFF,0x00
"SPI","result",16.0636403,0.000915666667,0x03,0x00
"SPI","result",16.0648002,0.000915666667,0x55,0x00
"SPI","result",16.0659601,0.000915666667,0x00,0x00
"SPI","result",16.06712,0.000915666667,0xEF,0x00
"SPI","result",16.0682798,0.000915708333,0x30,0x00
"SPI","result",16.0694397,0.000915625,0xFD,0x00
"SPI","result",16.0705995,0.000915666667,0xFC,0x00
"SPI","result",16.0717594,0.000915666667,0xFF,0x00
"SPI","result",16.0729193,0.000915666667,0xFC,0x00
"SPI","result",16.0740792,0.000915625,0xFD,0x00
"SPI","result",16.075239,0.000915666667,0xFE,0x00
"SPI","result",16.0763989,0.000915666667,0xFF,0x00
"SPI","result",16.0775588,0.000915666667,0xFE,0x00
"SPI","result",16.0787186,0.000915666667,0xFF,0x00
"SPI","result",16.0798785,0.000915666667,0xFE,0x00
"SPI","result",16.0810383,0.000915666667,0xFF,0x00
"SPI","result",16.0821982,0.000915666667,0xFE,0x00
"SPI","result",16.0833581,0.000915666667,0x76,0x00
"SPI","result",16.084518,0.000915625,0x01,0x00
"SPI","result",16.0856778,0.000915666667,0xFD,0x00
"SPI","result",16.0868377,0.000915666667,0x02,0x00
"SPI","result",16.0879975,0.000915666667,0xDA,0x00
"SPI","result",16.0891574,0.000915666667,0x05,0x00
"SPI","result",16.0903172,0.000915666667,0xF4,0x00
"SPI","result",16.0914771,0.000915666667,0x0B,0x00
"SPI","result",16.092637,0.000915666667,0xE9,0x00
"SPI","result",16.0937969,0.000915666667,0x17,0x00
"SPI","result",16.0949568,0.000915625,0xC2,0x00
"SPI","result",16.0961166,0.000915666667,0x3F,0x00
"SPI","result",16.0972765,0.000915666667,0xA9,0x00
"SPI","result",16.0984363,0.000915666667,0x57,0x00
"SPI","result",16.0995962,0.000915708333,0x42,0x00
"SPI","result",16.1007561,0.000915625,0xBF,0x00
"SPI","result",16.1019159,0.000915666667,0x97,0x00
"SPI","result",16.1030758,0.000915666667,0x7F,0x00
"SPI","result",16.1042357,0.000915666667,0x0B,0x00
"SPI","result",16.1053955,0.000915625,0xFF,0x00
"SPI","result",16.1065554,0.000915666667,0x17,0x00
"SPI","result",16.1077152,0.000915666667,0xFF,0x00
"SPI","result",16.1088751,0.000915666667,0x6F,0x00
"SPI","result",16.110035,0.000915666667,0xFF,0x00
"SPI","result",16.1111948,0.000915666667,0x7F,0x00
"SPI","result",16.1123547,0.000915666667,0xFF,0x00
"SPI","result",16.1135146,0.000915666667,0xFF,0x00
"SPI","result",16.1146745,0.000915666667,0xFF,0x00
"SPI","result",16.1158343,0.000915625,0xFF,0x00
"SPI","result",16.1169942,0.000915666667,0xFF,0x00
"SPI","result",16.118154,0.000915666667,0xFF,0x00
"SPI","result",16.1193139,0.000915666667,0xFF,0x00
"SPI","result",16.1204738,0.000915666667,0xFF,0x00
"SPI","result",16.1216336,0.000915666667,0xFF,0x00
"SPI","result",16.1227935,0.000915666667,0xFF,0x00
"SPI","result",16.1239534,0.000915666667,0xFF,0x00
"SPI","result",16.1251132,0.000915666667,0xFF,0x00
"SPI","result",16.1262731,0.000915625,0xFF,0x00
"SPI","result",16.127433,0.000915666667,0xFF,0x00
"SPI","result",16.1285928,0.000915666667,0xFF,0x00
"SPI","result",16.1297527,0.000915666667,0xFF,0x00
"SPI","result",16.1309126,0.000915666667,0xFF,0x00
"SPI","result",16.1320724,0.000915666667,0xFF,0x00
"SPI","result",16.1332323,0.000915666667,0xFF,0x00
"SPI","result",16.1343922,0.000915666667,0xFF,0x00
"SPI","result",16.135552,0.000915666667,0xFF,0x00
"SPI","result",16.1367119,0.000915666667,0xFF,0x00
"SPI","result",16.1378717,0.000915666667,0xFF,0x00
"SPI","result",16.1390316,0.000915666667,0xFF,0x00
"SPI","result",16.1401915,0.000915666667,0xFF,0x00
"SPI","result",16.1413514,0.000915666667,0xFF,0x00
"SPI","result",16.1425112,0.000915666667,0xFF,0x00
"SPI","result",16.1436711,0.000915666667,0xFF,0x00
"SPI","result",16.144831,0.000915666667,0xFF,0x00
"SPI","result",16.1459908,0.000915666667,0xFF,0x00
"SPI","result",16.1471507,0.000915666667,0xFF,0x00
"SPI","result",16.1483105,0.000915666667,0xFF,0x00
"SPI","result",16.1494704,0.000915666667,0xFF,0x00
"SPI","result",16.1506303,0.000915666667,0xFF,0x00
"SPI","result",16.1517902,0.000915666667,0xFF,0x00
"SPI","result",16.15295,0.000915666667,0xFF,0x00
"SPI","result",16.1541099,0.000915666667,0xFF,0x00
"SPI","result",16.1552697,0.000915666667,0xFF,0x00
"SPI","result",16.1564296,0.000915666667,0xFF,0x00
"SPI","result",16.1575895,0.000915666667,0xFF,0x00
"SPI","result",16.1587493,0.000915666667,0xFF,0x00
"SPI","result",16.1599092,0.000915666667,0xFF,0x00
"SPI","result",16.1610691,0.000915666667,0xFF,0x00
"SPI","result",16.162229,0.000915625,0xFF,0x00
"SPI","result",16.1633888,0.000915666667,0xFF,0x00
"SPI","result",16.1645487,0.000915666667,0xFF,0x00
"SPI","result",16.1657085,0.000915666667,0xFF,0x00
"SPI","result",16.1668684,0.000915666667,0xFF,0x00
"SPI","result",16.1680282,0.000915666667,0xFF,0x00
"SPI","result",16.1691881,0.000915666667,0xFF,0x00
"SPI","result",16.170348,0.000915666667,0xFF,0x00
"SPI","result",16.1715079,0.000915666667,0xFF,0x00
"SPI","result",16.1726677,0.000915625,0xFF,0x00
"SPI","result",16.1738276,0.000915666667,0xFF,0x00
"SPI","result",16.1749875,0.000915666667,0xFF,0x00
"SPI","result",16.1761473,0.000915666667,0xFF,0x00
"SPI","result",16.1773072,0.000915666667,0xFF,0x00
"SPI","result",16.178467,0.000915666667,0xFF,0x00
"SPI","result",16.1796269,0.000915666667,0xFF,0x00
"SPI","result",16.1808478,0.000915666667,0xFF,0x00
"SPI","result",16.1820077,0.000915666667,0xFF,0x00
"SPI","result",16.1831676,0.000915666667,0xFF,0x00
"SPI","result",16.1843274,0.000915666667,0xFF,0x00
"SPI","result",16.1854873,0.000915666667,0xFF,0x00
"SPI","result",16.1866472,0.000915666667,0xFF,0x00
"SPI","result",16.187807,0.000915666667,0xFF,0x00
"SPI","result",16.1889669,0.000915625,0xFF,0x00
"SPI","result",16.1901268,0.000915666667,0xFF,0x00
"SPI","result",16.1912866,0.000915666667,0xFF,0x00
"SPI","result",16.1924465,0.000915666667,0xFF,0x00
"SPI","result",16.1936064,0.000915666667,0xFF,0x00
"SPI","result",16.1947662,0.000915666667,0xFF,0x00
"SPI","result",16.1959261,0.000915666667,0xFF,0x00
"SPI","result",16.197086,0.000915666667,0xFF,0x00
"SPI","result",16.1982458,0.000915666667,0xFF,0x00
"SPI","result",16.1994057,0.000915625,0xFF,0x00
"SPI","result",16.2005655,0.000915666667,0xFF,0x00
"SPI","result",16.2017254,0.000915666667,0xFF,0x00
"SPI","result",16.2028853,0.000915666667,0xFF,0x00
"SPI","result",16.2040452,0.000915666667,0xFF,0x00
"SPI","result",16.205205,0.000915666667,0xFF,0x00
"SPI","result",16.2063649,0.000915666667,0xFF,0x00
"SPI","result",16.2075248,0.000915666667,0xFF,0x00
"SPI","result",16.2086846,0.000915666667,0xFF,0x00
"SPI","result",16.2098445,0.000915625,0xFF,0x00
"SPI","result",16.2110043,0.000915666667,0xFF,0x00
"SPI","result",16.2121642,0.000915666667,0xFF,0x00
"SPI","result",16.2133241,0.000915666667,0xFF,0x00
"SPI","result",16.214484,0.000915666667,0xFF,0x00
"SPI","result",16.2156438,0.000915666667,0xFF,0x00
"SPI","result",16.2168037,0.000915666667,0xFF,0x00
"SPI","result",16.2179635,0.000915666667,0xFF,0x00
"SPI","result",16.2191234,0.000915666667,0xFF,0x00
"SPI","result",16.2202833,0.000915625,0xFF,0x00
"SPI","result",16.2214431,0.000915666667,0xFF,0x00
"SPI","result",16.222603,0.000915666667,0xFF,0x00
"SPI","result",16.2237629,0.000915666667,0xFF,0x00
"SPI","result",16.2249228,0.000915666667,0xFF,0x00
"SPI","result",16.2260826,0.000915666667,0xFF,0x00
"SPI","result",16.2272425,0.000915666667,0xFF,0x00
"SPI","result",16.2284023,0.000915666667,0xFF,0x00
"SPI","result",16.2295622,0.000915666667,0xFF,0x00
"SPI","result",16.2307221,0.000915625,0xFF,0x00
"SPI","result",16.2318819,0.000915666667,0xFF,0x00
"SPI","result",16.2330418,0.000915666667,0xFF,0x00
"SPI","result",16.2342017,0.000915666667,0xFF,0x00
"SPI","result",16.2353615,0.000915666667,0xFF,0x00
"SPI","result",16.2365214,0.000915666667,0xFF,0x00
"SPI","result",16.2376813,0.000915666667,0xFF,0x00
"SPI","result",16.2388411,0.000915666667,0xFF,0x00
"SPI","result",16.240001,0.000915666667,0xFF,0x00
"SPI","result",16.2411609,0.000915625,0xFF,0x00
"SPI","result",16.2423207,0.000915666667,0xFF,0x00
"SPI","result",16.2434806,0.000915666667,0xFF,0x00
"SPI","result",16.2446405,0.000915666667,0xFF,0x00
"SPI","result",16.2458003,0.000915666667,0xFF,0x00
"SPI","result",16.2469602,0.000915666667,0xFF,0x00
"SPI","result",16.24812,0.000915666667,0xFF,0x00
"SPI","result",16.2492799,0.000915666667,0xFF,0x00
"SPI","result",16.2504398,0.000915666667,0xFF,0x00
"SPI","result",16.2515997,0.000915625,0xFF,0x00
"SPI","result",16.2527595,0.000915666667,0xFF,0x00
"SPI","result",16.2539194,0.000915666667,0xFF,0x00
"SPI","result",16.2550793,0.000915666667,0xFF,0x00
"SPI","result",16.2562391,0.000915666667,0xFF,0x00
"SPI","result",16.257399,0.000915666667,0xFF,0x00
"SPI","result",16.2585588,0.000915666667,0xFF,0x00
"SPI","result",16.2597187,0.000915666667,0xFF,0x00
"SPI","result",16.2608786,0.000915666667,0xFF,0x00
"SPI","result",16.2620385,0.000915625,0xFF,0x00
"SPI","result",16.2631983,0.000915666667,0xFF,0x00
"SPI","result",16.2643582,0.000915666667,0xFF,0x00
"SPI","result",16.265518,0.000915666667,0xFF,0x00
"SPI","result",16.2666779,0.000915666667,0xFF,0x00
"SPI","result",16.2678378,0.000915666667,0xFF,0x00
"SPI","result",16.2689976,0.000915666667,0xFF,0x00
"SPI","result",16.2701575,0.000915666667,0xFF,0x00
"SPI","result",16.2713174,0.000915666667,0xFF,0x00
"SPI","result",16.2724773,0.000915625,0xFF,0x00
"SPI","result",16.2736371,0.000915666667,0xFF,0x00
"SPI","result",16.274797,0.000915666667,0xFF,0x00
"SPI","result",16.2759568,0.000915666667,0xFF,0x00
"SPI","result",16.2771167,0.000915666667,0xFF,0x00
"SPI","result",16.2782765,0.000915666667,0xFF,0x00
"SPI","result",16.2794364,0.000915666667,0xFF,0x00
"SPI","result",16.2805963,0.000915666667,0xFF,0x00
"SPI","result",16.2817562,0.000915666667,0xFF,0x00
"SPI","result",16.282916,0.000915625,0xFF,0x00
"SPI","result",16.2840759,0.000915666667,0xFF,0x00
"SPI","result",16.2852357,0.000915666667,0xFF,0x00
"SPI","result",16.2863956,0.000915666667,0xFF,0x00
"SPI","result",16.2875555,0.000915708333,0x6F,0x00
"SPI","result",16.2887153,0.000915666667,0xD7,0x00
"SPI","result",16.2898752,0.000915666667,0xC3,0x00
"SPI","result",16.2910351,0.000915666667,0xFF,0x00
"SPI","result",16.292195,0.000915666667,0xDB,0x00
"SPI","result",16.2933548,0.000915666667,0xF7,0x00
"SPI","result",16.2945147,0.000915666667,0xE1,0x00
"SPI","result",16.2956745,0.000915666667,0xFF,0x00
"SPI","result",16.2968344,0.000915666667,0xF7,0x00
"SPI","result",16.2980553,0.000915666667,0xFD,0x00
"SPI","result",16.2992152,0.000915666667,0xFF,0x00
"SPI","result",16.300375,0.000915666667,0xFC,0x00
"SPI","result",16.3015349,0.000915666667,0xFF,0x00
"SPI","result",16.3026948,0.000915666667,0xFE,0x00
"SPI","result",16.3038547,0.000915625,0xFF,0x00
"SPI","result",16.3050145,0.000915666667,0xFF,0x00
"SPI","result",16.3061744,0.000915666667,0xE5,0x00
"SPI","result",16.3073343,0.000915666667,0xF0,0x00
"SPI","result",16.3084941,0.000915666667,0xFF,0x00
"SPI","result",16.309654,0.000915666667,0xF0,0x00
"SPI","result",16.3108138,0.000915666667,0xFD,0x00
"SPI","result",16.3119737,0.000915666667,0xF0,0x00
"SPI","result",16.3131336,0.000915666667,0xF7,0x00
"SPI","result",16.3142935,0.000915625,0xF8,0x00
"SPI","result",16.3154533,0.000915625,0xFA,0x00
"SPI","result",16.3166132,0.000915666667,0xFD,0x00
"SPI","result",16.317773,0.000915666667,0xF8,0x00
"SPI","result",16.3189329,0.000915666667,0xFF,0x00
"SPI","result",16.3200928,0.000915666667,0x7A,0x00
"SPI","result",16.3212526,0.000915666667,0x7D,0x00
"SPI","result",16.3224125,0.000915666667,0x38,0x00
"SPI","result",16.3235724,0.000915666667,0x37,0x00
"SPI","result",16.3247322,0.000915666667,0x55,0x00
"SPI","result",16.3258921,0.000915666667,0x00,0x00
"SPI","result",16.327052,0.000915666667,0xBA,0x00
"SPI","result",16.3282118,0.000915666667,0x00,0x00
"SPI","result",16.3293717,0.000915666667,0x55,0x00
"SPI","result",16.3305315,0.000915666667,0x00,0x00
"SPI","result",16.3316914,0.000915666667,0xFE,0x00
"SPI","result",16.3328513,0.000915666667,0x00,0x00
"SPI","result",16.3340112,0.000915666667,0xF7,0x00
"SPI","result",16.335171,0.000915666667,0x00,0x00
"SPI","result",16.3363309,0.000915666667,0xFF,0x00
"SPI","result",16.3374908,0.000915666667,0x00,0x00
"SPI","result",16.3386506,0.000915666667,0xAB,0x00
"SPI","result",16.3398105,0.000915708333,0x54,0x00
"SPI","result",16.3409703,0.000915666667,0x01,0x00
"SPI","result",16.3421302,0.000915666667,0xFE,0x00
"SPI","result",16.3432901,0.000915666667,0x55,0x00
"SPI","result",16.34445,0.000915666667,0x00,0x00
"SPI","result",16.3456098,0.000915625,0xBB,0x00
"SPI","result",16.3467697,0.000915666667,0x00,0x00
"SPI","result",16.3479295,0.000915666667,0x55,0x00
"SPI","result",16.3490894,0.000915666667,0x00,0x00
"SPI","result",16.3502493,0.000915666667,0xFF,0x00
"SPI","result",16.3514091,0.000915666667,0x00,0x00
"SPI","result",16.352569,0.000915666667,0x55,0x00
"SPI","result",16.3537289,0.000915666667,0x00,0x00
"SPI","result",16.3548888,0.000915666667,0xFF,0x00
"SPI","result",16.3560486,0.000915666667,0x00,0x00
"SPI","result",16.3572085,0.000915666667,0xFD,0x00
"SPI","result",16.3583683,0.000915666667,0x00,0x00
"SPI","result",16.3595282,0.000915666667,0xFF,0x00
"SPI","result",16.360688,0.000915708333,0x00,0x00
"SPI","result",16.3618479,0.000915666667,0x55,0x00
"SPI","result",16.3630078,0.000915666667,0x00,0x00
"SPI","result",16.3641677,0.000915666667,0xBB,0x00
"SPI","result",16.3653275,0.000915666667,0x00,0x00
"SPI","result",16.3664874,0.000915625,0x55,0x00
"SPI","result",16.3676473,0.000915666667,0x00,0x00
"SPI","result",16.3688071,0.000915666667,0xFF,0x00
"SPI","result",16.369967,0.000915666667,0x00,0x00
"SPI","result",16.3711269,0.000915666667,0x55,0x00
"SPI","result",16.3722867,0.000915666667,0x00,0x00
"SPI","result",16.3734466,0.000915666667,0xBF,0x00
"SPI","result",16.3746065,0.000915666667,0x00,0x00
"SPI","result",16.3757663,0.000915666667,0x55,0x00
"SPI","result",16.3769262,0.000915666667,0x00,0x00
"SPI","result",16.378086,0.000915666667,0x81,0x00
"SPI","result",16.3792459,0.000915666667,0x00,0x00
"SPI","result",16.3804058,0.000915666667,0x55,0x00
"SPI","result",16.3815656,0.000915708333,0x00,0x00
"SPI","result",16.3827255,0.000915625,0xBB,0x00
"SPI","result",16.3838854,0.000915666667,0x00,0x00
"SPI","result",16.3850452,0.000915666667,0x55,0x00
"SPI","result",16.3862051,0.000915666667,0x00,0x00
"SPI","result",16.387365,0.000915625,0xFF,0x00
"SPI","result",16.3885248,0.000915666667,0x00,0x00
"SPI","result",16.3896847,0.000915666667,0x77,0x00
"SPI","result",16.3908446,0.000915666667,0x00,0x00
"SPI","result",16.3920045,0.000915666667,0xFF,0x00
"SPI","result",16.3931643,0.000915666667,0x00,0x00
"SPI","result",16.3943242,0.000915666667,0xFF,0x00
"SPI","result",16.395484,0.000915666667,0x00,0x00
"SPI","result",16.3966439,0.000915666667,0xFF,0x00
"SPI","result",16.3978038,0.000915666667,0x00,0x00
"SPI","result",16.3989636,0.000915666667,0x55,0x00
"SPI","result",16.4001235,0.000915666667,0x00,0x00
"SPI","result",16.4012834,0.000915666667,0xBB,0x00
"SPI","result",16.4024432,0.000915708333,0x00,0x00
"SPI","result",16.4036031,0.000915666667,0x55,0x00
"SPI","result",16.404763,0.000915666667,0x00,0x00
"SPI","result",16.4059228,0.000915666667,0xFF,0x00
"SPI","result",16.4070827,0.000915666667,0x00,0x00
"SPI","result",16.4082426,0.000915625,0x76,0x00
"SPI","result",16.4094024,0.000915666667,0x01,0x00
"SPI","result",16.4105623,0.000915666667,0xFF,0x00
"SPI","result",16.4117222,0.000915666667,0x00,0x00
"SPI","result",16.412882,0.000915666667,0xAA,0x00
"SPI","result",16.4140419,0.000915666667,0x55,0x00
"SPI","result",16.4152628,0.000915666667,0x74,0x00
"SPI","result",16.4164227,0.000915666667,0x8B,0x00
"SPI","result",16.4175825,0.000915666667,0x73,0x00
"SPI","result",16.4187424,0.000915708333,0x07,0x00
"SPI","result",16.4199022,0.000915666667,0xFF,0x00
"SPI","result",16.4210621,0.000915666667,0x03,0x00
"SPI","result",16.422222,0.000915666667,0xFB,0x00
"SPI","result",16.4233819,0.000915666667,0x07,0x00
"SPI","result",16.4245417,0.000915666667,0xFF,0x00
"SPI","result",16.4257016,0.000915666667,0x03,0x00
"SPI","result",16.4268615,0.000915666667,0xAB,0x00
"SPI","result",16.4280213,0.000915666667,0x55,0x00
"SPI","result",16.4291812,0.000915625,0xD1,0x00
"SPI","result",16.430341,0.000915666667,0x2E,0x00
"SPI","result",16.4315009,0.000915666667,0xAA,0x00
"SPI","result",16.4326608,0.000915666667,0x55,0x00
"SPI","result",16.4338207,0.000915666667,0x00,0x00
"SPI","result",16.4349805,0.000915625,0xFF,0x00
"SPI","result",16.4361404,0.000915666667,0xFD,0x00
"SPI","result",16.4373002,0.000915666667,0xFE,0x00
"SPI","result",16.4384601,0.000915666667,0xFF,0x00
"SPI","result",16.43962,0.000915625,0xFC,0x00
"SPI","result",16.4407799,0.000915625,0xFC,0x00
"SPI","result",16.4419397,0.000915666667,0xFD,0x00
"SPI","result",16.4430996,0.000915666667,0xFE,0x00
"SPI","result",16.4442595,0.000915666667,0xF9,0x00
"SPI","result",16.4454193,0.000915666667,0xF3,0x00
"SPI","result",16.4465792,0.000915666667,0xF3,0x00
"SPI","result",16.447739,0.000915666667,0xA3,0x00
"SPI","result",16.4488989,0.000915666667,0x47,0x00
"SPI","result",16.4500588,0.000915625,0xDF,0x00
"SPI","result",16.4512186,0.000915666667,0x0F,0x00
"SPI","result",16.4523785,0.000915666667,0xFF,0x00
"SPI","result",16.4535384,0.000915666667,0xFF,0x00
"SPI","result",16.4546982,0.000915666667,0x85,0x00
"SPI","result",16.4558581,0.000915666667,0x7F,0x00
"SPI","result",16.457018,0.000915666667,0x0B,0x00
"SPI","result",16.4581778,0.000915666667,0xFF,0x00
"SPI","result",16.4593377,0.000915666667,0x57,0x00
"SPI","result",16.4604976,0.000915625,0xFF,0x00
"SPI","result",16.4616574,0.000915666667,0xEF,0x00
"SPI","result",16.4628173,0.000915666667,0xFF,0x00
"SPI","result",16.4639772,0.000915666667,0x7F,0x00
"SPI","result",16.465137,0.000915666667,0xFF,0x00
"SPI","result",16.4662969,0.000915666667,0xFF,0x00
"SPI","result",16.4674568,0.000915666667,0xFF,0x00
"SPI","result",16.4686166,0.000915666667,0xFF,0x00
"SPI","result",16.4697765,0.000915666667,0xFF,0x00
"SPI","result",16.4709364,0.000915625,0xFF,0x00
"SPI","result",16.4720962,0.000915666667,0xFF,0x00
"SPI","result",16.4732561,0.000915666667,0xFF,0x00
"SPI","result",16.474416,0.000915666667,0xFF,0x00
"SPI","result",16.4755758,0.000915666667,0xFF,0x00
"SPI","result",16.4767357,0.000915666667,0xFF,0x00
"SPI","result",16.4778955,0.000915666667,0xFF,0x00
"SPI","result",16.4790554,0.000915666667,0xFF,0x00
"SPI","result",16.4802153,0.000915666667,0xFF,0x00
"SPI","result",16.4813752,0.000915625,0xFF,0x00
"SPI","result",16.482535,0.000915666667,0xFF,0x00
"SPI","result",16.4836949,0.000915666667,0xFF,0x00
"SPI","result",16.4848548,0.000915666667,0xFF,0x00
"SPI","result",16.4860146,0.000915666667,0xFF,0x00
"SPI","result",16.4871745,0.000915666667,0xFF,0x00
"SPI","result",16.4883343,0.000915666667,0xFF,0x00
"SPI","result",16.4894942,0.000915666667,0xFF,0x00
"SPI","result",16.4906541,0.000915666667,0xFF,0x00
"SPI","result",16.491814,0.000915625,0xFF,0x00
"SPI","result",16.4929738,0.000915666667,0xFF,0x00
"SPI","result",16.4941337,0.000915666667,0xFF,0x00
"SPI","result",16.4952935,0.000915666667,0xFF,0x00
"SPI","result",16.4964534,0.000915666667,0xFF,0x00
"SPI","result",16.4976133,0.000915666667,0xFF,0x00
"SPI","result",16.4987731,0.000915666667,0xFF,0x00
"SPI","result",16.499933,0.000915666667,0xFF,0x00
"SPI","result",16.5010929,0.000915666667,0xFF,0x00
"SPI","result",16.5022528,0.000915625,0xFF,0x00
"SPI","result",16.5034126,0.000915666667,0xFF,0x00
"SPI","result",16.5045725,0.000915666667,0xFF,0x00
"SPI","result",16.5057323,0.000915666667,0xFF,0x00
"SPI","result",16.5068922,0.000915666667,0xFF,0x00
"SPI","result",16.508052,0.000915666667,0xFF,0x00
"SPI","result",16.5092119,0.000915666667,0xFF,0x00
"SPI","result",16.5103718,0.000915666667,0xFF,0x00
"SPI","result",16.5115317,0.000915666667,0xFF,0x00
"SPI","result",16.5126915,0.000915625,0xFF,0x00
"SPI","result",16.5138514,0.000915666667,0xFF,0x00
"SPI","result",16.5150113,0.000915666667,0xFF,0x00
"SPI","result",16.5161711,0.000915666667,0xFF,0x00
"SPI","result",16.517331,0.000915666667,0xFF,0x00
"SPI","result",16.5184908,0.000915666667,0xFF,0x00
"SPI","result",16.5196507,0.000915666667,0xFF,0x00
"SPI","result",16.5208106,0.000915666667,0xFF,0x00
"SPI","result",16.5219705,0.000915666667,0xFF,0x00
"SPI","result",16.5231303,0.000915625,0xFF,0x00
"SPI","result",16.5242902,0.000915666667,0xFF,0x00
"SPI","result",16.52545,0.000915666667,0xFF,0x00
"SPI","result",16.5266099,0.000915666667,0xFF,0x00
"SPI","result",16.5277698,0.000915666667,0xFF,0x00
"SPI","result",16.5289296,0.000915666667,0xFF,0x00
"SPI","result",16.5300895,0.000915666667,0xFF,0x00
"SPI","result",16.5312494,0.000915666667,0xFF,0x00
"SPI","result",16.5324703,0.000915666667,0xFF,0x00
"SPI","result",16.5336302,0.000915666667,0xFF,0x00
"SPI","result",16.53479,0.000915666667,0xFF,0x00
"SPI","result",16.5359499,0.000915666667,0xFF,0x00
"SPI","result",16.5371097,0.000915666667,0xFF,0x00
"SPI","result",16.5382696,0.000915666667,0xFF,0x00
"SPI","result",16.5394295,0.000915666667,0xFF,0x00
"SPI","result",16.5405893,0.000915666667,0xFF,0x00
"SPI","result",16.5417492,0.000915666667,0xFF,0x00
"SPI","result",16.5429091,0.000915666667,0xFF,0x00
"SPI","result",16.544069,0.000915625,0xFF,0x00
"SPI","result",16.5452288,0.000915666667,0xFF,0x00
"SPI","result",16.5463887,0.000915666667,0xFF,0x00
"SPI","result",16.5475485,0.000915666667,0xFF,0x00
"SPI","result",16.5487084,0.000915666667,0xFF,0x00
"SPI","result",16.5498682,0.000915666667,0xFF,0x00
"SPI","result",16.5510281,0.000915666667,0xFF,0x00
"SPI","result",16.552188,0.000915666667,0xFF,0x00
"SPI","result",16.5533479,0.000915666667,0xFF,0x00
"SPI","result",16.5545077,0.000915625,0xFF,0x00
"SPI","result",16.5556676,0.000915666667,0xFF,0x00
"SPI","result",16.5568275,0.000915666667,0xFF,0x00
"SPI","result",16.5579873,0.000915666667,0xFF,0x00
"SPI","result",16.5591472,0.000915666667,0xFF,0x00
"SPI","result",16.560307,0.000915666667,0xFF,0x00
"SPI","result",16.5614669,0.000915666667,0xFF,0x00
"SPI","result",16.5626268,0.000915666667,0xFF,0x00
"SPI","result",16.5637867,0.000915666667,0xFF,0x00
"SPI","result",16.5649465,0.000915625,0xFF,0x00
"SPI","result",16.5660453,0.000915666667,0xA3,0x00
"SPI","result",16.5671442,0.000915666667,0xC3,0x00
"SPI","result",16.568243,0.000915708333,0x00,0x81
"SPI","result",16.5693418,0.000915666667,0x00,0x00
"SPI","result",16.6197655,0.000915625,0x88,0x00
"SPI","result",16.6208643,0.000915666667,0x33,0x00
"SPI","result",16.6220241,0.000915666667,0x04,0x00
"SPI","result",16.623184,0.000915666667,0x00,0x00
"SPI","result",16.6243439,0.000915625,0x80,0x00
"SPI","result",16.6255037,0.000915666667,0x02,0x00
"SPI","result",16.6266636,0.000915666667,0xFF,0x00
"SPI","result",16.6278235,0.000915666667,0xFF,0x00
"SPI","result",16.6289833,0.000915666667,0xFF,0x00
"SPI","result",16.6301432,0.000915666667,0xFF,0x00
"SPI","result",16.631303,0.000915666667,0xFF,0x00
"SPI","result",16.6324629,0.000915666667,0xFF,0x00
"SPI","result",16.6336228,0.000915666667,0xFF,0x00
"SPI","result",16.6347827,0.000915625,0xFF,0x00
"SPI","result",16.6359425,0.000915666667,0xFF,0x00
"SPI","result",16.6371024,0.000915666667,0xFF,0x00
"SPI","result",16.6382623,0.000915666667,0xFF,0x00
"SPI","result",16.6394221,0.000915666667,0xFF,0x00
"SPI","result",16.640582,0.000915666667,0xFF,0x00
"SPI","result",16.6417418,0.000915666667,0xFF,0x00
"SPI","result",16.6429017,0.000915666667,0xFF,0x00
"SPI","result",16.6440616,0.000915666667,0xFF,0x00
"SPI","result",16.6452215,0.000915625,0xFF,0x00
"SPI","result",16.6463813,0.000915666667,0xFF,0x00
"SPI","result",16.6475412,0.000915666667,0xFF,0x00
"SPI","result",16.648701,0.000915666667,0xFF,0x00
"SPI","result",16.6498609,0.000915666667,0xFF,0x00
"SPI","result",16.6510208,0.000915666667,0xFF,0x00
"SPI","result",16.6521806,0.000915666667,0xFF,0x00
"SPI","result",16.6533405,0.000915666667,0xFF,0x00
"SPI","result",16.6545004,0.000915666667,0xFF,0x00
"SPI","result",16.6556603,0.000915625,0xFF,0x00
"SPI","result",16.6568201,0.000915666667,0xFF,0x00
"SPI","result",16.65798,0.000915666667,0xFF,0x00
"SPI","result",16.6591398,0.000915666667,0xFF,0x00
"SPI","result",16.6602997,0.000915666667,0xFF,0x00
"SPI","result",16.6614595,0.000915666667,0xFF,0x00
"SPI","result",16.6626194,0.000915666667,0xFF,0x00
"SPI","result",16.6637793,0.000915666667,0xFF,0x00
"SPI","result",16.6649392,0.000915666667,0xFF,0x00
"SPI","result",16.666099,0.000915625,0xFF,0x00
"SPI","result",16.6672589,0.000915666667,0xFF,0x00
"SPI","result",16.6684188,0.000915666667,0xFF,0x00
"SPI","result",16.6695786,0.000915666667,0xFF,0x00
"SPI","result",16.6707385,0.000915666667,0xFF,0x00
"SPI","result",16.6718983,0.000915666667,0xFF,0x00
"SPI","result",16.6730582,0.000915666667,0xFF,0x00
"SPI","result",16.6742181,0.000915666667,0xFF,0x00
"SPI","result",16.675378,0.000915666667,0xFF,0x00
"SPI","result",16.6765378,0.000915625,0xFF,0x00
"SPI","result",16.6776977,0.000915666667,0xFF,0x00
"SPI","result",16.6788575,0.000915666667,0xFF,0x00
"SPI","result",16.6800174,0.000915666667,0xFF,0x00
"SPI","result",16.6811773,0.000915666667,0xFF,0x00
"SPI","result",16.6823371,0.000915666667,0xFF,0x00
"SPI","result",16.683497,0.000915666667,0xFF,0x00
"SPI","result",16.6846569,0.000915666667,0xFF,0x00
"SPI","result",16.6858168,0.000915666667,0xFF,0x00
"SPI","result",16.6869766,0.000915625,0xFF,0x00
"SPI","result",16.6881365,0.000915666667,0xFF,0x00
"SPI","result",16.6892963,0.000915666667,0xFF,0x00
"SPI","result",16.6904562,0.000915666667,0xFF,0x00
"SPI","result",16.6916161,0.000915666667,0xFF,0x00
"SPI","result",16.6927759,0.000915666667,0xFF,0x00
"SPI","result",16.6939358,0.000915666667,0xFF,0x00
"SPI","result",16.6950957,0.000915666667,0xFF,0x00
"SPI","result",16.6962555,0.000915666667,0xFF,0x00
"SPI","result",16.6974154,0.000915625,0xFF,0x00
"SPI","result",16.6985753,0.000915666667,0xFF,0x00
"SPI","result",16.6997351,0.000915666667,0xFF,0x00
"SPI","result",16.700895,0.000915666667,0xFF,0x00
"SPI","result",16.7020549,0.000915666667,0xFF,0x00
"SPI","result",16.7032147,0.000915666667,0xFF,0x00
"SPI","result",16.7043746,0.000915666667,0xFF,0x00
"SPI","result",16.7055345,0.000915666667,0xFF,0x00
"SPI","result",16.7066943,0.000915666667,0xFF,0x00
"SPI","result",16.7078542,0.000915625,0xFF,0x00
"SPI","result",16.709014,0.000915666667,0xFF,0x00
"SPI","result",16.7101739,0.000915666667,0xFF,0x00
"SPI","result",16.7113338,0.000915666667,0xFF,0x00
"SPI","result",16.7124937,0.000915666667,0xFF,0x00
"SPI","result",16.7136535,0.000915666667,0xFF,0x00
"SPI","result",16.7148134,0.000915666667,0xFF,0x00
"SPI","result",16.7159733,0.000915666667,0xFF,0x00
"SPI","result",16.7171331,0.000915666667,0xFF,0x00
"SPI","result",16.718293,0.000915625,0xFF,0x00
"SPI","result",16.7194528,0.000915666667,0xFF,0x00
"SPI","result",16.7206127,0.000915666667,0xFF,0x00
"SPI","result",16.7217726,0.000915666667,0xFF,0x00
"SPI","result",16.7229325,0.000915666667,0xFF,0x00
"SPI","result",16.7240923,0.000915666667,0xFF,0x00
"SPI","result",16.7252522,0.000915666667,0xFF,0x00
"SPI","result",16.726412,0.000915666667,0xFF,0x00
"SPI","result",16.7275719,0.000915666667,0xFF,0x00
"SPI","result",16.7287318,0.000915625,0xFF,0x00
"SPI","result",16.7298916,0.000915666667,0xFF,0x00
"SPI","result",16.7310515,0.000915666667,0xFF,0x00
"SPI","result",16.7322114,0.000915666667,0xFF,0x00
"SPI","result",16.7334323,0.000915666667,0xFF,0x00
"SPI","result",16.7345921,0.000915666667,0xFF,0x00
"SPI","result",16.735752,0.000915666667,0xFF,0x00
"SPI","result",16.7369119,0.000915666667,0xFF,0x00
"SPI","result",16.7380717,0.000915666667,0xCD,0x00
"SPI","result",16.7392316,0.000915666667,0x87,0x00
"SPI","result",16.7403915,0.000915666667,0xFF,0x00
"SPI","result",16.7415513,0.000915666667,0xFF,0x00
"SPI","result",16.7427112,0.000915666667,0xFD,0x00
"SPI","result",16.7438711,0.000915666667,0xFF,0x00
"SPI","result",16.7450309,0.000915666667,0xFF,0x00
"SPI","result",16.7461908,0.000915666667,0xFF,0x00
"SPI","result",16.7473507,0.000915666667,0xFF,0x00
"SPI","result",16.7485105,0.000915666667,0xFF,0x00
"SPI","result",16.7496704,0.000915625,0xFF,0x00
"SPI","result",16.7508302,0.000915666667,0xFF,0x00
"SPI","result",16.7519901,0.000915666667,0xFF,0x00
"SPI","result",16.75315,0.000915666667,0xFF,0x00
"SPI","result",16.7543099,0.000915666667,0xFF,0x00
"SPI","result",16.7554697,0.000915666667,0xFF,0x00
"SPI","result",16.7566296,0.000915666667,0x1A,0x00
"SPI","result",16.7577895,0.000915666667,0xF5,0x00
"SPI","result",16.7589493,0.000915666667,0x21,0x00
"SPI","result",16.7601092,0.000915625,0xFE,0x00
"SPI","result",16.761269,0.000915666667,0x54,0x00
"SPI","result",16.7624289,0.000915666667,0xFF,0x00
"SPI","result",16.7635888,0.000915666667,0xF2,0x00
"SPI","result",16.7647487,0.000915666667,0xFF,0x00
"SPI","result",16.7659085,0.000915666667,0x7F,0x00
"SPI","result",16.7670684,0.000915666667,0xFF,0x00
"SPI","result",16.7682282,0.000915666667,0xFF,0x00
"SPI","result",16.7693881,0.000915666667,0xFF,0x00
"SPI","result",16.770548,0.000915666667,0xFF,0x00
"SPI","result",16.7717078,0.000915666667,0xFF,0x00
"SPI","result",16.7728677,0.000915666667,0xFF,0x00
"SPI","result",16.7740276,0.000915666667,0xFF,0x00
"SPI","result",16.7751875,0.000915666667,0xEF,0x00
"SPI","result",16.7763473,0.000915666667,0x10,0x00
"SPI","result",16.7775072,0.000915666667,0x5E,0x00
"SPI","result",16.778667,0.000915666667,0xA0,0x00
"SPI","result",16.7798269,0.000915666667,0xA9,0x00
"SPI","result",16.7809868,0.000915666667,0x54,0x00
"SPI","result",16.7821466,0.000915666667,0x01,0x00
"SPI","result",16.7833065,0.000915666667,0xFE,0x00
"SPI","result",16.7844664,0.000915666667,0x4B,0x00
"SPI","result",16.7856262,0.000915666667,0xF7,0x00
"SPI","result",16.7867861,0.000915666667,0x41,0x00
"SPI","result",16.787946,0.000915666667,0xFF,0x00
"SPI","result",16.7891058,0.000915666667,0x55,0x00
"SPI","result",16.7902657,0.000915666667,0xFF,0x00
"SPI","result",16.7914256,0.000915625,0xFF,0x00
"SPI","result",16.7925854,0.000915666667,0xFF,0x00
"SPI","result",16.7937453,0.000915666667,0x01,0x00
"SPI","result",16.7949052,0.000915666667,0x00,0x00
"SPI","result",16.796065,0.000915666667,0x02,0x00
"SPI","result",16.7972249,0.000915666667,0x00,0x00
"SPI","result",16.7983848,0.000915666667,0x55,0x00
"SPI","result",16.7995446,0.000915666667,0x00,0x00
"SPI","result",16.8007045,0.000915666667,0xFF,0x00
"SPI","result",16.8018643,0.000915666667,0x00,0x00
"SPI","result",16.8030242,0.000915666667,0x09,0x00
"SPI","result",16.8041841,0.000915666667,0xF7,0x00
"SPI","result",16.805344,0.000915666667,0xFF,0x00
"SPI","result",16.8065038,0.000915666667,0xFF,0x00
"SPI","result",16.8076637,0.000915666667,0xFF,0x00
"SPI","result",16.8088235,0.000915666667,0xFF,0x00
"SPI","result",16.8099834,0.000915666667,0xFF,0x00
"SPI","result",16.8111433,0.000915666667,0xFF,0x00
"SPI","result",16.8123031,0.000915666667,0x6A,0x00
"SPI","result",16.813463,0.000915666667,0x15,0x00
"SPI","result",16.8146229,0.000915666667,0x84,0x00
"SPI","result",16.8157828,0.000915666667,0x3B,0x00
"SPI","result",16.8169426,0.000915666667,0xAA,0x00
"SPI","result",16.8181025,0.000915666667,0x55,0x00
"SPI","result",16.8192623,0.000915666667,0x30,0x00
"SPI","result",16.8204222,0.000915666667,0xFF,0x00
"SPI","result",16.8215821,0.000915666667,0x79,0x00
"SPI","result",16.822742,0.000915625,0xF7,0x00
"SPI","result",16.8239018,0.000915666667,0xE7,0x00
"SPI","result",16.8250617,0.000915666667,0xFF,0x00
"SPI","result",16.8262215,0.000915666667,0xD7,0x00
"SPI","result",16.8273814,0.000915666667,0xFF,0x00
"SPI","result",16.8285413,0.000915666667,0xFF,0x00
"SPI","result",16.8297011,0.000915666667,0xFF,0x00
"SPI","result",16.830861,0.000915666667,0xAA,0x00
"SPI","result",16.8320209,0.000915666667,0x55,0x00
"SPI","result",16.8331807,0.000915666667,0x40,0x00
"SPI","result",16.8343406,0.000915666667,0xBF,0x00
"SPI","result",16.8355005,0.000915666667,0x85,0x00
"SPI","result",16.8366603,0.000915666667,0x7F,0x00
"SPI","result",16.8378202,0.000915708333,0x03,0x00
"SPI","result",16.83898,0.000915666667,0xFF,0x00
"SPI","result",16.8401399,0.000915666667,0x57,0x00
"SPI","result",16.8412998,0.000915666667,0xFF,0x00
"SPI","result",16.8424597,0.000915666667,0xFF,0x00
"SPI","result",16.8436195,0.000915625,0xFF,0x00
"SPI","result",16.8447794,0.000915666667,0xDF,0x00
"SPI","result",16.8459393,0.000915666667,0xFF,0x00
"SPI","result",16.8470991,0.000915666667,0xFF,0x00
"SPI","result",16.848259,0.000915666667,0xFF,0x00
"SPI","result",16.8494188,0.000915666667,0x81,0x00
"SPI","result",16.8506397,0.000915666667,0x7F,0x00
"SPI","result",16.8517996,0.000915666667,0x03,0x00
"SPI","result",16.8529595,0.000915666667,0xFF,0x00
"SPI","result",16.8541193,0.000915708333,0x55,0x00
"SPI","result",16.8552792,0.000915666667,0xFF,0x00
"SPI","result",16.8564391,0.000915666667,0xFF,0x00
"SPI","result",16.857599,0.000915666667,0xFF,0x00
"SPI","result",16.8587588,0.000915666667,0xFF,0x00
"SPI","result",16.8599187,0.000915666667,0xFF,0x00
"SPI","result",16.8610785,0.000915666667,0xFF,0x00
"SPI","result",16.8622384,0.000915666667,0xFF,0x00
"SPI","result",16.8633983,0.000915666667,0xFF,0x00
"SPI","result",16.8645582,0.000915625,0xFF,0x00
"SPI","result",16.865718,0.000915666667,0xFF,0x00
"SPI","result",16.8668779,0.000915666667,0xFF,0x00
"SPI","result",16.8680377,0.000915666667,0x77,0x00
"SPI","result",16.8691976,0.000915666667,0xFF,0x00
"SPI","result",16.8703575,0.000915666667,0xFF,0x00
"SPI","result",16.8715173,0.000915666667,0xFF,0x00
"SPI","result",16.8726772,0.000915666667,0xFF,0x00
"SPI","result",16.8738371,0.000915666667,0xFF,0x00
"SPI","result",16.874997,0.000915625,0xFF,0x00
"SPI","result",16.8761568,0.000915666667,0xFF,0x00
"SPI","result",16.8773167,0.000915666667,0xFF,0x00
"SPI","result",16.8784765,0.000915666667,0xFF,0x00
"SPI","result",16.8796364,0.000915666667,0xFF,0x00
"SPI","result",16.8807962,0.000915666667,0xFF,0x00
"SPI","result",16.8819561,0.000915666667,0xFF,0x00
"SPI","result",16.883116,0.000915666667,0xFF,0x00
"SPI","result",16.8842759,0.000915666667,0xFF,0x00
"SPI","result",16.8854357,0.000915625,0xFF,0x00
"SPI","result",16.8865956,0.000915666667,0xFF,0x00
"SPI","result",16.8877555,0.000915666667,0xFF,0x00
"SPI","result",16.8889153,0.000915666667,0xFF,0x00
"SPI","result",16.8900752,0.000915666667,0xFF,0x00
"SPI","result",16.891235,0.000915666667,0xFF,0x00
"SPI","result",16.8923949,0.000915666667,0xFF,0x00
"SPI","result",16.8935548,0.000915666667,0xFF,0x00
"SPI","result",16.8947147,0.000915666667,0xFF,0x00
"SPI","result",16.8958745,0.000915625,0xFF,0x00
"SPI","result",16.8970344,0.000915666667,0xFF,0x00
"SPI","result",16.8981942,0.000915666667,0xFF,0x00
"SPI","result",16.8993541,0.000915666667,0xFF,0x00
"SPI","result",16.900514,0.000915666667,0xFF,0x00
"SPI","result",16.9016738,0.000915666667,0xFF,0x00
"SPI","result",16.9028337,0.000915666667,0xFF,0x00
"SPI","result",16.9039936,0.000915666667,0xFF,0x00
"SPI","result",16.9051535,0.000915666667,0xFF,0x00
"SPI","result",16.9063133,0.000915625,0xFF,0x00
"SPI","result",16.9074732,0.000915666667,0xFF,0x00
"SPI","result",16.908633,0.000915666667,0xFF,0x00
"SPI","result",16.9097929,0.000915666667,0xFF,0x00
"SPI","result",16.9109528,0.000915666667,0xFF,0x00
"SPI","result",16.9121126,0.000915666667,0xFF,0x00
"SPI","result",16.9132725,0.000915666667,0xFF,0x00
"SPI","result",16.9144324,0.000915666667,0xFF,0x00
"SPI","result",16.9155922,0.000915666667,0xFF,0x00
"SPI","result",16.9167521,0.000915625,0xFF,0x00
"SPI","result",16.917912,0.000915666667,0xFF,0x00
"SPI","result",16.9190718,0.000915666667,0xFF,0x00
"SPI","result",16.9202317,0.000915666667,0xFF,0x00
"SPI","result",16.9213916,0.000915666667,0xFF,0x00
"SPI","result",16.9225514,0.000915666667,0xFF,0x00
"SPI","result",16.9237113,0.000915666667,0xFF,0x00
"SPI","result",16.9248712,0.000915666667,0xFF,0x00
"SPI","result",16.926031,0.000915666667,0xFF,0x00
"SPI","result",16.9271909,0.000915625,0xFF,0x00
"SPI","result",16.9283507,0.000915666667,0xFF,0x00
"SPI","result",16.9295106,0.000915666667,0xFF,0x00
"SPI","result",16.9306705,0.000915666667,0xFF,0x00
"SPI","result",16.9318304,0.000915666667,0xFF,0x00
"SPI","result",16.9329902,0.000915666667,0xFF,0x00
"SPI","result",16.9341501,0.000915666667,0xFF,0x00
"SPI","result",16.93531,0.000915666667,0xFF,0x00
"SPI","result",16.9364698,0.000915666667,0xFF,0x00
"SPI","result",16.9376297,0.000915625,0xFF,0x00
"SPI","result",16.9387895,0.000915666667,0xFF,0x00
"SPI","result",16.9399494,0.000915666667,0xFF,0x00
"SPI","result",16.9411093,0.000915666667,0xFF,0x00
"SPI","result",16.9422692,0.000915666667,0xFF,0x00
"SPI","result",16.943429,0.000915666667,0xFF,0x00
"SPI","result",16.9445889,0.000915666667,0xFF,0x00
"SPI","result",16.9457487,0.000915666667,0xFF,0x00
"SPI","result",16.9469086,0.000915666667,0xFF,0x00
"SPI","result",16.9480685,0.000915625,0xFF,0x00
"SPI","result",16.9492283,0.000915666667,0xFF,0x00
"SPI","result",16.9503882,0.000915666667,0xFF,0x00
"SPI","result",16.9515481,0.000915666667,0xFF,0x00
"SPI","result",16.952708,0.000915666667,0xFF,0x00
"SPI","result",16.9538678,0.000915666667,0xFF,0x00
"SPI","result",16.9550277,0.000915666667,0xFF,0x00
"SPI","result",16.9561875,0.000915666667,0xFF,0x00
"SPI","result",16.9573474,0.000915666667,0xFF,0x00
"SPI","result",16.9585073,0.000915625,0xFF,0x00
"SPI","result",16.9596671,0.000915666667,0xFF,0x00
"SPI","result",16.960827,0.000915666667,0xFF,0x00
"SPI","result",16.9619869,0.000915666667,0xFF,0x00
"SPI","result",16.9631467,0.000915666667,0xFF,0x00
"SPI","result",16.9643066,0.000915666667,0xFF,0x00
"SPI","result",16.9654665,0.000915666667,0xFF,0x00
"SPI","result",16.9666263,0.000915666667,0xFF,0x00
"SPI","result",16.9679083,0.000915666667,0xFF,0x00
"SPI","result",16.9690682,0.000915666667,0xFF,0x00
"SPI","result",16.970228,0.000915666667,0xFF,0x00
"SPI","result",16.9713879,0.000915666667,0xFF,0x00
"SPI","result",16.9725478,0.000915666667,0xFF,0x00
"SPI","result",16.9737076,0.000915666667,0xFF,0x00
"SPI","result",16.9748675,0.000915625,0xFF,0x00
"SPI","result",16.9760273,0.000915666667,0xFF,0x00
"SPI","result",16.9771872,0.000915666667,0xFF,0x00
"SPI","result",16.9783471,0.000915666667,0xFF,0x00
"SPI","result",16.979507,0.000915666667,0xFF,0x00
"SPI","result",16.9806668,0.000915666667,0xFF,0x00
"SPI","result",16.9818267,0.000915666667,0xFF,0x00
"SPI","result",16.9829865,0.000915666667,0xFF,0x00
"SPI","result",16.9841464,0.000915666667,0xFF,0x00
"SPI","result",16.9853063,0.000915625,0xFF,0x00
"SPI","result",16.9864661,0.000915666667,0xFF,0x00
"SPI","result",16.987626,0.000915666667,0xFF,0x00
"SPI","result",16.9887859,0.000915666667,0xFF,0x00
"SPI","result",16.9899458,0.000915666667,0xFF,0x00
"SPI","result",16.9911056,0.000915666667,0xFF,0x00
"SPI","result",16.9922655,0.000915666667,0xFF,0x00
"SPI","result",16.9934253,0.000915666667,0xFF,0x00
"SPI","result",16.9945852,0.000915666667,0xFF,0x00
"SPI","result",16.9957451,0.000915625,0xFF,0x00
"SPI","result",16.9969049,0.000915666667,0xFF,0x00
"SPI","result",16.9980648,0.000915666667,0xFF,0x00
"SPI","result",16.9992247,0.000915666667,0xFF,0x00
"SPI","result",17.0003845,0.000915666667,0xFF,0x00
"SPI","result",17.0015444,0.000915666667,0xFF,0x00
"SPI","result",17.0027043,0.000915666667,0xFF,0x00
"SPI","result",17.0038641,0.000915666667,0xFF,0x00
"SPI","result",17.005024,0.000915666667,0xFF,0x00
"SPI","result",17.0061839,0.000915625,0xFF,0x00
"SPI","result",17.0073437,0.000915666667,0xFF,0x00
"SPI","result",17.0085036,0.000915666667,0xFF,0x00
"SPI","result",17.0096635,0.000915666667,0xFF,0x00
"SPI","result",17.0108233,0.000915666667,0xFF,0x00
"SPI","result",17.0119832,0.000915666667,0xFF,0x00
"SPI","result",17.013143,0.000915666667,0xFF,0x00
"SPI","result",17.0143029,0.000915666667,0xFF,0x00
"SPI","result",17.0154628,0.000915666667,0xFF,0x00
"SPI","result",17.0166227,0.000915625,0xFF,0x00
"SPI","result",17.0177825,0.000915666667,0xFF,0x00
"SPI","result",17.0189424,0.000915666667,0xFF,0x00
"SPI","result",17.0201023,0.000915666667,0xFF,0x00
"SPI","result",17.0212621,0.000915666667,0xFF,0x00
"SPI","result",17.022422,0.000915666667,0xFF,0x00
"SPI","result",17.0235818,0.000915666667,0xFF,0x00
"SPI","result",17.0247417,0.000915666667,0xFF,0x00
"SPI","result",17.0259016,0.000915666667,0xFF,0x00
"SPI","result",17.0270615,0.000915625,0xFF,0x00
"SPI","result",17.0282213,0.000915666667,0xFF,0x00
"SPI","result",17.0293812,0.000915666667,0xFF,0x00
"SPI","result",17.030541,0.000915666667,0xFF,0x00
"SPI","result",17.0317009,0.000915666667,0xFF,0x00
"SPI","result",17.0328608,0.000915666667,0xFF,0x00
"SPI","result",17.0340206,0.000915666667,0xFF,0x00
"SPI","result",17.0351805,0.000915666667,0xFF,0x00
"SPI","result",17.0363404,0.000915666667,0xFF,0x00
"SPI","result",17.0375003,0.000915625,0xFF,0x00
"SPI","result",17.0386601,0.000915666667,0xFF,0x00
"SPI","result",17.03982,0.000915666667,0xFF,0x00
"SPI","result",17.0409798,0.000915666667,0xFF,0x00
"SPI","result",17.0421397,0.000915666667,0xFF,0x00
"SPI","result",17.0432995,0.000915666667,0xFF,0x00
"SPI","result",17.0444594,0.000915666667,0xFF,0x00
"SPI","result",17.0456193,0.000915666667,0xFF,0x00
"SPI","result",17.0467792,0.000915666667,0xFF,0x00
"SPI","result",17.047939,0.000915625,0xFF,0x00
"SPI","result",17.0490989,0.000915666667,0xFF,0x00
"SPI","result",17.0502588,0.000915666667,0xFF,0x00
"SPI","result",17.0514186,0.000915666667,0xFF,0x00
"SPI","result",17.0525785,0.000915666667,0xFF,0x00
"SPI","result",17.0537383,0.000915666667,0xFF,0x00
"SPI","result",17.0548982,0.000915666667,0xFF,0x00
"SPI","result",17.0560581,0.000915666667,0xFF,0x00
"SPI","result",17.057218,0.000915666667,0xFF,0x00
"SPI","result",17.0583778,0.000915625,0xFF,0x00
"SPI","result",17.0595377,0.000915666667,0xFF,0x00
"SPI","result",17.0606975,0.000915666667,0xFF,0x00
"SPI","result",17.0618574,0.000915666667,0xFF,0x00
"SPI","result",17.0630173,0.000915666667,0xFF,0x00
"SPI","result",17.0641771,0.000915666667,0xFF,0x00
"SPI","result",17.065337,0.000915666667,0xFF,0x00
"SPI","result",17.0664969,0.000915666667,0xFF,0x00
"SPI","result",17.0676568,0.000915666667,0xFF,0x00
"SPI","result",17.0688166,0.000915625,0xFF,0x00
"SPI","result",17.0699765,0.000915666667,0xFF,0x00
"SPI","result",17.0711363,0.000915666667,0xFF,0x00
"SPI","result",17.0722962,0.000915666667,0xFF,0x00
"SPI","result",17.0734561,0.000915666667,0xFF,0x00
"SPI","result",17.0746159,0.000915666667,0xFF,0x00
"SPI","result",17.0757758,0.000915666667,0xFF,0x00
"SPI","result",17.0769357,0.000915666667,0xFF,0x00
"SPI","result",17.0780955,0.000915666667,0xFF,0x00
"SPI","result",17.0792554,0.000915666667,0xFF,0x00
"SPI","result",17.0804153,0.000915666667,0xFF,0x00
"SPI","result",17.0815751,0.000915666667,0xFF,0x00
"SPI","result",17.082735,0.000915666667,0xFF,0x00
"SPI","result",17.0838949,0.000915666667,0xFF,0x00
"SPI","result",17.0851157,0.000915666667,0xFF,0x00
"SPI","result",17.0862756,0.000915666667,0xFF,0x00
"SPI","result",17.0874355,0.000915666667,0xFF,0x00
"SPI","result",17.0885954,0.000915666667,0xFF,0x00
"SPI","result",17.0897552,0.000915625,0xFF,0x00
"SPI","result",17.0909151,0.000915666667,0xFF,0x00
"SPI","result",17.092075,0.000915666667,0xFF,0x00
"SPI","result",17.0932348,0.000915666667,0xFF,0x00
"SPI","result",17.0943947,0.000915666667,0xFF,0x00
"SPI","result",17.0955545,0.000915666667,0xFF,0x00
"SPI","result",17.0967144,0.000915666667,0xFF,0x00
"SPI","result",17.0978743,0.000915666667,0xFF,0x00
"SPI","result",17.0990342,0.000915666667,0xFF,0x00
"SPI","result",17.100194,0.000915625,0xFF,0x00
"SPI","result",17.1013539,0.000915666667,0xFF,0x00
"SPI","result",17.1025137,0.000915666667,0xFF,0x00
"SPI","result",17.1036736,0.000915666667,0xFF,0x00
"SPI","result",17.1048335,0.000915666667,0xFF,0x00
"SPI","result",17.1059933,0.000915666667,0xFF,0x00
"SPI","result",17.1071532,0.000915666667,0xFF,0x00
"SPI","result",17.1083131,0.000915666667,0xFF,0x00
"SPI","result",17.109473,0.000915666667,0xFC,0x00
"SPI","result",17.1106328,0.000915625,0xFF,0x00
"SPI","result",17.1117927,0.000915666667,0xFD,0x00
"SPI","result",17.1129525,0.000915666667,0xFE,0x00
"SPI","result",17.1141124,0.000915666667,0xFF,0x00
"SPI","result",17.1152723,0.000915666667,0xFC,0x00
"SPI","result",17.1164322,0.000915625,0xFD,0x00
"SPI","result",17.117592,0.000915666667,0xFE,0x00
"SPI","result",17.1187519,0.000915666667,0xFD,0x00
"SPI","result",17.1199117,0.000915666667,0xFE,0x00
"SPI","result",17.1210716,0.000915625,0xFF,0x00
"SPI","result",17.1222315,0.000915666667,0xFE,0x00
"SPI","result",17.1233913,0.000915666667,0xFE,0x00
"SPI","result",17.1245512,0.000915666667,0xFF,0x00
"SPI","result",17.1257111,0.000915666667,0xFF,0x00
"SPI","result",17.1268709,0.000915666667,0xFF,0x00
"SPI","result",17.1280308,0.000915666667,0x57,0x00
"SPI","result",17.1291907,0.000915666667,0xFF,0x00
"SPI","result",17.1303505,0.000915666667,0xD3,0x00
"SPI","result",17.1315104,0.000915666667,0x2F,0x00
"SPI","result",17.1326703,0.000915666667,0x94,0x00
"SPI","result",17.1338301,0.000915666667,0x41,0x00
"SPI","result",17.13499,0.000915666667,0xE0,0x00
"SPI","result",17.1361499,0.000915666667,0x00,0x00
"SPI","result",17.1373097,0.000915666667,0x55,0x00
"SPI","result",17.1384696,0.000915666667,0x00,0x00
"SPI","result",17.1396295,0.000915666667,0xE2,0x00
"SPI","result",17.1407893,0.000915666667,0x00,0x00
"SPI","result",17.1419492,0.000915625,0x55,0x00
"SPI","result",17.143109,0.000915666667,0x00,0x00
"SPI","result",17.1442689,0.000915666667,0xFE,0x00
"SPI","result",17.1454288,0.000915666667,0x00,0x00
"SPI","result",17.1465887,0.000915666667,0xF7,0x00
"SPI","result",17.1477485,0.000915666667,0xFF,0x00
"SPI","result",17.1489084,0.000915666667,0x7F,0x00
"SPI","result",17.1500683,0.000915666667,0xFF,0x00
"SPI","result",17.1512281,0.000915666667,0x5D,0x00
"SPI","result",17.152388,0.000915625,0xFF,0x00
"SPI","result",17.1535478,0.000915666667,0xCF,0x00
"SPI","result",17.1547077,0.000915666667,0x3F,0x00
"SPI","result",17.1558676,0.000915666667,0x4F,0x00
"SPI","result",17.1570274,0.000915708333,0x17,0x00
"SPI","result",17.1581873,0.000915666667,0xBB,0x00
"SPI","result",17.1593472,0.000915666667,0x07,0x00
"SPI","result",17.160507,0.000915666667,0x59,0x00
"SPI","result",17.1616669,0.000915666667,0x07,0x00
"SPI","result",17.1628268,0.000915625,0xF3,0x00
"SPI","result",17.1639866,0.000915666667,0x0F,0x00
"SPI","result",17.1651465,0.000915666667,0x77,0x00
"SPI","result",17.1663064,0.000915666667,0xFF,0x00
"SPI","result",17.1674663,0.000915666667,0xFF,0x00
"SPI","result",17.1686261,0.000915666667,0xFF,0x00
"SPI","result",17.169786,0.000915666667,0xFF,0x00
"SPI","result",17.1709458,0.000915666667,0xFF,0x00
"SPI","result",17.1721057,0.000915666667,0xFF,0x00
"SPI","result",17.1732656,0.000915625,0xFF,0x00
"SPI","result",17.1744254,0.000915666667,0xFF,0x00
"SPI","result",17.1755853,0.000915666667,0xFF,0x00
"SPI","result",17.1767452,0.000915666667,0xFF,0x00
"SPI","result",17.177905,0.000915666667,0xFF,0x00
"SPI","result",17.1790649,0.000915666667,0xFF,0x00
"SPI","result",17.1802248,0.000915666667,0xFF,0x00
"SPI","result",17.1813846,0.000915666667,0xFF,0x00
"SPI","result",17.1825445,0.000915666667,0xFF,0x00
"SPI","result",17.1837043,0.000915666667,0xFF,0x00
"SPI","result",17.1848642,0.000915666667,0xFF,0x00
"SPI","result",17.1860241,0.000915666667,0xFF,0x00
"SPI","result",17.187184,0.000915666667,0xFF,0x00
"SPI","result",17.1883438,0.000915666667,0xFF,0x00
"SPI","result",17.1895037,0.000915666667,0xFF,0x00
"SPI","result",17.1906635,0.000915666667,0xFF,0x00
"SPI","result",17.1918234,0.000915666667,0xFF,0x00
"SPI","result",17.1929833,0.000915666667,0xFF,0x00
"SPI","result",17.1941431,0.000915666667,0xFF,0x00
"SPI","result",17.195303,0.000915666667,0xFF,0x00
"SPI","result",17.1964629,0.000915666667,0xFF,0x00
"SPI","result",17.1976228,0.000915666667,0xFF,0x00
"SPI","result",17.1987826,0.000915666667,0xFF,0x00
"SPI","result",17.1999425,0.000915666667,0xFF,0x00
"SPI","result",17.2011023,0.000915666667,0xFF,0x00
"SPI","result",17.2023232,0.000915666667,0xFF,0x00
"SPI","result",17.2034831,0.000915666667,0xFF,0x00
"SPI","result",17.204643,0.000915625,0xFF,0x00
"SPI","result",17.2058028,0.000915666667,0xFF,0x00
"SPI","result",17.2069627,0.000915666667,0xFF,0x00
"SPI","result",17.2081226,0.000915666667,0xFF,0x00
"SPI","result",17.2092825,0.000915666667,0xFF,0x00
"SPI","result",17.2104423,0.000915666667,0xFF,0x00
"SPI","result",17.2116022,0.000915666667,0xFF,0x00
"SPI","result",17.212762,0.000915666667,0xFF,0x00
"SPI","result",17.2139219,0.000915666667,0xFF,0x00
"SPI","result",17.2150818,0.000915625,0xFF,0x00
"SPI","result",17.2162416,0.000915666667,0xFF,0x00
"SPI","result",17.2174015,0.000915666667,0xFF,0x00
"SPI","result",17.2185614,0.000915666667,0xFF,0x00
"SPI","result",17.2197212,0.000915666667,0xFF,0x00
"SPI","result",17.2208811,0.000915666667,0xFF,0x00
"SPI","result",17.222041,0.000915666667,0xFF,0x00
"SPI","result",17.2232008,0.000915666667,0xFF,0x00
"SPI","result",17.2243607,0.000915666667,0xFF,0x00
"SPI","result",17.2255206,0.000915625,0xFF,0x00
"SPI","result",17.2266804,0.000915666667,0xFF,0x00
"SPI","result",17.2278403,0.000915666667,0xFF,0x00
"SPI","result",17.2290002,0.000915666667,0xFF,0x00
"SPI","result",17.23016,0.000915666667,0xFF,0x00
"SPI","result",17.2313199,0.000915666667,0xFF,0x00
"SPI","result",17.2324797,0.000915666667,0xFF,0x00
"SPI","result",17.2336396,0.000915666667,0xFF,0x00
"SPI","result",17.2347995,0.000915666667,0xFF,0x00
"SPI","result",17.2359594,0.000915625,0xFF,0x00
"SPI","result",17.2371192,0.000915666667,0xFF,0x00
"SPI","result",17.2382791,0.000915666667,0xFF,0x00
"SPI","result",17.239439,0.000915666667,0xFF,0x00
"SPI","result",17.2405988,0.000915666667,0xFF,0x00
"SPI","result",17.2417587,0.000915666667,0xFF,0x00
"SPI","result",17.2429185,0.000915666667,0xFF,0x00
"SPI","result",17.2440784,0.000915666667,0xFF,0x00
"SPI","result",17.2452383,0.000915666667,0xFF,0x00
"SPI","result",17.2463982,0.000915625,0xFF,0x00
"SPI","result",17.247558,0.000915666667,0xFF,0x00
"SPI","result",17.2487179,0.000915666667,0xFF,0x00
"SPI","result",17.2498777,0.000915666667,0xFF,0x00
"SPI","result",17.2510376,0.000915666667,0xFF,0x00
"SPI","result",17.2521975,0.000915666667,0xFF,0x00
"SPI","result",17.2533573,0.000915666667,0xFF,0x00
"SPI","result",17.2545172,0.000915666667,0xFF,0x00
"SPI","result",17.2556771,0.000915666667,0xFF,0x00
"SPI","result",17.256837,0.000915625,0xFF,0x00
"SPI","result",17.2579968,0.000915666667,0xFF,0x00
"SPI","result",17.2591567,0.000915666667,0xFF,0x00
"SPI","result",17.2603165,0.000915666667,0xFF,0x00
"SPI","result",17.2614764,0.000915666667,0xFF,0x00
"SPI","result",17.2626362,0.000915666667,0xFF,0x00
"SPI","result",17.2637961,0.000915666667,0xFF,0x00
"SPI","result",17.264956,0.000915666667,0xFF,0x00
"SPI","result",17.2661159,0.000915666667,0xFF,0x00
"SPI","result",17.2672757,0.000915625,0xFF,0x00
"SPI","result",17.2684356,0.000915666667,0xFF,0x00
"SPI","result",17.2695955,0.000915666667,0xFF,0x00
"SPI","result",17.2707553,0.000915666667,0xFF,0x00
"SPI","result",17.2719152,0.000915666667,0xFF,0x00
"SPI","result",17.273075,0.000915666667,0xFF,0x00
"SPI","result",17.2742349,0.000915666667,0xFF,0x00
"SPI","result",17.2753948,0.000915666667,0xFF,0x00
"SPI","result",17.2765547,0.000915666667,0xFF,0x00
"SPI","result",17.2777145,0.000915625,0xFF,0x00
"SPI","result",17.2788744,0.000915666667,0xFF,0x00
"SPI","result",17.2800342,0.000915666667,0xFF,0x00
"SPI","result",17.2811941,0.000915666667,0xFF,0x00
"SPI","result",17.282354,0.000915666667,0xFF,0x00
"SPI","result",17.2835138,0.000915666667,0xFF,0x00
"SPI","result",17.2846737,0.000915666667,0xFF,0x00
"SPI","result",17.2858336,0.000915666667,0xFF,0x00
"SPI","result",17.2869935,0.000915666667,0xFF,0x00
"SPI","result",17.2881533,0.000915625,0xFF,0x00
"SPI","result",17.2893132,0.000915666667,0xFF,0x00
"SPI","result",17.290473,0.000915666667,0xFF,0x00
"SPI","result",17.2916329,0.000915666667,0xFF,0x00
"SPI","result",17.2927928,0.000915666667,0xFF,0x00
"SPI","result",17.2939526,0.000915666667,0xFF,0x00
"SPI","result",17.2951125,0.000915666667,0xFF,0x00
"SPI","result",17.2962724,0.000915666667,0xFF,0x00
"SPI","result",17.2974322,0.000915666667,0xFF,0x00
"SPI","result",17.2985921,0.000915625,0xFF,0x00
"SPI","result",17.299752,0.000915666667,0xFF,0x00
"SPI","result",17.3009118,0.000915666667,0xFF,0x00
"SPI","result",17.3020717,0.000915666667,0xFF,0x00
"SPI","result",17.3032316,0.000915666667,0xFF,0x00
"SPI","result",17.3043914,0.000915666667,0xFF,0x00
"SPI","result",17.3055513,0.000915666667,0xFF,0x00
"SPI","result",17.3067112,0.000915666667,0xFF,0x00
"SPI","result",17.307871,0.000915666667,0xFF,0x00
"SPI","result",17.3090309,0.000915666667,0xFF,0x00
"SPI","result",17.3101908,0.000915666667,0xFF,0x00
"SPI","result",17.3113506,0.000915666667,0xFF,0x00
"SPI","result",17.3125105,0.000915666667,0xFF,0x00
"SPI","result",17.3136704,0.000915666667,0xFF,0x00
"SPI","result",17.3148302,0.000915666667,0xFF,0x00
"SPI","result",17.3159901,0.000915666667,0xFF,0x00
"SPI","result",17.31715,0.000915666667,0xFF,0x00
"SPI","result",17.3183098,0.000915666667,0xFF,0x00
"SPI","result",17.3195307,0.000915625,0xFF,0x00
"SPI","result",17.3206906,0.000915666667,0xFF,0x00
"SPI","result",17.3218505,0.000915666667,0xFF,0x00
"SPI","result",17.3230103,0.000915666667,0xFF,0x00
"SPI","result",17.3241702,0.000915666667,0xFF,0x00
"SPI","result",17.32533,0.000915666667,0xFF,0x00
"SPI","result",17.3264899,0.000915666667,0xFF,0x00
"SPI","result",17.3276498,0.000915666667,0xFF,0x00
"SPI","result",17.3288097,0.000915666667,0xFF,0x00
"SPI","result",17.3299695,0.000915625,0xFF,0x00
"SPI","result",17.3311294,0.000915666667,0xFF,0x00
"SPI","result",17.3322892,0.000915666667,0xFF,0x00
"SPI","result",17.3334491,0.000915666667,0xFF,0x00
"SPI","result",17.334609,0.000915666667,0xFF,0x00
"SPI","result",17.3357688,0.000915666667,0xFF,0x00
"SPI","result",17.3369287,0.000915666667,0xFF,0x00
"SPI","result",17.3380886,0.000915666667,0xFF,0x00
"SPI","result",17.3392485,0.000915666667,0xFF,0x00
"SPI","result",17.3404083,0.000915625,0xFF,0x00
"SPI","result",17.3415682,0.000915666667,0xFF,0x00
"SPI","result",17.342728,0.000915666667,0xFF,0x00
"SPI","result",17.3438879,0.000915666667,0xFF,0x00
"SPI","result",17.3450478,0.000915666667,0xFF,0x00
"SPI","result",17.3462076,0.000915666667,0xFF,0x00
"SPI","result",17.3473675,0.000915666667,0xFF,0x00
"SPI","result",17.3485274,0.000915666667,0xFF,0x00
"SPI","result",17.3496872,0.000915666667,0xFF,0x00
"SPI","result",17.3508471,0.000915625,0xFF,0x00
"SPI","result",17.352007,0.000915666667,0xFF,0x00
"SPI","result",17.3531668,0.000915666667,0xFF,0x00
"SPI","result",17.3543267,0.000915666667,0xFF,0x00
"SPI","result",17.3554866,0.000915666667,0xFF,0x00
"SPI","result",17.3566464,0.000915666667,0xFF,0x00
"SPI","result",17.3578063,0.000915666667,0xFF,0x00
"SPI","result",17.3589662,0.000915666667,0xFF,0x00
"SPI","result",17.360126,0.000915666667,0xFF,0x00
"SPI","result",17.3612859,0.000915625,0xFF,0x00
"SPI","result",17.3624457,0.000915666667,0xFF,0x00
"SPI","result",17.3636056,0.000915666667,0xFF,0x00
"SPI","result",17.3647655,0.000915666667,0xFF,0x00
"SPI","result",17.3659254,0.000915666667,0xFF,0x00
"SPI","result",17.3670852,0.000915666667,0xFF,0x00
"SPI","result",17.3682451,0.000915666667,0xFF,0x00
"SPI","result",17.3693439,0.000915666667,0xD6,0x00
"SPI","result",17.3704427,0.000915625,0x4D,0x00
"SPI","result",17.3715415,0.000915666667,0x00,0x81
"SPI","result",17.3726404,0.000915666667,0x00,0x08
"SPI","result",17.4036515,0.000915625,0x88,0x00
"SPI","result",17.4047503,0.000915666667,0x33,0x00
"SPI","result",17.4059102,0.000915666667,0x0F,0x00
"SPI","result",17.40707,0.000915708333,0x00,0x00
"SPI","result",17.4082299,0.000915666667,0x00,0x00
"SPI","result",17.4093898,0.000915666667,0x00,0x00
"SPI","result",17.4105497,0.000915666667,0x0F,0x00
"SPI","result",17.4117095,0.000915666667,0x00,0x00
"SPI","result",17.4128694,0.000915625,0x00,0x81
"SPI","result",17.4140292,0.000915666667,0x00,0x00
"SPI","result",17.4238576,0.000915625,0x88,0x00
"SPI","result",17.4249564,0.000915666667,0x33,0x00
"SPI","result",17.4261163,0.000915666667,0x04,0x00
"SPI","result",17.4272762,0.000915666667,0x00,0x00
"SPI","result",17.428436,0.000915625,0x80,0x00
"SPI","result",17.4295959,0.000915666667,0x02,0x00
"SPI","result",17.4307557,0.000915666667,0xFF,0x00
"SPI","result",17.4319156,0.000915666667,0xFF,0x00
"SPI","result",17.4330755,0.000915625,0xFF,0x00
"SPI","result",17.4342353,0.000915666667,0xFF,0x00
"SPI","result",17.4353952,0.000915666667,0xFF,0x00
"SPI","result",17.4365551,0.000915666667,0xFF,0x00
"SPI","result",17.437715,0.000915666667,0xFF,0x00
"SPI","result",17.4388748,0.000915666667,0xFF,0x00
"SPI","result",17.4400347,0.000915666667,0xFF,0x00
"SPI","result",17.4411945,0.000915666667,0xFF,0x00
"SPI","result",17.4423544,0.000915666667,0xFF,0x00
"SPI","result",17.4435143,0.000915625,0xFF,0x00
"SPI","result",17.4446741,0.000915666667,0xFF,0x00
"SPI","result",17.445834,0.000915666667,0xFF,0x00
"SPI","result",17.4469939,0.000915666667,0xFF,0x00
"SPI","result",17.4481537,0.000915666667,0xFF,0x00
"SPI","result",17.4493136,0.000915666667,0xFF,0x00
"SPI","result",17.4504735,0.000915666667,0xFF,0x00
"SPI","result",17.4516333,0.000915666667,0xFF,0x00
"SPI","result",17.4527932,0.000915666667,0xFF,0x00
"SPI","result",17.4539531,0.000915625,0xFF,0x00
"SPI","result",17.4551129,0.000915666667,0xFF,0x00
"SPI","result",17.4562728,0.000915666667,0xFF,0x00
"SPI","result",17.4574327,0.000915666667,0xFF,0x00
"SPI","result",17.4585925,0.000915666667,0xFF,0x00
"SPI","result",17.4597524,0.000915666667,0xFF,0x00
"SPI","result",17.4609122,0.000915666667,0xFF,0x00
"SPI","result",17.4620721,0.000915666667,0xFF,0x00
"SPI","result",17.463232,0.000915666667,0xFF,0x00
"SPI","result",17.4643918,0.000915666667,0xFF,0x00
"SPI","result",17.4655517,0.000915666667,0xFF,0x00
"SPI","result",17.4667116,0.000915666667,0xFF,0x00
"SPI","result",17.4678715,0.000915666667,0xFF,0x00
"SPI","result",17.4690313,0.000915666667,0xFF,0x00
"SPI","result",17.4702522,0.000915666667,0xFF,0x00
"SPI","result",17.4714121,0.000915666667,0xFF,0x00
"SPI","result",17.472572,0.000915666667,0xFF,0x00
"SPI","result",17.4737318,0.000915666667,0xFF,0x00
"SPI","result",17.4748917,0.000915625,0xFF,0x00
"SPI","result",17.4760515,0.000915666667,0xFF,0x00
"SPI","result",17.4772114,0.000915666667,0xFF,0x00
"SPI","result",17.4783713,0.000915666667,0xFF,0x00
"SPI","result",17.4795312,0.000915666667,0xFF,0x00
"SPI","result",17.480691,0.000915666667,0xFF,0x00
"SPI","result",17.4818509,0.000915666667,0xFF,0x00
"SPI","result",17.4830107,0.000915666667,0xFF,0x00
"SPI","result",17.4841706,0.000915666667,0xFF,0x00
"SPI","result",17.4853305,0.000915625,0xFF,0x00
"SPI","result",17.4864903,0.000915666667,0xFF,0x00
"SPI","result",17.4876502,0.000915666667,0xFF,0x00
"SPI","result",17.4888101,0.000915666667,0xFF,0x00
"SPI","result",17.48997,0.000915666667,0xFF,0x00
"SPI","result",17.4911298,0.000915666667,0xFF,0x00
"SPI","result",17.4922897,0.000915666667,0xFF,0x00
"SPI","result",17.4934495,0.000915666667,0xFF,0x00
"SPI","result",17.4946094,0.000915666667,0xFF,0x00
"SPI","result",17.4957693,0.000915625,0xFF,0x00
"SPI","result",17.4969291,0.000915666667,0xFF,0x00
"SPI","result",17.498089,0.000915666667,0xFF,0x00
"SPI","result",17.4992489,0.000915666667,0xFF,0x00
"SPI","result",17.5004087,0.000915666667,0xFF,0x00
"SPI","result",17.5015686,0.000915666667,0xFF,0x00
"SPI","result",17.5027285,0.000915666667,0xFF,0x00
"SPI","result",17.5038883,0.000915666667,0xFF,0x00
"SPI","result",17.5050482,0.000915666667,0xFF,0x00
"SPI","result",17.5062081,0.000915625,0xFF,0x00
"SPI","result",17.5073679,0.000915666667,0xFF,0x00
"SPI","result",17.5085278,0.000915666667,0xFF,0x00
"SPI","result",17.5096877,0.000915666667,0xFF,0x00
"SPI","result",17.5108475,0.000915666667,0xFF,0x00
"SPI","result",17.5120074,0.000915666667,0xFF,0x00
"SPI","result",17.5131672,0.000915666667,0xFF,0x00
"SPI","result",17.5143271,0.000915666667,0xFF,0x00
"SPI","result",17.515487,0.000915666667,0xFF,0x00
"SPI","result",17.5166469,0.000915625,0xFF,0x00
"SPI","result",17.5178067,0.000915666667,0xFF,0x00
"SPI","result",17.5189666,0.000915666667,0xFF,0x00
"SPI","result",17.5201265,0.000915666667,0xFF,0x00
"SPI","result",17.5212863,0.000915666667,0xFF,0x00
"SPI","result",17.5224462,0.000915666667,0xFF,0x00
"SPI","result",17.523606,0.000915666667,0xFF,0x00
"SPI","result",17.5247659,0.000915666667,0xFF,0x00
"SPI","result",17.5259258,0.000915666667,0xFF,0x00
"SPI","result",17.5270857,0.000915625,0xFF,0x00
"SPI","result",17.5282455,0.000915666667,0xFF,0x00
"SPI","result",17.5294054,0.000915666667,0xFF,0x00
"SPI","result",17.5305652,0.000915666667,0xFF,0x00
"SPI","result",17.5317251,0.000915666667,0xFF,0x00
"SPI","result",17.532885,0.000915666667,0xFF,0x00
"SPI","result",17.5340448,0.000915666667,0xFF,0x00
"SPI","result",17.5352047,0.000915666667,0xFF,0x00
"SPI","result",17.5363646,0.000915666667,0xFF,0x00
"SPI","result",17.5375245,0.000915625,0xFF,0x00
"SPI","result",17.5386843,0.000915666667,0xFF,0x00
"SPI","result",17.5398442,0.000915666667,0xFF,0x00
"SPI","result",17.541004,0.000915666667,0xFF,0x00
"SPI","result",17.5421639,0.000915666667,0xFF,0x00
"SPI","result",17.5433237,0.000915666667,0xFF,0x00
"SPI","result",17.5444836,0.000915666667,0xFF,0x00
"SPI","result",17.5456435,0.000915666667,0xFF,0x00
"SPI","result",17.5468034,0.000915666667,0xFF,0x00
"SPI","result",17.5479632,0.000915625,0xFF,0x00
"SPI","result",17.5491231,0.000915666667,0xFF,0x00
"SPI","result",17.550283,0.000915666667,0xFF,0x00
"SPI","result",17.5514428,0.000915666667,0xFF,0x00
"SPI","result",17.5526027,0.000915666667,0xFF,0x00
"SPI","result",17.5537625,0.000915666667,0xFF,0x00
"SPI","result",17.5549224,0.000915666667,0xFF,0x00
"SPI","result",17.5560823,0.000915666667,0xFF,0x00
"SPI","result",17.5572422,0.000915666667,0xFF,0x00
"SPI","result",17.558402,0.000915625,0xFF,0x00
"SPI","result",17.5595619,0.000915666667,0xFF,0x00
"SPI","result",17.5607217,0.000915666667,0x25,0x00
"SPI","result",17.5618816,0.000915666667,0xD0,0x00
"SPI","result",17.5630415,0.000915666667,0xE1,0x00
"SPI","result",17.5642013,0.000915666667,0xFE,0x00
"SPI","result",17.5653612,0.000915666667,0xF4,0x00
"SPI","result",17.5665211,0.000915666667,0xFF,0x00
"SPI","result",17.567681,0.000915666667,0xFF,0x00
"SPI","result",17.5688408,0.000915666667,0xFF,0x00
"SPI","result",17.5700007,0.000915666667,0xFF,0x00
"SPI","result",17.5711605,0.000915666667,0xFF,0x00
"SPI","result",17.5723204,0.000915666667,0xCF,0x00
"SPI","result",17.5734803,0.000915666667,0xFF,0x00
"SPI","result",17.5746401,0.000915666667,0xD5,0x00
"SPI","result",17.5758,0.000915666667,0xFF,0x00
"SPI","result",17.5769599,0.000915666667,0xC2,0x00
"SPI","result",17.5781197,0.000915666667,0xFF,0x00
"SPI","result",17.5792796,0.000915666667,0x67,0x00
"SPI","result",17.5804395,0.000915666667,0x1F,0x00
"SPI","result",17.5815993,0.000915666667,0xCF,0x00
"SPI","result",17.5827592,0.000915666667,0x3F,0x00
"SPI","result",17.583919,0.000915666667,0x5F,0x00
"SPI","result",17.5850789,0.000915666667,0xFF,0x00
"SPI","result",17.5862388,0.000915666667,0xFF,0x00
"SPI","result",17.5874597,0.000915666667,0xFF,0x00
"SPI","result",17.5886196,0.000915666667,0xFF,0x00
"SPI","result",17.5897795,0.000915666667,0xFF,0x00
"SPI","result",17.5909393,0.000915666667,0xFF,0x00
"SPI","result",17.5920992,0.000915666667,0xFF,0x00
"SPI","result",17.593259,0.000915666667,0xFF,0x00
"SPI","result",17.5944189,0.000915666667,0xFF,0x00
"SPI","result",17.5955788,0.000915666667,0x7F,0x00
"SPI","result",17.5967386,0.000915666667,0xFF,0x00
"SPI","result",17.5978985,0.000915666667,0xFF,0x00
"SPI","result",17.5990584,0.000915666667,0xFF,0x00
"SPI","result",17.6002183,0.000915625,0xFF,0x00
"SPI","result",17.6013781,0.000915666667,0xFF,0x00
"SPI","result",17.602538,0.000915666667,0xFF,0x00
"SPI","result",17.6036978,0.000915666667,0xFF,0x00
"SPI","result",17.6048577,0.000915666667,0xFF,0x00
"SPI","result",17.6060175,0.000915666667,0xFF,0x00
"SPI","result",17.6071774,0.000915666667,0xF1,0x00
"SPI","result",17.6083373,0.000915666667,0xFF,0x00
"SPI","result",17.6094972,0.000915666667,0xF4,0x00
"SPI","result",17.610657,0.000915625,0xFB,0x00
"SPI","result",17.6118169,0.000915666667,0xCE,0x00
"SPI","result",17.6129768,0.000915666667,0xF1,0x00
"SPI","result",17.6141366,0.000915666667,0xCE,0x00
"SPI","result",17.6152965,0.000915666667,0xF1,0x00
"SPI","result",17.6164563,0.000915666667,0x55,0x00
"SPI","result",17.6176162,0.000915666667,0xFF,0x00
"SPI","result",17.6187761,0.000915666667,0xF8,0x00
"SPI","result",17.619936,0.000915666667,0xFF,0x00
"SPI","result",17.6210958,0.000915625,0xFF,0x00
"SPI","result",17.6222557,0.000915666667,0xFF,0x00
"SPI","result",17.6234155,0.000915666667,0xFF,0x00
"SPI","result",17.6245754,0.000915666667,0xFF,0x00
"SPI","result",17.6257353,0.000915666667,0xF7,0x00
"SPI","result",17.6268951,0.000915666667,0xFF,0x00
"SPI","result",17.628055,0.000915666667,0xFF,0x00
"SPI","result",17.6292149,0.000915666667,0xFF,0x00
"SPI","result",17.6303748,0.000915666667,0x55,0x00
"SPI","result",17.6315346,0.000915625,0xFF,0x00
"SPI","result",17.6326945,0.000915666667,0x7E,0x00
"SPI","result",17.6338543,0.000915666667,0xFF,0x00
"SPI","result",17.6350142,0.000915666667,0x57,0x00
"SPI","result",17.6361741,0.000915666667,0xFF,0x00
"SPI","result",17.6373339,0.000915666667,0x3F,0x00
"SPI","result",17.6384938,0.000915666667,0xFF,0x00
"SPI","result",17.6396537,0.000915666667,0xFF,0x00
"SPI","result",17.6408135,0.000915666667,0xFF,0x00
"SPI","result",17.6419734,0.000915625,0xFF,0x00
"SPI","result",17.6431333,0.000915666667,0xFF,0x00
"SPI","result",17.6442931,0.000915666667,0xFF,0x00
"SPI","result",17.645453,0.000915666667,0xFF,0x00
"SPI","result",17.6466129,0.000915666667,0xFF,0x00
"SPI","result",17.6477727,0.000915666667,0xFF,0x00
"SPI","result",17.6489326,0.000915666667,0xDF,0x00
"SPI","result",17.6500925,0.000915666667,0xFF,0x00
"SPI","result",17.6512523,0.000915666667,0xFF,0x00
"SPI","result",17.6524122,0.000915625,0xFF,0x00
"SPI","result",17.653572,0.000915666667,0xFF,0x00
"SPI","result",17.6547319,0.000915666667,0xFF,0x00
"SPI","result",17.6558918,0.000915666667,0xFF,0x00
"SPI","result",17.6570517,0.000915666667,0xFF,0x00
"SPI","result",17.6582115,0.000915666667,0xFF,0x00
"SPI","result",17.6593714,0.000915666667,0xFF,0x00
"SPI","result",17.6605312,0.000915666667,0xCF,0x00
"SPI","result",17.6616911,0.000915666667,0xFF,0x00
"SPI","result",17.662851,0.000915625,0xBF,0x00
"SPI","result",17.6640108,0.000915666667,0xDF,0x00
"SPI","result",17.6651707,0.000915666667,0x8F,0x00
"SPI","result",17.6663306,0.000915666667,0xFF,0x00
"SPI","result",17.6674905,0.000915666667,0x9F,0x00
"SPI","result",17.6686503,0.000915666667,0xFF,0x00
"SPI","result",17.6698102,0.000915666667,0xCF,0x00
"SPI","result",17.67097,0.000915666667,0xFF,0x00
"SPI","result",17.6721299,0.000915666667,0xF7,0x00
"SPI","result",17.6732897,0.000915666667,0xFF,0x00
"SPI","result",17.6744496,0.000915666667,0xFB,0x00
"SPI","result",17.6756095,0.000915666667,0xFF,0x00
"SPI","result",17.6767694,0.000915666667,0xFF,0x00
"SPI","result",17.6779292,0.000915666667,0xFF,0x00
"SPI","result",17.6790891,0.000915666667,0xFF,0x00
"SPI","result",17.680249,0.000915666667,0xFF,0x00
"SPI","result",17.6814088,0.000915666667,0xF7,0x00
"SPI","result",17.6825687,0.000915666667,0xFF,0x00
"SPI","result",17.6837285,0.000915666667,0xFF,0x00
"SPI","result",17.6848884,0.000915666667,0xFF,0x00
"SPI","result",17.6860483,0.000915666667,0xFF,0x00
"SPI","result",17.6872082,0.000915666667,0xFF,0x00
"SPI","result",17.688368,0.000915666667,0xFF,0x00
"SPI","result",17.6895279,0.000915666667,0xFF,0x00
"SPI","result",17.6906877,0.000915666667,0xFF,0x00
"SPI","result",17.6918476,0.000915666667,0xFF,0x00
"SPI","result",17.6930075,0.000915666667,0xFF,0x00
"SPI","result",17.6941673,0.000915666667,0xFF,0x00
"SPI","result",17.6953272,0.000915666667,0xFF,0x00
"SPI","result",17.6964871,0.000915666667,0xFF,0x00
"SPI","result",17.697647,0.000915666667,0xFF,0x00
"SPI","result",17.6988068,0.000915625,0xFF,0x00
"SPI","result",17.6999667,0.000915666667,0xFF,0x00
"SPI","result",17.7011265,0.000915666667,0xFF,0x00
"SPI","result",17.7022864,0.000915666667,0xFF,0x00
"SPI","result",17.7034463,0.000915666667,0xFF,0x00
"SPI","result",17.7046672,0.000915625,0xFF,0x00
"SPI","result",17.705827,0.000915666667,0xFF,0x00
"SPI","result",17.7069869,0.000915666667,0xFF,0x00
"SPI","result",17.7081468,0.000915666667,0xFF,0x00
"SPI","result",17.7093067,0.000915666667,0xFF,0x00
"SPI","result",17.7104665,0.000915666667,0xFF,0x00
"SPI","result",17.7116264,0.000915666667,0xFF,0x00
"SPI","result",17.7127863,0.000915666667,0xFF,0x00
"SPI","result",17.7139461,0.000915666667,0xFF,0x00
"SPI","result",17.715106,0.000915625,0xFF,0x00
"SPI","result",17.7162658,0.000915666667,0xFF,0x00
"SPI","result",17.7174257,0.000915666667,0xFF,0x00
"SPI","result",17.7185856,0.000915666667,0xFF,0x00
"SPI","result",17.7197455,0.000915666667,0xFF,0x00
"SPI","result",17.7209053,0.000915666667,0xFF,0x00
"SPI","result",17.7220652,0.000915666667,0xFF,0x00
"SPI","result",17.723225,0.000915666667,0xFF,0x00
"SPI","result",17.7243849,0.000915666667,0xFF,0x00
"SPI","result",17.7255448,0.000915625,0xFF,0x00
"SPI","result",17.7267046,0.000915666667,0xFF,0x00
"SPI","result",17.7278645,0.000915666667,0xFF,0x00
"SPI","result",17.7290244,0.000915666667,0xFF,0x00
"SPI","result",17.7301843,0.000915666667,0xFF,0x00
"SPI","result",17.7313441,0.000915666667,0xFF,0x00
"SPI","result",17.732504,0.000915666667,0xFF,0x00
"SPI","result",17.7336638,0.000915666667,0xFF,0x00
"SPI","result",17.7348237,0.000915666667,0xFF,0x00
"SPI","result",17.7359836,0.000915625,0xFF,0x00
"SPI","result",17.7371434,0.000915666667,0xFF,0x00
"SPI","result",17.7383033,0.000915666667,0xFF,0x00
"SPI","result",17.7394632,0.000915666667,0xFF,0x00
"SPI","result",17.740623,0.000915666667,0xFF,0x00
"SPI","result",17.7417829,0.000915666667,0xFF,0x00
"SPI","result",17.7429428,0.000915666667,0xFF,0x00
"SPI","result",17.7441026,0.000915666667,0xFF,0x00
"SPI","result",17.7452625,0.000915666667,0xFF,0x00
"SPI","result",17.7464224,0.000915625,0xFF,0x00
"SPI","result",17.7475822,0.000915666667,0xFF,0x00
"SPI","result",17.7487421,0.000915666667,0xFF,0x00
"SPI","result",17.749902,0.000915666667,0xFF,0x00
"SPI","result",17.7510618,0.000915666667,0xFF,0x00
"SPI","result",17.7522217,0.000915666667,0xFF,0x00
"SPI","result",17.7533815,0.000915666667,0xFF,0x00
"SPI","result",17.7545414,0.000915666667,0xFF,0x00
"SPI","result",17.7557013,0.000915666667,0xFF,0x00
"SPI","result",17.7568612,0.000915625,0xFF,0x00
"SPI","result",17.758021,0.000915666667,0xFF,0x00
"SPI","result",17.7591809,0.000915666667,0xFF,0x00
"SPI","result",17.7603408,0.000915666667,0xFF,0x00
"SPI","result",17.7615006,0.000915666667,0xFF,0x00
"SPI","result",17.7626605,0.000915666667,0xFF,0x00
"SPI","result",17.7638203,0.000915666667,0xFF,0x00
"SPI","result",17.7649802,0.000915666667,0xFF,0x00
"SPI","result",17.7661401,0.000915666667,0xFF,0x00
"SPI","result",17.7673,0.000915625,0xFF,0x00
"SPI","result",17.7684598,0.000915666667,0xFF,0x00
"SPI","result",17.7696197,0.000915666667,0xFF,0x00
"SPI","result",17.7707795,0.000915666667,0xFF,0x00
"SPI","result",17.7719394,0.000915666667,0xFF,0x00
"SPI","result",17.7730993,0.000915666667,0xFF,0x00
"SPI","result",17.7742591,0.000915666667,0xFF,0x00
"SPI","result",17.775419,0.000915666667,0xFF,0x00
"SPI","result",17.7765789,0.000915666667,0xFF,0x00
"SPI","result",17.7777387,0.000915666667,0xFF,0x00
"SPI","result",17.7788986,0.000915666667,0xFF,0x00
"SPI","result",17.7800585,0.000915666667,0xFF,0x00
"SPI","result",17.7812183,0.000915666667,0xFF,0x00
"SPI","result",17.7823782,0.000915625,0xFF,0x00
"SPI","result",17.783538,0.000915666667,0xFF,0x00
"SPI","result",17.7846979,0.000915666667,0xFF,0x00
"SPI","result",17.7858578,0.000915666667,0xFF,0x00
"SPI","result",17.7870177,0.000915666667,0xFF,0x00
"SPI","result",17.7881775,0.000915666667,0xFF,0x00
"SPI","result",17.7893374,0.000915666667,0xFF,0x00
"SPI","result",17.7904973,0.000915666667,0xFF,0x00
"SPI","result",17.7916571,0.000915666667,0xFF,0x00
"SPI","result",17.792817,0.000915666667,0xFF,0x00
"SPI","result",17.7939768,0.000915666667,0xFF,0x00
"SPI","result",17.7951367,0.000915666667,0xFF,0x00
"SPI","result",17.7962966,0.000915666667,0xFF,0x00
"SPI","result",17.7974565,0.000915666667,0xFF,0x00
"SPI","result",17.7986163,0.000915666667,0xFF,0x00
"SPI","result",17.7997762,0.000915666667,0xFF,0x00
"SPI","result",17.800936,0.000915666667,0xFF,0x00
"SPI","result",17.8020959,0.000915666667,0xFF,0x00
"SPI","result",17.8032558,0.000915625,0xFF,0x00
"SPI","result",17.8044156,0.000915666667,0xFF,0x00
"SPI","result",17.8055755,0.000915666667,0xFF,0x00
"SPI","result",17.8067354,0.000915666667,0xFF,0x00
"SPI","result",17.8078953,0.000915666667,0xFF,0x00
"SPI","result",17.8090551,0.000915666667,0xFF,0x00
"SPI","result",17.810215,0.000915666667,0xFF,0x00
"SPI","result",17.8113748,0.000915666667,0xFF,0x00
"SPI","result",17.8125347,0.000915666667,0xFF,0x00
"SPI","result",17.8136946,0.000915625,0xFF,0x00
"SPI","result",17.8148544,0.000915666667,0xFF,0x00
"SPI","result",17.8160143,0.000915666667,0xFF,0x00
"SPI","result",17.8171742,0.000915666667,0xFF,0x00
"SPI","result",17.818334,0.000915666667,0xFF,0x00
"SPI","result",17.8194939,0.000915666667,0xFF,0x00
"SPI","result",17.8206538,0.000915666667,0xFF,0x00
"SPI","result",17.8219357,0.000915666667,0xFF,0x00
"SPI","result",17.8230956,0.000915666667,0xFF,0x00
"SPI","result",17.8242555,0.000915666667,0xFF,0x00
"SPI","result",17.8254153,0.000915625,0xFF,0x00
"SPI","result",17.8265752,0.000915666667,0xFF,0x00
"SPI","result",17.827735,0.000915666667,0xFF,0x00
"SPI","result",17.8288949,0.000915666667,0xFF,0x00
"SPI","result",17.8300548,0.000915666667,0xFF,0x00
"SPI","result",17.8312146,0.000915666667,0xFF,0x00
"SPI","result",17.8323745,0.000915666667,0xFF,0x00
"SPI","result",17.8335344,0.000915666667,0xFF,0x00
"SPI","result",17.8346942,0.000915666667,0xFF,0x00
"SPI","result",17.8358541,0.000915625,0xFF,0x00
"SPI","result",17.837014,0.000915666667,0xFF,0x00
"SPI","result",17.8381738,0.000915666667,0xFF,0x00
"SPI","result",17.8393337,0.000915666667,0xFF,0x00
"SPI","result",17.8404936,0.000915666667,0xFF,0x00
"SPI","result",17.8416534,0.000915666667,0xFF,0x00
"SPI","result",17.8428133,0.000915666667,0xFF,0x00
"SPI","result",17.8439732,0.000915666667,0xFF,0x00
"SPI","result",17.845133,0.000915666667,0xFF,0x00
"SPI","result",17.8462929,0.000915625,0xFF,0x00
"SPI","result",17.8474527,0.000915666667,0xFF,0x00
"SPI","result",17.8486126,0.000915666667,0xFF,0x00
"SPI","result",17.8497725,0.000915666667,0xFF,0x00
"SPI","result",17.8509324,0.000915666667,0xFF,0x00
"SPI","result",17.8520922,0.000915666667,0xFF,0x00
"SPI","result",17.8532521,0.000915666667,0xFF,0x00
"SPI","result",17.854412,0.000915666667,0xFF,0x00
"SPI","result",17.8555718,0.000915666667,0xFF,0x00
"SPI","result",17.8567317,0.000915666667,0xFF,0x00
"SPI","result",17.8578915,0.000915666667,0xFF,0x00
"SPI","result",17.8590514,0.000915666667,0xFF,0x00
"SPI","result",17.8602113,0.000915666667,0xFF,0x00
"SPI","result",17.8613712,0.000915666667,0xFF,0x00
"SPI","result",17.862531,0.000915666667,0xFF,0x00
"SPI","result",17.8636909,0.000915666667,0xFF,0x00
"SPI","result",17.8648507,0.000915666667,0xFF,0x00
"SPI","result",17.8660106,0.000915666667,0xFF,0x00
"SPI","result",17.8671705,0.000915666667,0xFF,0x00
"SPI","result",17.8683303,0.000915666667,0xFF,0x00
"SPI","result",17.8694902,0.000915666667,0xFF,0x00
"SPI","result",17.8706501,0.000915666667,0xFF,0x00
"SPI","result",17.87181,0.000915666667,0xFF,0x00
"SPI","result",17.8729698,0.000915666667,0xFF,0x00
"SPI","result",17.8741297,0.000915666667,0xFF,0x00
"SPI","result",17.8752895,0.000915666667,0xFF,0x00
"SPI","result",17.8764494,0.000915666667,0xFF,0x00
"SPI","result",17.8776092,0.000915666667,0xFF,0x00
"SPI","result",17.8787691,0.000915666667,0xFF,0x00
"SPI","result",17.879929,0.000915666667,0xFF,0x00
"SPI","result",17.8810889,0.000915666667,0xFF,0x00
"SPI","result",17.8822487,0.000915625,0xFF,0x00
"SPI","result",17.8834086,0.000915666667,0xFF,0x00
"SPI","result",17.8845685,0.000915666667,0xFF,0x00
"SPI","result",17.8857283,0.000915666667,0xFF,0x00
"SPI","result",17.8868882,0.000915666667,0xFF,0x00
"SPI","result",17.888048,0.000915666667,0xFF,0x00
"SPI","result",17.8892079,0.000915666667,0xFF,0x00
"SPI","result",17.8903678,0.000915666667,0xFF,0x00
"SPI","result",17.8915277,0.000915666667,0xFF,0x00
"SPI","result",17.8926875,0.000915625,0xFF,0x00
"SPI","result",17.8938474,0.000915666667,0xFF,0x00
"SPI","result",17.8950072,0.000915666667,0xFF,0x00
"SPI","result",17.8961671,0.000915666667,0xFF,0x00
"SPI","result",17.897327,0.000915666667,0xFF,0x00
"SPI","result",17.8984868,0.000915666667,0xFF,0x00
"SPI","result",17.8996467,0.000915666667,0xFF,0x00
"SPI","result",17.9008066,0.000915666667,0xFF,0x00
"SPI","result",17.9019665,0.000915666667,0xFF,0x00
"SPI","result",17.9031263,0.000915625,0xFF,0x00
"SPI","result",17.9042862,0.000915666667,0xFF,0x00
"SPI","result",17.905446,0.000915666667,0xFF,0x00
"SPI","result",17.9066059,0.000915666667,0xFF,0x00
"SPI","result",17.9077658,0.000915666667,0xFF,0x00
"SPI","result",17.9089256,0.000915666667,0xFF,0x00
"SPI","result",17.9100855,0.000915666667,0xFF,0x00
"SPI","result",17.9112454,0.000915666667,0xFF,0x00
"SPI","result",17.9124052,0.000915666667,0xFF,0x00
"SPI","result",17.9135651,0.000915625,0xFF,0x00
"SPI","result",17.914725,0.000915666667,0xFF,0x00
"SPI","result",17.9158848,0.000915666667,0xFF,0x00
"SPI","result",17.9170447,0.000915666667,0xFF,0x00
"SPI","result",17.9182046,0.000915666667,0xFD,0x00
"SPI","result",17.9193644,0.000915666667,0xFF,0x00
"SPI","result",17.9205243,0.000915666667,0xFE,0x00
"SPI","result",17.9216842,0.000915666667,0xFF,0x00
"SPI","result",17.922844,0.000915666667,0xFD,0x00
"SPI","result",17.9240039,0.000915625,0xFF,0x00
"SPI","result",17.9251637,0.000915666667,0xFC,0x00
"SPI","result",17.9263236,0.000915666667,0xFF,0x00
"SPI","result",17.9274835,0.000915666667,0xFD,0x00
"SPI","result",17.9286434,0.000915666667,0xFF,0x00
"SPI","result",17.9298032,0.000915666667,0xFE,0x00
"SPI","result",17.9309631,0.000915666667,0xFF,0x00
"SPI","result",17.932123,0.000915666667,0x51,0x00
"SPI","result",17.9332828,0.000915666667,0xFF,0x00
"SPI","result",17.9344427,0.000915666667,0x01,0x00
"SPI","result",17.9356025,0.000915666667,0xFF,0x00
"SPI","result",17.9367624,0.000915666667,0x11,0x00
"SPI","result",17.9379223,0.000915666667,0xFF,0x00
"SPI","result",17.9391432,0.000915666667,0x00,0x00
"SPI","result",17.9403031,0.000915625,0xFF,0x00
"SPI","result",17.9414629,0.000915666667,0x08,0x00
"SPI","result",17.9426228,0.000915666667,0xF7,0x00
"SPI","result",17.9437827,0.000915666667,0x00,0x00
"SPI","result",17.9449425,0.000915666667,0xFF,0x00
"SPI","result",17.9461024,0.000915666667,0x0A,0x00
"SPI","result",17.9472623,0.000915666667,0xF5,0x00
"SPI","result",17.9484221,0.000915666667,0x00,0x00
"SPI","result",17.949582,0.000915666667,0xFF,0x00
"SPI","result",17.9507418,0.000915666667,0x57,0x00
"SPI","result",17.9519017,0.000915666667,0xFF,0x00
"SPI","result",17.9530616,0.000915666667,0x3E,0x00
"SPI","result",17.9542215,0.000915666667,0xFF,0x00
"SPI","result",17.9553813,0.000915708333,0x55,0x00
"SPI","result",17.9565412,0.000915666667,0xFF,0x00
"SPI","result",17.957701,0.000915666667,0x00,0x00
"SPI","result",17.9588609,0.000915666667,0xFF,0x00
"SPI","result",17.9600208,0.000915666667,0x90,0x00
"SPI","result",17.9611806,0.000915666667,0x7F,0x00
"SPI","result",17.9623405,0.000915666667,0x00,0x00
"SPI","result",17.9635004,0.000915666667,0xFF,0x00
"SPI","result",17.9646603,0.000915666667,0xAA,0x00
"SPI","result",17.9658201,0.000915625,0x55,0x00
"SPI","result",17.96698,0.000915666667,0x02,0x00
"SPI","result",17.9681398,0.000915666667,0xFD,0x00
"SPI","result",17.9692997,0.000915666667,0x4A,0x00
"SPI","result",17.9704596,0.000915666667,0xF5,0x00
"SPI","result",17.9716194,0.000915666667,0x31,0x00
"SPI","result",17.9727793,0.000915666667,0xFF,0x00
"SPI","result",17.9739392,0.000915666667,0x5F,0x00
"SPI","result",17.975099,0.000915666667,0xFF,0x00
"SPI","result",17.9762589,0.000915708333,0x04,0x00
"SPI","result",17.9774188,0.000915625,0xFF,0x00
"SPI","result",17.9785786,0.000915666667,0xAB,0x00
"SPI","result",17.9797385,0.000915666667,0x55,0x00
"SPI","result",17.9808984,0.000915666667,0x00,0x00
"SPI","result",17.9820583,0.000915625,0xFF,0x00
"SPI","result",17.9832181,0.000915666667,0x8A,0x00
"SPI","result",17.984378,0.000915666667,0x75,0x00
"SPI","result",17.9855378,0.000915666667,0x00,0x00
"SPI","result",17.9866977,0.000915625,0xFF,0x00
"SPI","result",17.9878575,0.000915666667,0x55,0x00
"SPI","result",17.9890174,0.000915666667,0xFF,0x00
"SPI","result",17.9901773,0.000915666667,0xA3,0x00
"SPI","result",17.9913372,0.000915666667,0xFF,0x00
"SPI","result",17.992497,0.000915666667,0x55,0x00
"SPI","result",17.9936569,0.000915666667,0xFF,0x00
"SPI","result",17.9948167,0.000915666667,0x02,0x00
"SPI","result",17.9959766,0.000915666667,0xFF,0x00
"SPI","result",17.9971365,0.000915625,0xD5,0x00
"SPI","result",17.9982963,0.000915666667,0x7F,0x00
"SPI","result",17.9994562,0.000915666667,0x02,0x00
"SPI","result",18.0006161,0.000915666667,0xFF,0x00
"SPI","result",18.001776,0.000915666667,0x15,0x00
"SPI","result",18.0029358,0.000915666667,0xFF,0x00
"SPI","result",18.0040957,0.000915666667,0x04,0x00
"SPI","result",18.0052555,0.000915666667,0xFF,0x00
"SPI","result",18.0064154,0.000915666667,0x57,0x00
"SPI","result",18.0075753,0.000915625,0xFF,0x00
"SPI","result",18.0087351,0.000915666667,0xFF,0x00
"SPI","result",18.009895,0.000915666667,0xFF,0x00
"SPI","result",18.0110549,0.000915666667,0x55,0x00
"SPI","result",18.0122147,0.000915666667,0xFF,0x00
"SPI","result",18.0133746,0.000915666667,0xFF,0x00
"SPI","result",18.0145345,0.000915666667,0xFF,0x00
"SPI","result",18.0156943,0.000915666667,0x55,0x00
"SPI","result",18.0168542,0.000915666667,0xFF,0x00
"SPI","result",18.0180141,0.000915625,0xB2,0x00
"SPI","result",18.0191739,0.000915666667,0xFF,0x00
"SPI","result",18.0203338,0.000915666667,0x55,0x00
"SPI","result",18.0214937,0.000915666667,0xFF,0x00
"SPI","result",18.0226535,0.000915666667,0x8A,0x00
"SPI","result",18.0238134,0.000915625,0xFF,0x00
"SPI","result",18.0249732,0.000915666667,0xFF,0x00
"SPI","result",18.0261331,0.000915666667,0xFF,0x00
"SPI","result",18.027293,0.000915666667,0xFF,0x00
"SPI","result",18.0284529,0.000915625,0xFF,0x00
"SPI","result",18.0296127,0.000915666667,0xDF,0x00
"SPI","result",18.0307726,0.000915666667,0xFF,0x00
"SPI","result",18.0319325,0.000915666667,0xFF,0x00
"SPI","result",18.0330923,0.000915666667,0xFF,0x00
"SPI","result",18.0342522,0.000915666667,0x5F,0x00
"SPI","result",18.035412,0.000915666667,0xFF,0x00
"SPI","result",18.0365719,0.000915666667,0xFF,0x00
"SPI","result",18.0377318,0.000915666667,0xFF,0x00
"SPI","result",18.0388917,0.000915625,0xDF,0x00
"SPI","result",18.0400515,0.000915666667,0xFF,0x00
"SPI","result",18.0412114,0.000915666667,0xFF,0x00
"SPI","result",18.0423712,0.000915666667,0xFF,0x00
"SPI","result",18.0435311,0.000915666667,0xFF,0x00
"SPI","result",18.044691,0.000915666667,0xFF,0x00
"SPI","result",18.0458508,0.000915666667,0xFF,0x00
"SPI","result",18.0470107,0.000915666667,0xFF,0x00
"SPI","result",18.0481706,0.000915666667,0xFF,0x00
"SPI","result",18.0493305,0.000915625,0xFF,0x00
"SPI","result",18.0504903,0.000915666667,0xFF,0x00
"SPI","result",18.0516502,0.000915666667,0xFF,0x00
"SPI","result",18.05281,0.000915666667,0xFF,0x00
"SPI","result",18.0539699,0.000915666667,0xFF,0x00
"SPI","result",18.0551297,0.000915666667,0xFF,0x00
"SPI","result",18.0563507,0.000915666667,0xFF,0x00
"SPI","result",18.0575105,0.000915666667,0xFF,0x00
"SPI","result",18.0586704,0.000915666667,0xFF,0x00
"SPI","result",18.0598303,0.000915666667,0xFF,0x00
"SPI","result",18.0609901,0.000915666667,0xFF,0x00
"SPI","result",18.06215,0.000915666667,0xFF,0x00
"SPI","result",18.0633099,0.000915666667,0xFF,0x00
"SPI","result",18.0644698,0.000915666667,0xFF,0x00
"SPI","result",18.0656296,0.000915666667,0xFF,0x00
"SPI","result",18.0667895,0.000915666667,0xFF,0x00
"SPI","result",18.0679493,0.000915666667,0xFF,0x00
"SPI","result",18.0691092,0.000915666667,0xFF,0x00
"SPI","result",18.0702691,0.000915625,0xFF,0x00
"SPI","result",18.0714289,0.000915666667,0xFF,0x00
"SPI","result",18.0725888,0.000915666667,0xFF,0x00
"SPI","result",18.0737487,0.000915666667,0xFF,0x00
"SPI","result",18.0749085,0.000915666667,0xFF,0x00
"SPI","result",18.0760684,0.000915666667,0xFF,0x00
"SPI","result",18.0772283,0.000915666667,0xFF,0x00
"SPI","result",18.0783881,0.000915666667,0xFF,0x00
"SPI","result",18.079548,0.000915666667,0xFF,0x00
"SPI","result",18.0807079,0.000915625,0xFF,0x00
"SPI","result",18.0818677,0.000915666667,0xFF,0x00
"SPI","result",18.0830276,0.000915666667,0xFF,0x00
"SPI","result",18.0841875,0.000915666667,0xFF,0x00
"SPI","result",18.0853473,0.000915666667,0xFF,0x00
"SPI","result",18.0865072,0.000915666667,0xFF,0x00
"SPI","result",18.087667,0.000915666667,0xFF,0x00
"SPI","result",18.0888269,0.000915666667,0xFF,0x00
"SPI","result",18.0899868,0.000915666667,0xFF,0x00
"SPI","result",18.0911467,0.000915666667,0xFF,0x00
"SPI","result",18.0923065,0.000915666667,0xFF,0x00
"SPI","result",18.0934664,0.000915666667,0xFF,0x00
"SPI","result",18.0946263,0.000915666667,0xFF,0x00
"SPI","result",18.0957861,0.000915666667,0xFF,0x00
"SPI","result",18.096946,0.000915666667,0xFF,0x00
"SPI","result",18.0981058,0.000915666667,0xFF,0x00
"SPI","result",18.0992657,0.000915666667,0xFF,0x00
"SPI","result",18.1004256,0.000915666667,0xFF,0x00
"SPI","result",18.1015855,0.000915625,0xFF,0x00
"SPI","result",18.1027453,0.000915666667,0xFF,0x00
"SPI","result",18.1039052,0.000915666667,0xFF,0x00
"SPI","result",18.105065,0.000915666667,0xFF,0x00
"SPI","result",18.1062249,0.000915666667,0xFF,0x00
"SPI","result",18.1073848,0.000915666667,0xFF,0x00
"SPI","result",18.1085446,0.000915666667,0xFF,0x00
"SPI","result",18.1097045,0.000915666667,0xFF,0x00
"SPI","result",18.1108644,0.000915666667,0xFF,0x00
"SPI","result",18.1120243,0.000915625,0xFF,0x00
"SPI","result",18.1131841,0.000915666667,0xFF,0x00
"SPI","result",18.114344,0.000915666667,0xFF,0x00
"SPI","result",18.1155038,0.000915666667,0xFF,0x00
"SPI","result",18.1166637,0.000915666667,0xFF,0x00
"SPI","result",18.1178235,0.000915666667,0xFF,0x00
"SPI","result",18.1189834,0.000915666667,0xFF,0x00
"SPI","result",18.1201433,0.000915666667,0xFF,0x00
"SPI","result",18.1213032,0.000915666667,0xFF,0x00
"SPI","result",18.122463,0.000915625,0xFF,0x00
"SPI","result",18.1236229,0.000915666667,0xFF,0x00
"SPI","result",18.1247828,0.000915666667,0xFF,0x00
"SPI","result",18.1259426,0.000915666667,0xFF,0x00
"SPI","result",18.1271025,0.000915666667,0xFF,0x00
"SPI","result",18.1282623,0.000915666667,0xFF,0x00
"SPI","result",18.1294222,0.000915666667,0xFF,0x00
"SPI","result",18.1305821,0.000915666667,0xFF,0x00
"SPI","result",18.131742,0.000915666667,0xFF,0x00
"SPI","result",18.1329018,0.000915625,0xFF,0x00
"SPI","result",18.1340617,0.000915666667,0xFF,0x00
"SPI","result",18.1352215,0.000915666667,0xFF,0x00
"SPI","result",18.1363814,0.000915666667,0xFF,0x00
"SPI","result",18.1375413,0.000915666667,0xFF,0x00
"SPI","result",18.1387011,0.000915666667,0xFF,0x00
"SPI","result",18.139861,0.000915666667,0xFF,0x00
"SPI","result",18.1410209,0.000915666667,0xFF,0x00
"SPI","result",18.1421808,0.000915666667,0xFF,0x00
"SPI","result",18.1433406,0.000915625,0xFF,0x00
"SPI","result",18.1445005,0.000915666667,0xFF,0x00
"SPI","result",18.1456603,0.000915666667,0xFF,0x00
"SPI","result",18.1468202,0.000915666667,0xFF,0x00
"SPI","result",18.1479801,0.000915666667,0xFF,0x00
"SPI","result",18.1491399,0.000915666667,0xFF,0x00
"SPI","result",18.1502998,0.000915666667,0xFF,0x00
"SPI","result",18.1514597,0.000915666667,0xFF,0x00
"SPI","result",18.1526195,0.000915666667,0xFF,0x00
"SPI","result",18.1537794,0.000915625,0xFF,0x00
"SPI","result",18.1549393,0.000915666667,0xFF,0x00
"SPI","result",18.1560991,0.000915666667,0xFF,0x00
"SPI","result",18.157259,0.000915666667,0xFF,0x00
"SPI","result",18.1584189,0.000915666667,0xFF,0x00
"SPI","result",18.1595787,0.000915666667,0xFF,0x00
"SPI","result",18.1607386,0.000915666667,0xFF,0x00
"SPI","result",18.1618985,0.000915666667,0xFF,0x00
"SPI","result",18.1630583,0.000915666667,0xFF,0x00
"SPI","result",18.1642182,0.000915666667,0xFF,0x00
"SPI","result",18.165378,0.000915666667,0xFF,0x00
"SPI","result",18.1665379,0.000915666667,0xFF,0x00
"SPI","result",18.1676978,0.000915666667,0xFF,0x00
"SPI","result",18.1688577,0.000915625,0xFF,0x00
"SPI","result",18.1700175,0.000915666667,0xFF,0x00
"SPI","result",18.1711774,0.000915666667,0xFF,0x00
"SPI","result",18.1723373,0.000915666667,0xFF,0x00
"SPI","result",18.1735582,0.000915666667,0xC7,0x00
"SPI","result",18.174657,0.000915666667,0x52,0x00
"SPI","result",18.1757558,0.000915666667,0x00,0x81
"SPI","result",18.1768546,0.000915666667,0x00,0x00
"SPI","result",18.2273393,0.000915666667,0x88,0x00
"SPI","result",18.2284381,0.000915666667,0x33,0x00
"SPI","result",18.229598,0.000915708333,0x04,0x00
"SPI","result",18.2307578,0.000915666667,0x00,0x00
"SPI","result",18.2319177,0.000915666667,0x80,0x00
"SPI","result",18.2330776,0.000915666667,0x02,0x00
"SPI","result",18.2342375,0.000915666667,0xFF,0x00
"SPI","result",18.2353973,0.000915625,0xFF,0x00
"SPI","result",18.2365572,0.000915666667,0xFF,0x00
"SPI","result",18.237717,0.000915666667,0xFF,0x00
"SPI","result",18.2388769,0.000915666667,0xFF,0x00
"SPI","result",18.2400368,0.000915666667,0xFF,0x00
"SPI","result",18.2411966,0.000915666667,0xFF,0x00
"SPI","result",18.2423565,0.000915666667,0xFF,0x00
"SPI","result",18.2435164,0.000915666667,0xFF,0x00
"SPI","result",18.2446763,0.000915666667,0xFF,0x00
"SPI","result",18.2458361,0.000915625,0xFF,0x00
"SPI","result",18.246996,0.000915666667,0xFF,0x00
"SPI","result",18.2481558,0.000915666667,0xFF,0x00
"SPI","result",18.2493157,0.000915666667,0xFF,0x00
"SPI","result",18.2504756,0.000915666667,0xFF,0x00
"SPI","result",18.2516354,0.000915666667,0xFF,0x00
"SPI","result",18.2527953,0.000915666667,0xFF,0x00
"SPI","result",18.2539552,0.000915666667,0xFF,0x00
"SPI","result",18.255115,0.000915666667,0xFF,0x00
"SPI","result",18.2562749,0.000915625,0xFF,0x00
"SPI","result",18.2574348,0.000915666667,0xFF,0x00
"SPI","result",18.2585946,0.000915666667,0xFF,0x00
"SPI","result",18.2597545,0.000915666667,0xFF,0x00
"SPI","result",18.2609144,0.000915666667,0xFF,0x00
"SPI","result",18.2620742,0.000915666667,0xFF,0x00
"SPI","result",18.2632341,0.000915666667,0xFF,0x00
"SPI","result",18.264394,0.000915666667,0xFF,0x00
"SPI","result",18.2655538,0.000915666667,0xFF,0x00
"SPI","result",18.2667137,0.000915625,0xFF,0x00
"SPI","result",18.2678735,0.000915666667,0xFF,0x00
"SPI","result",18.2690334,0.000915666667,0xFF,0x00
"SPI","result",18.2701933,0.000915666667,0xFF,0x00
"SPI","result",18.2713532,0.000915666667,0xFF,0x00
"SPI","result",18.272513,0.000915666667,0xFF,0x00
"SPI","result",18.2736729,0.000915666667,0xFF,0x00
"SPI","result",18.2748328,0.000915666667,0xFF,0x00
"SPI","result",18.2759926,0.000915666667,0xFF,0x00
"SPI","result",18.2771525,0.000915666667,0xFF,0x00
"SPI","result",18.2783123,0.000915666667,0xFF,0x00
"SPI","result",18.2794722,0.000915666667,0xFF,0x00
"SPI","result",18.2806321,0.000915666667,0xFF,0x00
"SPI","result",18.281792,0.000915666667,0xFF,0x00
"SPI","result",18.2829518,0.000915666667,0xFF,0x00
"SPI","result",18.2841117,0.000915666667,0xFF,0x00
"SPI","result",18.2852715,0.000915666667,0xFF,0x00
"SPI","result",18.2864314,0.000915666667,0xFF,0x00
"SPI","result",18.2875912,0.000915666667,0xFF,0x00
"SPI","result",18.2887511,0.000915666667,0xFF,0x00
"SPI","result",18.289911,0.000915666667,0xFF,0x00
"SPI","result",18.2910709,0.000915666667,0xFF,0x00
"SPI","result",18.2922308,0.000915666667,0xFF,0x00
"SPI","result",18.2933906,0.000915666667,0xFF,0x00
"SPI","result",18.2945505,0.000915666667,0xFF,0x00
"SPI","result",18.2957103,0.000915666667,0xFF,0x00
"SPI","result",18.2968702,0.000915666667,0xFF,0x00
"SPI","result",18.29803,0.000915666667,0xFF,0x00
"SPI","result",18.2991899,0.000915666667,0xFF,0x00
"SPI","result",18.3003498,0.000915666667,0xFF,0x00
"SPI","result",18.3015097,0.000915666667,0xFF,0x00
"SPI","result",18.3026695,0.000915666667,0xFF,0x00
"SPI","result",18.3038294,0.000915666667,0xFF,0x00
"SPI","result",18.3049892,0.000915666667,0xFF,0x00
"SPI","result",18.3061491,0.000915666667,0xFF,0x00
"SPI","result",18.307309,0.000915666667,0xFF,0x00
"SPI","result",18.3084688,0.000915666667,0xFF,0x00
"SPI","result",18.3096287,0.000915666667,0xFF,0x00
"SPI","result",18.3107886,0.000915666667,0xFF,0x00
"SPI","result",18.3119485,0.000915666667,0xFF,0x00
"SPI","result",18.3131083,0.000915625,0xFF,0x00
"SPI","result",18.3142682,0.000915666667,0xFF,0x00
"SPI","result",18.315428,0.000915666667,0xFF,0x00
"SPI","result",18.3165879,0.000915666667,0xFF,0x00
"SPI","result",18.3177478,0.000915666667,0xFF,0x00
"SPI","result",18.3189076,0.000915666667,0xFF,0x00
"SPI","result",18.3200675,0.000915666667,0xFF,0x00
"SPI","result",18.3212274,0.000915666667,0xFF,0x00
"SPI","result",18.3223872,0.000915666667,0xFF,0x00
"SPI","result",18.3235471,0.000915625,0xFF,0x00
"SPI","result",18.324707,0.000915666667,0xFF,0x00
"SPI","result",18.3258668,0.000915666667,0xFF,0x00
"SPI","result",18.3270267,0.000915666667,0xFF,0x00
"SPI","result",18.3281866,0.000915666667,0xFF,0x00
"SPI","result",18.3293464,0.000915666667,0xFF,0x00
"SPI","result",18.3305063,0.000915666667,0xFF,0x00
"SPI","result",18.3316662,0.000915666667,0xFF,0x00
"SPI","result",18.332826,0.000915666667,0xFF,0x00
"SPI","result",18.3339859,0.000915625,0xFF,0x00
"SPI","result",18.3351457,0.000915666667,0xFF,0x00
"SPI","result",18.3363056,0.000915666667,0xFF,0x00
"SPI","result",18.3374655,0.000915666667,0xFF,0x00
"SPI","result",18.3386254,0.000915666667,0xFF,0x00
"SPI","result",18.3397852,0.000915666667,0xFF,0x00
"SPI","result",18.3410061,0.000915666667,0xFF,0x00
"SPI","result",18.342166,0.000915666667,0xFF,0x00
"SPI","result",18.3433259,0.000915666667,0xFF,0x00
"SPI","result",18.3444858,0.000915666667,0xFF,0x00
"SPI","result",18.3456456,0.000915666667,0xFF,0x00
"SPI","result",18.3468055,0.000915666667,0xFF,0x00
"SPI","result",18.3479653,0.000915666667,0xFF,0x00
"SPI","result",18.3491252,0.000915666667,0xFF,0x00
"SPI","result",18.3502851,0.000915625,0xFF,0x00
"SPI","result",18.3514449,0.000915666667,0xFF,0x00
"SPI","result",18.3526048,0.000915666667,0xFE,0x00
"SPI","result",18.3537647,0.000915666667,0xFF,0x00
"SPI","result",18.3549245,0.000915666667,0xFC,0x00
"SPI","result",18.3560844,0.000915625,0xFE,0x00
"SPI","result",18.3572443,0.000915666667,0xFC,0x00
"SPI","result",18.3584041,0.000915666667,0xF8,0x00
"SPI","result",18.359564,0.000915666667,0xF9,0x00
"SPI","result",18.3607239,0.000915625,0xF1,0x00
"SPI","result",18.3618837,0.000915666667,0xE3,0x00
"SPI","result",18.3630436,0.000915666667,0xF3,0x00
"SPI","result",18.3642035,0.000915666667,0xFF,0x00
"SPI","result",18.3653633,0.000915666667,0xFF,0x00
"SPI","result",18.3665232,0.000915666667,0xFF,0x00
"SPI","result",18.367683,0.000915666667,0xFF,0x00
"SPI","result",18.3688429,0.000915666667,0xFF,0x00
"SPI","result",18.3700028,0.000915666667,0xFF,0x00
"SPI","result",18.3711626,0.000915666667,0x77,0x00
"SPI","result",18.3723225,0.000915666667,0x8F,0x00
"SPI","result",18.3734824,0.000915666667,0x0E,0x00
"SPI","result",18.3746423,0.000915666667,0x07,0x00
"SPI","result",18.3758021,0.000915666667,0x87,0x00
"SPI","result",18.376962,0.000915666667,0x7E,0x00
"SPI","result",18.3781218,0.000915666667,0xFC,0x00
"SPI","result",18.3792817,0.000915666667,0xFE,0x00
"SPI","result",18.3804416,0.000915666667,0xFE,0x00
"SPI","result",18.3816015,0.000915625,0xFC,0x00
"SPI","result",18.3827613,0.000915666667,0xFF,0x00
"SPI","result",18.3839212,0.000915666667,0xFF,0x00
"SPI","result",18.385081,0.000915666667,0xFF,0x00
"SPI","result",18.3862409,0.000915625,0xFF,0x00
"SPI","result",18.3874008,0.000915666667,0xFF,0x00
"SPI","result",18.3885606,0.000915666667,0xFF,0x00
"SPI","result",18.3897205,0.000915666667,0xBF,0x00
"SPI","result",18.3908804,0.000915666667,0x7E,0x00
"SPI","result",18.3920402,0.000915666667,0x3C,0x00
"SPI","result",18.3932001,0.000915666667,0x3E,0x00
"SPI","result",18.39436,0.000915666667,0x1E,0x00
"SPI","result",18.3955198,0.000915666667,0x3C,0x00
"SPI","result",18.3966797,0.000915625,0x18,0x00
"SPI","result",18.3978395,0.000915666667,0x3C,0x00
"SPI","result",18.3989994,0.000915666667,0x18,0x00
"SPI","result",18.4001593,0.000915666667,0x3C,0x00
"SPI","result",18.4013192,0.000915666667,0xFF,0x00
"SPI","result",18.402479,0.000915666667,0xFF,0x00
"SPI","result",18.4036389,0.000915666667,0xFF,0x00
"SPI","result",18.4047988,0.000915666667,0xFF,0x00
"SPI","result",18.4059586,0.000915666667,0xFF,0x00
"SPI","result",18.4071185,0.000915625,0xFF,0x00
"SPI","result",18.4082783,0.000915666667,0x77,0x00
"SPI","result",18.4094382,0.000915666667,0xFB,0x00
"SPI","result",18.4105981,0.000915666667,0xF1,0x00
"SPI","result",18.411758,0.000915666667,0x73,0x00
"SPI","result",18.4129178,0.000915666667,0x61,0x00
"SPI","result",18.4140777,0.000915666667,0x73,0x00
"SPI","result",18.4152375,0.000915666667,0x21,0x00
"SPI","result",18.4163974,0.000915666667,0x63,0x00
"SPI","result",18.4175573,0.000915666667,0x20,0x00
"SPI","result",18.4187171,0.000915666667,0x43,0x00
"SPI","result",18.419877,0.000915666667,0xFF,0x00
"SPI","result",18.4210369,0.000915666667,0xFF,0x00
"SPI","result",18.4221968,0.000915666667,0xFF,0x00
"SPI","result",18.4233566,0.000915666667,0xFF,0x00
"SPI","result",18.4245165,0.000915666667,0xFF,0x00
"SPI","result",18.4256763,0.000915666667,0xFF,0x00
"SPI","result",18.4268362,0.000915666667,0x7B,0x00
"SPI","result",18.4279961,0.000915625,0x87,0x00
"SPI","result",18.4291559,0.000915666667,0x81,0x00
"SPI","result",18.4303158,0.000915666667,0x03,0x00
"SPI","result",18.4314757,0.000915666667,0x83,0x00
"SPI","result",18.4326355,0.000915666667,0x3F,0x00
"SPI","result",18.4337954,0.000915666667,0x3F,0x00
"SPI","result",18.4349553,0.000915666667,0x3F,0x00
"SPI","result",18.4361151,0.000915666667,0x37,0x00
"SPI","result",18.437275,0.000915666667,0x0F,0x00
"SPI","result",18.4384349,0.000915625,0xFF,0x00
"SPI","result",18.4395947,0.000915666667,0xFF,0x00
"SPI","result",18.4407546,0.000915666667,0xFF,0x00
"SPI","result",18.4419145,0.000915666667,0xFF,0x00
"SPI","result",18.4430743,0.000915666667,0xFF,0x00
"SPI","result",18.4442342,0.000915666667,0xFF,0x00
"SPI","result",18.445394,0.000915666667,0xBB,0x00
"SPI","result",18.4465539,0.000915666667,0xC7,0x00
"SPI","result",18.4477138,0.000915666667,0xC3,0x00
"SPI","result",18.4488737,0.000915625,0x83,0x00
"SPI","result",18.4500335,0.000915666667,0xD9,0x00
"SPI","result",18.4511934,0.000915666667,0x83,0x00
"SPI","result",18.4523533,0.000915666667,0xC1,0x00
"SPI","result",18.4535131,0.000915666667,0x9B,0x00
"SPI","result",18.454673,0.000915666667,0x82,0x00
"SPI","result",18.4558328,0.000915666667,0x83,0x00
"SPI","result",18.4569927,0.000915666667,0xFF,0x00
"SPI","result",18.4582136,0.000915666667,0xFF,0x00
"SPI","result",18.4593735,0.000915666667,0xFF,0x00
"SPI","result",18.4605333,0.000915666667,0xFF,0x00
"SPI","result",18.4616932,0.000915666667,0xFF,0x00
"SPI","result",18.4628531,0.000915666667,0xFF,0x00
"SPI","result",18.464013,0.000915666667,0xDE,0x00
"SPI","result",18.4651728,0.000915625,0xE3,0x00
"SPI","result",18.4663327,0.000915666667,0xC3,0x00
"SPI","result",18.4674925,0.000915666667,0x80,0x00
"SPI","result",18.4686524,0.000915666667,0x25,0x00
"SPI","result",18.4698123,0.000915625,0x98,0x00
"SPI","result",18.4709721,0.000915666667,0x19,0x00
"SPI","result",18.472132,0.000915666667,0x3C,0x00
"SPI","result",18.4732919,0.000915666667,0x78,0x00
"SPI","result",18.4744518,0.000915666667,0x3C,0x00
"SPI","result",18.4756116,0.000915625,0xFF,0x00
"SPI","result",18.4767715,0.000915666667,0xFF,0x00
"SPI","result",18.4779313,0.000915666667,0xFF,0x00
"SPI","result",18.4790912,0.000915666667,0xFF,0x00
"SPI","result",18.4802511,0.000915625,0xFF,0x00
"SPI","result",18.4814109,0.000915666667,0xFF,0x00
"SPI","result",18.4825708,0.000915666667,0xBB,0x00
"SPI","result",18.4837307,0.000915666667,0x7D,0x00
"SPI","result",18.4848905,0.000915666667,0x71,0x00
"SPI","result",18.4860504,0.000915666667,0x39,0x00
"SPI","result",18.4872103,0.000915666667,0x03,0x00
"SPI","result",18.4883701,0.000915666667,0x33,0x00
"SPI","result",18.48953,0.000915666667,0x23,0x00
"SPI","result",18.4906899,0.000915666667,0x87,0x00
"SPI","result",18.4918497,0.000915666667,0xCF,0x00
"SPI","result",18.4930096,0.000915666667,0x87,0x00
"SPI","result",18.4941695,0.000915666667,0xFF,0x00
"SPI","result",18.4953293,0.000915666667,0xFF,0x00
"SPI","result",18.4964892,0.000915666667,0xAF,0x00
"SPI","result",18.497649,0.000915666667,0xD5,0x00
"SPI","result",18.4988089,0.000915666667,0xFB,0x00
"SPI","result",18.4999688,0.000915666667,0xD5,0x00
"SPI","result",18.5011287,0.000915625,0xFB,0x00
"SPI","result",18.5022885,0.000915666667,0xD5,0x00
"SPI","result",18.5034484,0.000915666667,0xFF,0x00
"SPI","result",18.5046083,0.000915666667,0xFF,0x00
"SPI","result",18.5057681,0.000915666667,0xFF,0x00
"SPI","result",18.506928,0.000915666667,0xFF,0x00
"SPI","result",18.5080878,0.000915666667,0xFF,0x00
"SPI","result",18.5092477,0.000915666667,0xFF,0x00
"SPI","result",18.5104076,0.000915666667,0xFF,0x00
"SPI","result",18.5115675,0.000915625,0xFF,0x00
"SPI","result",18.5127273,0.000915666667,0xFF,0x00
"SPI","result",18.5138872,0.000915666667,0xFF,0x00
"SPI","result",18.515047,0.000915666667,0xFF,0x00
"SPI","result",18.5162069,0.000915666667,0xFF,0x00
"SPI","result",18.5173668,0.000915666667,0xFF,0x00
"SPI","result",18.5185266,0.000915666667,0xFF,0x00
"SPI","result",18.5196865,0.000915666667,0xFF,0x00
"SPI","result",18.5208464,0.000915666667,0xFF,0x00
"SPI","result",18.5220063,0.000915625,0xFF,0x00
"SPI","result",18.5231661,0.000915666667,0xFF,0x00
"SPI","result",18.524326,0.000915666667,0xFF,0x00
"SPI","result",18.5254858,0.000915666667,0xFF,0x00
"SPI","result",18.5266457,0.000915666667,0xFF,0x00
"SPI","result",18.5278055,0.000915666667,0xFF,0x00
"SPI","result",18.5289654,0.000915666667,0xFF,0x00
"SPI","result",18.5301253,0.000915666667,0xFF,0x00
"SPI","result",18.5312852,0.000915666667,0xFF,0x00
"SPI","result",18.532445,0.000915625,0xFF,0x00
"SPI","result",18.5336049,0.000915666667,0xFF,0x00
"SPI","result",18.5347648,0.000915666667,0xFF,0x00
"SPI","result",18.5359246,0.000915666667,0xFF,0x00
"SPI","result",18.5370845,0.000915666667,0xFF,0x00
"SPI","result",18.5382443,0.000915666667,0xFF,0x00
"SPI","result",18.5394042,0.000915666667,0xFF,0x00
"SPI","result",18.5405641,0.000915666667,0xFF,0x00
"SPI","result",18.541724,0.000915666667,0xFF,0x00
"SPI","result",18.5428838,0.000915625,0xFF,0x00
"SPI","result",18.5440437,0.000915666667,0xFF,0x00
"SPI","result",18.5452035,0.000915666667,0xFF,0x00
"SPI","result",18.5463634,0.000915666667,0xFF,0x00
"SPI","result",18.5475233,0.000915666667,0xFF,0x00
"SPI","result",18.5486831,0.000915666667,0xFF,0x00
"SPI","result",18.549843,0.000915666667,0xFF,0x00
"SPI","result",18.5510029,0.000915666667,0xFF,0x00
"SPI","result",18.5521628,0.000915666667,0xFF,0x00
"SPI","result",18.5533226,0.000915625,0xFF,0x00
"SPI","result",18.5544825,0.000915666667,0xFF,0x00
"SPI","result",18.5556423,0.000915666667,0xFF,0x00
"SPI","result",18.5568022,0.000915666667,0xFF,0x00
"SPI","result",18.5579621,0.000915666667,0xFF,0x00
"SPI","result",18.5591219,0.000915666667,0xFF,0x00
"SPI","result",18.5602818,0.000915666667,0xFF,0x00
"SPI","result",18.5614417,0.000915666667,0xFF,0x00
"SPI","result",18.5626015,0.000915666667,0xFF,0x00
"SPI","result",18.5637614,0.000915625,0xFF,0x00
"SPI","result",18.5649213,0.000915666667,0xFF,0x00
"SPI","result",18.5660811,0.000915666667,0xFF,0x00
"SPI","result",18.567241,0.000915666667,0xFF,0x00
"SPI","result",18.5684009,0.000915666667,0xFF,0x00
"SPI","result",18.5695607,0.000915666667,0xFF,0x00
"SPI","result",18.5707206,0.000915666667,0xFF,0x00
"SPI","result",18.5718805,0.000915666667,0xFF,0x00
"SPI","result",18.5730403,0.000915666667,0xFF,0x00
"SPI","result",18.5742002,0.000915625,0xFF,0x00
"SPI","result",18.5754821,0.000915666667,0xFF,0x00
"SPI","result",18.576642,0.000915666667,0xFF,0x00
"SPI","result",18.5778019,0.000915666667,0xFF,0x00
"SPI","result",18.5789618,0.000915666667,0xFF,0x00
"SPI","result",18.5801216,0.000915625,0xFF,0x00
"SPI","result",18.5812815,0.000915666667,0xFF,0x00
"SPI","result",18.5824413,0.000915666667,0xFF,0x00
"SPI","result",18.5836012,0.000915666667,0xFF,0x00
"SPI","result",18.5847611,0.000915666667,0xFF,0x00
"SPI","result",18.5859209,0.000915666667,0xFF,0x00
"SPI","result",18.5870808,0.000915666667,0xFF,0x00
"SPI","result",18.5882407,0.000915666667,0xFF,0x00
"SPI","result",18.5894005,0.000915666667,0xFF,0x00
"SPI","result",18.5905604,0.000915625,0xFF,0x00
"SPI","result",18.5917203,0.000915666667,0xFF,0x00
"SPI","result",18.5928801,0.000915666667,0xFF,0x00
"SPI","result",18.59404,0.000915666667,0xFF,0x00
"SPI","result",18.5951999,0.000915666667,0xFF,0x00
"SPI","result",18.5963597,0.000915666667,0xFF,0x00
"SPI","result",18.5975196,0.000915666667,0xFF,0x00
"SPI","result",18.5986795,0.000915666667,0xFF,0x00
"SPI","result",18.5998393,0.000915666667,0xFF,0x00
"SPI","result",18.6009992,0.000915625,0xFF,0x00
"SPI","result",18.602159,0.000915666667,0xFF,0x00
"SPI","result",18.6033189,0.000915666667,0xFF,0x00
"SPI","result",18.6044788,0.000915666667,0xFF,0x00
"SPI","result",18.6056387,0.000915666667,0xFF,0x00
"SPI","result",18.6067985,0.000915666667,0xFF,0x00
"SPI","result",18.6079584,0.000915666667,0xFF,0x00
"SPI","result",18.6091183,0.000915666667,0xFF,0x00
"SPI","result",18.6102781,0.000915666667,0xFF,0x00
"SPI","result",18.611438,0.000915625,0xFF,0x00
"SPI","result",18.6125978,0.000915666667,0xFF,0x00
"SPI","result",18.6137577,0.000915666667,0xFF,0x00
"SPI","result",18.6149176,0.000915666667,0xFF,0x00
"SPI","result",18.6160775,0.000915666667,0xFF,0x00
"SPI","result",18.6172373,0.000915666667,0xFF,0x00
"SPI","result",18.6183972,0.000915666667,0xFF,0x00
"SPI","result",18.619557,0.000915666667,0xFF,0x00
"SPI","result",18.6207169,0.000915666667,0xFF,0x00
"SPI","result",18.6218768,0.000915625,0xFF,0x00
"SPI","result",18.6230366,0.000915666667,0xFF,0x00
"SPI","result",18.6241965,0.000915666667,0xFF,0x00
"SPI","result",18.6253564,0.000915666667,0xFF,0x00
"SPI","result",18.6265163,0.000915666667,0xFF,0x00
"SPI","result",18.6276761,0.000915666667,0xFF,0x00
"SPI","result",18.628836,0.000915666667,0xFF,0x00
"SPI","result",18.6299958,0.000915666667,0xFF,0x00
"SPI","result",18.6311557,0.000915666667,0xFF,0x00
"SPI","result",18.6323156,0.000915625,0xFF,0x00
"SPI","result",18.6334754,0.000915666667,0xFF,0x00
"SPI","result",18.6346353,0.000915666667,0xFF,0x00
"SPI","result",18.6357952,0.000915666667,0xFF,0x00
"SPI","result",18.636955,0.000915666667,0xFF,0x00
"SPI","result",18.6381149,0.000915666667,0xFF,0x00
"SPI","result",18.6392747,0.000915666667,0xFF,0x00
"SPI","result",18.6404346,0.000915666667,0xFF,0x00
"SPI","result",18.6415945,0.000915666667,0xFF,0x00
"SPI","result",18.6427544,0.000915625,0xFF,0x00
"SPI","result",18.6439142,0.000915666667,0xFF,0x00
"SPI","result",18.6450741,0.000915666667,0xFF,0x00
"SPI","result",18.646234,0.000915666667,0xFF,0x00
"SPI","result",18.6473938,0.000915666667,0xFF,0x00
"SPI","result",18.6485537,0.000915666667,0xFF,0x00
"SPI","result",18.6497135,0.000915666667,0xFF,0x00
"SPI","result",18.6508734,0.000915666667,0xFF,0x00
"SPI","result",18.6520333,0.000915666667,0xFF,0x00
"SPI","result",18.6531931,0.000915666667,0xFF,0x00
"SPI","result",18.654353,0.000915666667,0xFF,0x00
"SPI","result",18.6555129,0.000915666667,0xFF,0x00
"SPI","result",18.6566727,0.000915666667,0xFF,0x00
"SPI","result",18.6578326,0.000915625,0xFF,0x00
"SPI","result",18.6589925,0.000915666667,0xFF,0x00
"SPI","result",18.6601523,0.000915666667,0xFF,0x00
"SPI","result",18.6613122,0.000915666667,0xFF,0x00
"SPI","result",18.6624721,0.000915666667,0xFF,0x00
"SPI","result",18.6636319,0.000915666667,0xFF,0x00
"SPI","result",18.6647918,0.000915666667,0xFF,0x00
"SPI","result",18.6659517,0.000915666667,0xFF,0x00
"SPI","result",18.6671115,0.000915666667,0xFF,0x00
"SPI","result",18.6682714,0.000915625,0xFF,0x00
"SPI","result",18.6694312,0.000915666667,0xFF,0x00
"SPI","result",18.6705911,0.000915666667,0xFF,0x00
"SPI","result",18.671751,0.000915666667,0xFF,0x00
"SPI","result",18.6729109,0.000915666667,0xFF,0x00
"SPI","result",18.6740707,0.000915666667,0xFF,0x00
"SPI","result",18.6752306,0.000915666667,0xFF,0x00
"SPI","result",18.6763905,0.000915666667,0xFF,0x00
"SPI","result",18.6775503,0.000915666667,0xFF,0x00
"SPI","result",18.6787102,0.000915625,0xFF,0x00
"SPI","result",18.67987,0.000915666667,0xFF,0x00
"SPI","result",18.6810299,0.000915666667,0xFF,0x00
"SPI","result",18.6821898,0.000915666667,0xFF,0x00
"SPI","result",18.6833497,0.000915666667,0xFF,0x00
"SPI","result",18.6845095,0.000915666667,0xFF,0x00
"SPI","result",18.6856694,0.000915666667,0xFF,0x00
"SPI","result",18.6868292,0.000915666667,0xFF,0x00
"SPI","result",18.6879891,0.000915666667,0xFF,0x00
"SPI","result",18.689149,0.000915625,0xFF,0x00
"SPI","result",18.6903088,0.000915666667,0xFF,0x00
"SPI","result",18.6914687,0.000915666667,0xFF,0x00
"SPI","result",18.6926896,0.000915666667,0xFF,0x00
"SPI","result",18.6938495,0.000915666667,0xFF,0x00
"SPI","result",18.6950094,0.000915625,0xFF,0x00
"SPI","result",18.6961692,0.000915666667,0xFF,0x00
"SPI","result",18.6973291,0.000915666667,0xFF,0x00
"SPI","result",18.698489,0.000915666667,0xFF,0x00
"SPI","result",18.6996488,0.000915666667,0xFF,0x00
"SPI","result",18.7008087,0.000915666667,0xFF,0x00
"SPI","result",18.7019685,0.000915666667,0xFF,0x00
"SPI","result",18.7031284,0.000915666667,0xFF,0x00
"SPI","result",18.7042883,0.000915666667,0xFF,0x00
"SPI","result",18.7054482,0.000915625,0xFF,0x00
"SPI","result",18.706608,0.000915666667,0xFF,0x00
"SPI","result",18.7077679,0.000915666667,0xFF,0x00
"SPI","result",18.7089278,0.000915666667,0xFF,0x00
"SPI","result",18.7100876,0.000915666667,0xFF,0x00
"SPI","result",18.7112475,0.000915666667,0xFF,0x00
"SPI","result",18.7124073,0.000915666667,0xFF,0x00
"SPI","result",18.7135672,0.000915666667,0xFF,0x00
"SPI","result",18.7147271,0.000915666667,0xFF,0x00
"SPI","result",18.715887,0.000915625,0xFF,0x00
"SPI","result",18.7170468,0.000915666667,0xE3,0x00
"SPI","result",18.7182067,0.000915666667,0xF3,0x00
"SPI","result",18.7193665,0.000915666667,0xF7,0x00
"SPI","result",18.7205264,0.000915666667,0xE3,0x00
"SPI","result",18.7216863,0.000915666667,0xE3,0x00
"SPI","result",18.7228461,0.000915666667,0xF3,0x00
"SPI","result",18.724006,0.000915666667,0xF0,0x00
"SPI","result",18.7251659,0.000915666667,0xF3,0x00
"SPI","result",18.7263257,0.000915666667,0xF0,0x00
"SPI","result",18.7274856,0.000915666667,0xF8,0x00
"SPI","result",18.7286455,0.000915666667,0xFA,0x00
"SPI","result",18.7298053,0.000915666667,0xFC,0x00
"SPI","result",18.7309652,0.000915666667,0xFF,0x00
"SPI","result",18.732125,0.000915666667,0xFF,0x00
"SPI","result",18.7332849,0.000915666667,0xFF,0x00
"SPI","result",18.7344448,0.000915666667,0xFF,0x00
"SPI","result",18.7356047,0.000915666667,0xF9,0x00
"SPI","result",18.7367645,0.000915666667,0xFC,0x00
"SPI","result",18.7379244,0.000915666667,0x9C,0x00
"SPI","result",18.7390843,0.000915666667,0x08,0x00
"SPI","result",18.7402441,0.000915666667,0x88,0x00
"SPI","result",18.741404,0.000915666667,0x18,0x00
"SPI","result",18.7425638,0.000915666667,0x5B,0x00
"SPI","result",18.7437237,0.000915666667,0x91,0x00
"SPI","result",18.7448836,0.000915666667,0x03,0x00
"SPI","result",18.7460435,0.000915666667,0x13,0x00
"SPI","result",18.7472033,0.000915666667,0x07,0x00
"SPI","result",18.7483632,0.000915666667,0x33,0x00
"SPI","result",18.749523,0.000915666667,0xFF,0x00
"SPI","result",18.7506829,0.000915666667,0xFF,0x00
"SPI","result",18.7518428,0.000915625,0xFF,0x00
"SPI","result",18.7530026,0.000915666667,0xFF,0x00
"SPI","result",18.7541625,0.000915666667,0x3D,0x00
"SPI","result",18.7553224,0.000915666667,0x98,0x00
"SPI","result",18.7564823,0.000915666667,0x3A,0x00
"SPI","result",18.7576421,0.000915666667,0x19,0x00
"SPI","result",18.758802,0.000915666667,0x93,0x00
"SPI","result",18.7599618,0.000915666667,0x19,0x00
"SPI","result",18.7611217,0.000915666667,0xD1,0x00
"SPI","result",18.7622816,0.000915666667,0x93,0x00
"SPI","result",18.7634414,0.000915666667,0xC3,0x00
"SPI","result",18.7646013,0.000915666667,0x93,0x00
"SPI","result",18.7657612,0.000915666667,0xA7,0x00
"SPI","result",18.766921,0.000915666667,0xD3,0x00
"SPI","result",18.7680809,0.000915666667,0xFF,0x00
"SPI","result",18.7692408,0.000915666667,0xFF,0x00
"SPI","result",18.7704006,0.000915666667,0xFF,0x00
"SPI","result",18.7715605,0.000915666667,0xFF,0x00
"SPI","result",18.7727203,0.000915666667,0x48,0x00
"SPI","result",18.7738802,0.000915666667,0x03,0x00
"SPI","result",18.7750401,0.000915666667,0x18,0x00
"SPI","result",18.7762,0.000915666667,0x0B,0x00
"SPI","result",18.7773598,0.000915666667,0x80,0x00
"SPI","result",18.7785197,0.000915666667,0x1B,0x00
"SPI","result",18.7796795,0.000915666667,0xB3,0x00
"SPI","result",18.7808394,0.000915666667,0x18,0x00
"SPI","result",18.7819993,0.000915666667,0x33,0x00
"SPI","result",18.7831592,0.000915625,0xB8,0x00
"SPI","result",18.784319,0.000915666667,0xB1,0x00
"SPI","result",18.7854789,0.000915666667,0xFA,0x00
"SPI","result",18.7866388,0.000915666667,0xFF,0x00
"SPI","result",18.7877986,0.000915666667,0xFF,0x00
"SPI","result",18.7889585,0.000915666667,0xFF,0x00
"SPI","result",18.7901183,0.000915666667,0xFF,0x00
"SPI","result",18.7912782,0.000915666667,0x0F,0x00
"SPI","result",18.7924381,0.000915666667,0x07,0x00
"SPI","result",18.7935979,0.000915666667,0x37,0x00
"SPI","result",18.7947578,0.000915666667,0x0F,0x00
"SPI","result",18.7959177,0.000915666667,0x3F,0x00
"SPI","result",18.7970775,0.000915666667,0x7F,0x00
"SPI","result",18.7982374,0.000915708333,0x03,0x00
"SPI","result",18.7993972,0.000915666667,0x7F,0x00
"SPI","result",18.8005571,0.000915666667,0x01,0x00
"SPI","result",18.801717,0.000915666667,0x03,0x00
"SPI","result",18.8028769,0.000915666667,0x07,0x00
"SPI","result",18.8040367,0.000915666667,0x03,0x00
"SPI","result",18.8051966,0.000915666667,0xFF,0x00
"SPI","result",18.8063565,0.000915666667,0xFF,0x00
"SPI","result",18.8075163,0.000915666667,0xFF,0x00
"SPI","result",18.8086762,0.000915666667,0xFF,0x00
"SPI","result",18.8098971,0.000915625,0x83,0x00
"SPI","result",18.811057,0.000915666667,0x82,0x00
"SPI","result",18.8122168,0.000915666667,0x38,0x00
"SPI","result",18.8133767,0.000915666667,0x91,0x00
"SPI","result",18.8145365,0.000915708333,0x3C,0x00
"SPI","result",18.8156965,0.000915625,0x99,0x00
"SPI","result",18.8168563,0.000915666667,0xA8,0x00
"SPI","result",18.8180162,0.000915666667,0x11,0x00
"SPI","result",18.819176,0.000915666667,0x01,0x00
"SPI","result",18.8203359,0.000915666667,0x03,0x00
"SPI","result",18.8214958,0.000915666667,0x8B,0x00
"SPI","result",18.8226556,0.000915666667,0x07,0x00
"SPI","result",18.8238155,0.000915666667,0xFF,0x00
"SPI","result",18.8249754,0.000915666667,0xFF,0x00
"SPI","result",18.8261352,0.000915666667,0xFF,0x00
"SPI","result",18.8272951,0.000915666667,0xFF,0x00
"SPI","result",18.828455,0.000915666667,0x79,0x00
"SPI","result",18.8296148,0.000915666667,0x3C,0x00
"SPI","result",18.8307747,0.000915666667,0x7D,0x00
"SPI","result",18.8319345,0.000915666667,0x38,0x00
"SPI","result",18.8330944,0.000915666667,0x78,0x00
"SPI","result",18.8342543,0.000915666667,0x39,0x00
"SPI","result",18.8354141,0.000915666667,0x4B,0x00
"SPI","result",18.836574,0.000915666667,0x31,0x00
"SPI","result",18.8377339,0.000915666667,0x81,0x00
"SPI","result",18.8388938,0.000915666667,0x03,0x00
"SPI","result",18.8400536,0.000915666667,0xCB,0x00
"SPI","result",18.8412135,0.000915666667,0x87,0x00
"SPI","result",18.8423733,0.000915666667,0xFF,0x00
"SPI","result",18.8435332,0.000915666667,0xFF,0x00
"SPI","result",18.8446931,0.000915666667,0xFF,0x00
"SPI","result",18.845853,0.000915666667,0xFF,0x00
"SPI","result",18.8470128,0.000915666667,0x8F,0x00
"SPI","result",18.8481727,0.000915666667,0xCF,0x00
"SPI","result",18.8493325,0.000915666667,0x8F,0x00
"SPI","result",18.8504924,0.000915666667,0xDF,0x00
"SPI","result",18.8516523,0.000915666667,0xCF,0x00
"SPI","result",18.8528121,0.000915666667,0x9F,0x00
"SPI","result",18.853972,0.000915666667,0xCF,0x00
"SPI","result",18.8551319,0.000915666667,0x9F,0x00
"SPI","result",18.8562918,0.000915625,0xCF,0x00
"SPI","result",18.8574516,0.000915666667,0x9F,0x00
"SPI","result",18.8586115,0.000915666667,0xFF,0x00
"SPI","result",18.8597713,0.000915666667,0x9F,0x00
"SPI","result",18.8609312,0.000915666667,0xFF,0x00
"SPI","result",18.862091,0.000915666667,0xFF,0x00
"SPI","result",18.8632509,0.000915666667,0xFF,0x00
"SPI","result",18.8644108,0.000915666667,0xFF,0x00
"SPI","result",18.8655707,0.000915666667,0xFF,0x00
"SPI","result",18.8667305,0.000915625,0xFF,0x00
"SPI","result",18.8678904,0.000915666667,0xFF,0x00
"SPI","result",18.8690503,0.000915666667,0xFF,0x00
"SPI","result",18.8702101,0.000915666667,0xFF,0x00
"SPI","result",18.87137,0.000915666667,0xFF,0x00
"SPI","result",18.8725298,0.000915666667,0xFF,0x00
"SPI","result",18.8736897,0.000915666667,0xFF,0x00
"SPI","result",18.8748496,0.000915666667,0xFF,0x00
"SPI","result",18.8760095,0.000915666667,0xFF,0x00
"SPI","result",18.8771693,0.000915625,0xFF,0x00
"SPI","result",18.8783292,0.000915666667,0xFF,0x00
"SPI","result",18.879489,0.000915666667,0xFF,0x00
"SPI","result",18.8806489,0.000915666667,0xFF,0x00
"SPI","result",18.8818088,0.000915666667,0xFF,0x00
"SPI","result",18.8829686,0.000915666667,0xFF,0x00
"SPI","result",18.8841285,0.000915666667,0xFF,0x00
"SPI","result",18.8852884,0.000915666667,0xFF,0x00
"SPI","result",18.8864483,0.000915666667,0xFF,0x00
"SPI","result",18.8876081,0.000915625,0xFF,0x00
"SPI","result",18.888768,0.000915666667,0xFF,0x00
"SPI","result",18.8899278,0.000915666667,0xFF,0x00
"SPI","result",18.8910877,0.000915666667,0xFF,0x00
"SPI","result",18.8922476,0.000915666667,0xFF,0x00
"SPI","result",18.8934074,0.000915666667,0xFF,0x00
"SPI","result",18.8945673,0.000915666667,0xFF,0x00
"SPI","result",18.8957272,0.000915666667,0xFF,0x00
"SPI","result",18.896887,0.000915666667,0xFF,0x00
"SPI","result",18.8980469,0.000915625,0xFF,0x00
"SPI","result",18.8992068,0.000915666667,0xFF,0x00
"SPI","result",18.9003666,0.000915666667,0xFF,0x00
"SPI","result",18.9015265,0.000915666667,0xFF,0x00
"SPI","result",18.9026864,0.000915666667,0xFF,0x00
"SPI","result",18.9038462,0.000915666667,0xFF,0x00
"SPI","result",18.9050061,0.000915666667,0xFF,0x00
"SPI","result",18.906166,0.000915666667,0xFF,0x00
"SPI","result",18.9073258,0.000915666667,0xFF,0x00
"SPI","result",18.9084857,0.000915625,0xFF,0x00
"SPI","result",18.9096455,0.000915666667,0xFF,0x00
"SPI","result",18.9108054,0.000915666667,0xFF,0x00
"SPI","result",18.9119653,0.000915666667,0xFF,0x00
"SPI","result",18.9131252,0.000915666667,0xFF,0x00
"SPI","result",18.914285,0.000915666667,0xFF,0x00
"SPI","result",18.9154449,0.000915666667,0xFF,0x00
"SPI","result",18.9166048,0.000915666667,0xFF,0x00
"SPI","result",18.9177646,0.000915666667,0xFF,0x00
"SPI","result",18.9189245,0.000915625,0xFF,0x00
"SPI","result",18.9200843,0.000915666667,0xFF,0x00
"SPI","result",18.9212442,0.000915666667,0xFF,0x00
"SPI","result",18.9224041,0.000915666667,0xFF,0x00
"SPI","result",18.923564,0.000915666667,0xFF,0x00
"SPI","result",18.9247238,0.000915666667,0xFF,0x00
"SPI","result",18.9258837,0.000915666667,0xFF,0x00
"SPI","result",18.9271046,0.000915666667,0xFF,0x00
"SPI","result",18.9282645,0.000915666667,0xFF,0x00
"SPI","result",18.9294243,0.000915666667,0xFF,0x00
"SPI","result",18.9305842,0.000915666667,0xFF,0x00
"SPI","result",18.931744,0.000915666667,0xFF,0x00
"SPI","result",18.9329039,0.000915666667,0xFF,0x00
"SPI","result",18.9340638,0.000915666667,0xFF,0x00
"SPI","result",18.9352236,0.000915666667,0xFF,0x00
"SPI","result",18.9363835,0.000915666667,0xFF,0x00
"SPI","result",18.9375434,0.000915666667,0xFF,0x00
"SPI","result",18.9387032,0.000915666667,0xFF,0x00
"SPI","result",18.9398631,0.000915625,0xFF,0x00
"SPI","result",18.941023,0.000915666667,0xFF,0x00
"SPI","result",18.9421828,0.000915666667,0xFF,0x00
"SPI","result",18.9433427,0.000915666667,0xFF,0x00
"SPI","result",18.9445026,0.000915666667,0xFF,0x00
"SPI","result",18.9456624,0.000915666667,0xFF,0x00
"SPI","result",18.9468223,0.000915666667,0xFF,0x00
"SPI","result",18.9479822,0.000915666667,0xFF,0x00
"SPI","result",18.949142,0.000915666667,0xFF,0x00
"SPI","result",18.9503019,0.000915625,0xFF,0x00
"SPI","result",18.9514617,0.000915666667,0xFF,0x00
"SPI","result",18.9526216,0.000915666667,0xFF,0x00
"SPI","result",18.9537815,0.000915666667,0xFF,0x00
"SPI","result",18.9549414,0.000915666667,0xFF,0x00
"SPI","result",18.9561012,0.000915666667,0xFF,0x00
"SPI","result",18.9572611,0.000915666667,0xFF,0x00
"SPI","result",18.958421,0.000915666667,0xFF,0x00
"SPI","result",18.9595808,0.000915666667,0xFF,0x00
"SPI","result",18.9607407,0.000915625,0xFF,0x00
"SPI","result",18.9619005,0.000915666667,0xFF,0x00
"SPI","result",18.9630604,0.000915666667,0xFF,0x00
"SPI","result",18.9642203,0.000915666667,0xFF,0x00
"SPI","result",18.9653802,0.000915666667,0xFF,0x00
"SPI","result",18.96654,0.000915666667,0xFF,0x00
"SPI","result",18.9676999,0.000915666667,0xFF,0x00
"SPI","result",18.9688598,0.000915666667,0xFF,0x00
"SPI","result",18.9700196,0.000915666667,0xFF,0x00
"SPI","result",18.9711795,0.000915625,0xFF,0x00
"SPI","result",18.9723393,0.000915666667,0xFF,0x00
"SPI","result",18.9734992,0.000915666667,0xFF,0x00
"SPI","result",18.9746591,0.000915666667,0xFF,0x00
"SPI","result",18.975819,0.000915666667,0xFF,0x00
"SPI","result",18.9769177,0.000915666667,0x47,0x00
"SPI","result",18.9780166,0.000915666667,0x24,0x00
"SPI","result",18.9791154,0.000915666667,0x00,0x81
"SPI","result",18.9802142,0.000915666667,0x00,0x08
"SPI","result",18.9830223,0.000915666667,0x88,0x00
"SPI","result",18.9841211,0.000915666667,0x33,0x00
"SPI","result",18.985281,0.000915666667,0x04,0x00
"SPI","result",18.9864409,0.000915666667,0x00,0x00
"SPI","result",18.9876007,0.000915666667,0x00,0x00
"SPI","result",18.9887606,0.000915666667,0x00,0x00
"SPI","result",18.9899205,0.000915666667,0x04,0x00
"SPI","result",18.9910803,0.000915666667,0x00,0x00
"SPI","result",18.9922402,0.000915666667,0x00,0x81
"SPI","result",18.9934001,0.000915625,0x00,0x08
"SPI","result",19.0149492,0.000915625,0x88,0x00
"SPI","result",19.016048,0.000915666667,0x33,0x00
"SPI","result",19.0172078,0.000915666667,0x02,0x00
"SPI","result",19.0183677,0.000915666667,0x00,0x00
"SPI","result",19.0195276,0.000915625,0x04,0x00
"SPI","result",19.0206874,0.000915666667,0x00,0x00
"SPI","result",19.0218473,0.000915666667,0x01,0x00
"SPI","result",19.0230072,0.000915666667,0x13,0x00
"SPI","result",19.024167,0.000915666667,0xE4,0x00
"SPI","result",19.0253269,0.000915666667,0x3F,0x00
"SPI","result",19.0264868,0.000915666667,0x3D,0x00
"SPI","result",19.0276466,0.000915666667,0x01,0x00
"SPI","result",19.0288065,0.000915666667,0x00,0x81
"SPI","result",19.0299664,0.000915666667,0x00,0x08
"SPI","result",19.1284329,0.000915625,0x88,0x00
"SPI","result",19.1295317,0.000915666667,0x33,0x00
"SPI","result",19.1306915,0.000915666667,0x0F,0x00
"SPI","result",19.1318514,0.000915708333,0x00,0x00
"SPI","result",19.1330112,0.000915666667,0x00,0x00
"SPI","result",19.1341711,0.000915666667,0x00,0x00
