Time [s],Packet ID,MOSI,MISO
5.643269833333333,,0x00,0x88
5.644368625000000,,0x00,0x33
5.645528500000000,,0x00,0x01
5.646688375000000,,0x00,0x00
5.647848208333333,,0x00,0x00
5.649008083333333,,0x00,0x00
5.650167958333333,,0x00,0x01
5.651327833333333,,0x00,0x00
5.652487666666667,,0x81,0x00
5.653647541666666,,0x00,0x00
5.710175583333333,,0x00,0x88
5.711274416666667,,0x00,0x33
5.712434291666667,,0x00,0x04
5.713594125000000,,0x00,0x00
5.714754000000000,,0x00,0x80
5.715913875000000,,0x00,0x02
5.717073708333333,,0x00,0xFF
5.718233583333333,,0x00,0xFF
5.719393458333333,,0x00,0xFF
5.720553291666667,,0x00,0xFF
5.721713166666667,,0x00,0xFF
5.722873041666666,,0x00,0xFF
5.724032916666666,,0x00,0xFF
5.725192750000000,,0x00,0xFF
5.726352625000000,,0x00,0xFF
5.727512500000000,,0x00,0xFF
5.728672333333333,,0x00,0xFF
5.729832208333334,,0x00,0xFF
5.730992083333334,,0x00,0xFF
5.732151958333334,,0x00,0xFF
5.733311791666667,,0x00,0xFF
5.734471666666667,,0x00,0xFF
5.735631541666667,,0x00,0xFF
5.736791375000000,,0x00,0xFF
5.737951250000000,,0x00,0xFF
5.739111125000000,,0x00,0xFF
5.740270958333333,,0x00,0xFF
5.741430833333333,,0x00,0xFF
5.742590708333333,,0x00,0xFF
5.743750583333333,,0x00,0xFF
5.744910416666666,,0x00,0xFF
5.746070291666666,,0x00,0xFF
5.747230166666666,,0x00,0xFF
5.748390000000000,,0x00,0xFF
5.749549875000000,,0x00,0xFF
5.750709750000000,,0x00,0xFF
5.751869625000000,,0x00,0xFF
5.753029458333334,,0x00,0xFF
5.754189333333334,,0x00,0xFF
5.755349208333334,,0x00,0xFF
5.756509041666667,,0x00,0xFF
5.757668916666667,,0x00,0xFF
5.758828791666667,,0x00,0xFF
5.759988666666667,,0x00,0xFF
5.761148500000000,,0x00,0xFF
5.762308375000000,,0x00,0xFF
5.763468250000000,,0x00,0xFF
5.764628083333333,,0x00,0xFF
5.765787958333333,,0x00,0xFF
5.766947833333333,,0x00,0xFF
5.768107666666666,,0x00,0xFF
5.769267541666666,,0x00,0xFF
5.770427416666666,,0x00,0xFF
5.771587291666667,,0x00,0xFF
5.772747125000000,,0x00,0xFF
5.773907000000000,,0x00,0xFF
5.775066875000000,,0x00,0xFF
5.776226708333334,,0x00,0xFF
5.777386583333334,,0x00,0xFF
5.778546458333333,,0x00,0xFF
5.779706333333333,,0x00,0xFF
5.780866166666667,,0x00,0xFF
5.782026041666667,,0x00,0xFF
5.783185916666667,,0x00,0xFF
5.784345750000000,,0x00,0xFF
5.785505625000000,,0x00,0xFF
5.786665500000000,,0x00,0xFF
5.787825333333333,,0x00,0xFF
5.788985208333333,,0x00,0xFF
5.790145083333333,,0x00,0xFF
5.791304958333333,,0x00,0xFF
5.792464791666666,,0x00,0xFF
5.793624666666667,,0x00,0xFF
5.794784541666667,,0x00,0xFF
5.795944375000000,,0x00,0xFF
5.797104250000000,,0x00,0xFF
5.798264125000000,,0x00,0xFF
5.799423958333334,,0x00,0xFF
5.800583833333333,,0x00,0xFF
5.801743708333333,,0x00,0xFF
5.802903583333333,,0x00,0xFF
5.804063416666667,,0x00,0xFF
5.805223291666667,,0x00,0xFF
5.806383166666667,,0x00,0xFF
5.807543000000000,,0x00,0xFF
5.808702875000000,,0x00,0xFF
5.809862750000000,,0x00,0xFF
5.811022625000000,,0x00,0xFF
5.812182458333333,,0x00,0xFF
5.813342333333333,,0x00,0xFF
5.814502208333334,,0x00,0xFE
5.815662041666666,,0x00,0xFF
5.816821916666667,,0x00,0xFE
5.817981791666667,,0x00,0xFE
5.819141666666667,,0x00,0xFE
5.820301500000000,,0x00,0xFE
5.821461375000000,,0x00,0xFE
5.822621250000000,,0x00,0xFE
5.823842125000000,,0x00,0xFE
5.825002000000000,,0x00,0xFE
5.826161875000000,,0x00,0xFE
5.827321750000000,,0x00,0xFE
5.828481583333334,,0x00,0xFF
5.829641458333334,,0x00,0xFF
5.830801333333334,,0x00,0xFF
5.831961166666667,,0x00,0xFF
5.833121041666667,,0x00,0x1C
5.834280916666667,,0x00,0xFF
5.835440750000000,,0x00,0x3E
5.836600625000000,,0x00,0x1C
5.837760500000000,,0x00,0x0C
5.838920375000000,,0x00,0x1C
5.840080208333333,,0x00,0x04
5.841240083333333,,0x00,0x0C
5.842399958333333,,0x00,0x0C
5.843559791666666,,0x00,0x04
5.844719666666666,,0x00,0x24
5.845879541666666,,0x00,0x04
5.847039416666667,,0x00,0xFF
5.848199250000000,,0x00,0xFF
5.849359125000000,,0x00,0xFF
5.850519000000000,,0x00,0xFF
5.851678833333334,,0x00,0x63
5.852838708333334,,0x00,0xFF
5.853998583333333,,0x00,0x07
5.855158458333333,,0x00,0x63
5.856318291666667,,0x00,0x43
5.857478166666667,,0x00,0x23
5.858638041666667,,0x00,0x63
5.859797875000000,,0x00,0x3F
5.860957750000000,,0x00,0x02
5.862117625000000,,0x00,0x62
5.863277458333333,,0x00,0x02
5.864437333333333,,0x00,0x62
5.865597208333333,,0x00,0xFF
5.866757083333333,,0x00,0xFF
5.867916916666666,,0x00,0xFF
5.869076791666667,,0x00,0xFF
5.870236666666667,,0x00,0xFF
5.871396500000000,,0x00,0xFF
5.872556375000000,,0x00,0xFF
5.873716250000000,,0x00,0xFF
5.874876125000000,,0x00,0xFF
5.876035958333333,,0x00,0xFF
5.877195833333333,,0x00,0xF7
5.878355708333333,,0x00,0xFE
5.879515541666667,,0x00,0x03
5.880675416666667,,0x00,0x01
5.881835291666667,,0x00,0x11
5.882995125000000,,0x00,0x00
5.884155000000000,,0x00,0xFF
5.885314875000000,,0x00,0xFF
5.886474750000000,,0x00,0xFF
5.887634583333333,,0x00,0xFF
5.888794458333333,,0x00,0xFF
5.889954333333334,,0x00,0xFF
5.891114166666667,,0x00,0x8F
5.892274041666667,,0x00,0xFF
5.893433916666667,,0x00,0x47
5.894593791666667,,0x00,0x8F
5.895753625000000,,0x00,0x05
5.896913500000000,,0x00,0x03
5.898073375000000,,0x00,0x00
5.899233208333333,,0x00,0x8E
5.900393083333333,,0x00,0xC8
5.901552958333333,,0x00,0x8C
5.902712791666667,,0x00,0xFF
5.903872666666667,,0x00,0xFF
5.905032541666666,,0x00,0xFF
5.906192416666666,,0x00,0xFF
5.907352250000000,,0x00,0xFF
5.908512125000000,,0x00,0xFF
5.909672000000000,,0x00,0xFF
5.910831833333333,,0x00,0xFF
5.911991708333334,,0x00,0xFF
5.913151583333334,,0x00,0xFF
5.914311458333334,,0x00,0x7F
5.915471291666667,,0x00,0x9F
5.916631166666667,,0x00,0x0E
5.917791041666667,,0x00,0x04
5.918950875000000,,0x00,0xE0
5.920110750000000,,0x00,0x46
5.921270625000000,,0x00,0xFF
5.922430458333333,,0x00,0xFF
5.923590333333333,,0x00,0xFF
5.924750208333333,,0x00,0xFF
5.925910083333333,,0x00,0xFF
5.927069916666666,,0x00,0xFF
5.928229791666666,,0x00,0xFF
5.929389666666666,,0x00,0xFF
5.930549500000000,,0x00,0xFF
5.931709375000000,,0x00,0xFF
5.932869250000000,,0x00,0xE7
5.934029125000000,,0x00,0xFF
5.935188958333334,,0x00,0x41
5.936348833333334,,0x00,0x03
5.937508708333334,,0x00,0x21
5.938668541666667,,0x00,0x01
5.939828416666667,,0x00,0xFF
5.941049333333333,,0x00,0xFF
5.942209208333334,,0x00,0xFF
5.943369041666666,,0x00,0xFF
5.944528916666667,,0x00,0xF8
5.945688791666667,,0x00,0xFF
5.946848625000000,,0x00,0xF0
5.948008500000000,,0x00,0xF8
5.949168375000000,,0x00,0xF0
5.950328250000000,,0x00,0xF8
5.951488083333333,,0x00,0xE0
5.952647958333333,,0x00,0xF8
5.953807833333333,,0x00,0xC0
5.954967666666667,,0x00,0x80
5.956127541666667,,0x00,0x18
5.957287416666667,,0x00,0x00
5.958447250000000,,0x00,0xFF
5.959607125000000,,0x00,0xFF
5.960767000000000,,0x00,0xFF
5.961926875000000,,0x00,0xFF
5.963086708333333,,0x00,0xFF
5.964246583333333,,0x00,0xFF
5.965406458333334,,0x00,0x7F
5.966566291666667,,0x00,0xFF
5.967726166666667,,0x00,0x7E
5.968886041666667,,0x00,0xFF
5.970045916666667,,0x00,0x6D
5.971205750000000,,0x00,0xF3
5.972365625000000,,0x00,0x61
5.973525500000000,,0x00,0xC0
5.974685333333333,,0x00,0x44
5.975845208333333,,0x00,0x8C
5.977005083333333,,0x00,0xFF
5.978164916666667,,0x00,0xFF
5.979324791666667,,0x00,0xFF
5.980484666666666,,0x00,0xFF
5.981644541666666,,0x00,0xBF
5.982804375000000,,0x00,0xFF
5.983964250000000,,0x00,0xBF
5.985124125000000,,0x00,0x1F
5.986283958333333,,0x00,0x5F
5.987443833333334,,0x00,0x0F
5.988603708333334,,0x00,0x0F
5.989763583333334,,0x00,0x1F
5.990923416666667,,0x00,0x9F
5.992083291666667,,0x00,0xFF
5.993243166666667,,0x00,0x3F
5.994403000000000,,0x00,0x7F
5.995562875000000,,0x00,0xFF
5.996722750000000,,0x00,0xFF
5.997882583333333,,0x00,0xFF
5.999042458333333,,0x00,0xFF
6.000202333333333,,0x00,0xFF
6.001362208333333,,0x00,0xFF
6.002522041666666,,0x00,0xFF
6.003681916666666,,0x00,0xFF
6.004841791666666,,0x00,0xFF
6.006001625000000,,0x00,0xFF
6.007161500000000,,0x00,0xFF
6.008321375000000,,0x00,0xFF
6.009481250000000,,0x00,0xFF
6.010641083333334,,0x00,0xFF
6.011800958333334,,0x00,0xFF
6.012960833333334,,0x00,0xFF
6.014120666666667,,0x00,0xFF
6.015280541666667,,0x00,0xFF
6.016440416666667,,0x00,0xFF
6.017600250000000,,0x00,0xFF
6.018760125000000,,0x00,0xFF
6.019920000000000,,0x00,0xFF
6.021079875000000,,0x00,0xFF
6.022239708333333,,0x00,0xFF
6.023399583333333,,0x00,0xFF
6.024559458333333,,0x00,0xFF
6.025719291666666,,0x00,0xFF
6.026879166666666,,0x00,0xFF
6.028039041666666,,0x00,0xFF
6.029198916666667,,0x00,0xFF
6.030358750000000,,0x00,0xFF
6.031518625000000,,0x00,0xFF
6.032678500000000,,0x00,0xFF
6.033838333333334,,0x00,0xFF
6.034998208333334,,0x00,0xFF
6.036158083333333,,0x00,0xFF
6.037317916666667,,0x00,0xFF
6.038477791666667,,0x00,0xFF
6.039637666666667,,0x00,0xFF
6.040797541666667,,0x00,0xFF
6.041957375000000,,0x00,0xFF
6.043117250000000,,0x00,0xFF
6.044277125000000,,0x00,0xFF
6.045436958333333,,0x00,0xFF
6.046596833333333,,0x00,0xFF
6.047756708333333,,0x00,0xFF
6.048916583333333,,0x00,0xFF
6.050076416666666,,0x00,0xFF
6.051236291666667,,0x00,0xFF
6.052396166666667,,0x00,0xFF
6.053556000000000,,0x00,0xFF
6.054715875000000,,0x00,0xFF
6.055875750000000,,0x00,0xFF
6.057035583333334,,0x00,0xFF
6.058256500000000,,0x00,0xFF
6.059416375000000,,0x00,0xFF
6.060576250000000,,0x00,0xFF
6.061736083333333,,0x00,0xFF
6.062895958333334,,0x00,0xFF
6.064055833333334,,0x00,0xFF
6.065215708333334,,0x00,0xFF
6.066375541666667,,0x00,0xFF
6.067535416666667,,0x00,0xFF
6.068695291666667,,0x00,0xFF
6.069855125000000,,0x00,0xFF
6.071015000000000,,0x00,0xFF
6.072174875000000,,0x00,0xFF
6.073334708333333,,0x00,0xFF
6.074494583333333,,0x00,0xFF
6.075654458333333,,0x00,0xFF
6.076814333333333,,0x00,0xFF
6.077974166666666,,0x00,0xFF
6.079134041666666,,0x00,0xFF
6.080293916666666,,0x00,0xFF
6.081453750000000,,0x00,0xFF
6.082613625000000,,0x00,0xFF
6.083773500000000,,0x00,0xFF
6.084933375000000,,0x00,0xFF
6.086093208333334,,0x00,0xFF
6.087253083333334,,0x00,0xFF
6.088412958333334,,0x00,0xFF
6.089572791666667,,0x00,0xFF
6.090732666666667,,0x00,0xFF
6.091892541666667,,0x00,0xFF
6.093052416666667,,0x00,0xFF
6.094212250000000,,0x00,0xFF
6.095372125000000,,0x00,0xFF
6.096532000000000,,0x00,0xFF
6.097691833333333,,0x00,0xFF
6.098851708333333,,0x00,0xFF
6.100011583333333,,0x00,0xFF
6.101171416666666,,0x00,0xFF
6.102331291666666,,0x00,0xFF
6.103491166666666,,0x00,0xFF
6.104651041666667,,0x00,0xFF
6.105810875000000,,0x00,0xFF
6.106970750000000,,0x00,0xFF
6.108130625000000,,0x00,0xFF
6.109290458333334,,0x00,0xFF
6.110450333333334,,0x00,0xFF
6.111610208333333,,0x00,0xFF
6.112770083333333,,0x00,0xFF
6.113929916666667,,0x00,0xFF
6.115089791666667,,0x00,0xFF
6.116249666666667,,0x00,0xFF
6.117409500000000,,0x00,0xFF
6.118569375000000,,0x00,0xFF
6.119729250000000,,0x00,0xFF
6.120889083333333,,0x00,0xFF
6.122048958333333,,0x00,0xFF
6.123208833333333,,0x00,0xFF
6.124368708333333,,0x00,0xFF
6.125528541666666,,0x00,0xFF
6.126688416666667,,0x00,0xFF
6.127848291666667,,0x00,0xFF
6.129008125000000,,0x00,0xFF
6.130168000000000,,0x00,0xFF
6.131327875000000,,0x00,0xFF
6.132487750000000,,0x00,0xFF
6.133647583333333,,0x00,0xFF
6.134807458333333,,0x00,0xFF
6.135967333333333,,0x00,0xFF
6.137127166666667,,0x00,0xFF
6.138287041666667,,0x00,0xFF
6.139446916666667,,0x00,0xFF
6.140606750000000,,0x00,0xFF
6.141766625000000,,0x00,0xFF
6.142926500000000,,0x00,0xFF
6.144086375000000,,0x00,0xFF
6.145246208333333,,0x00,0xFF
6.146406083333333,,0x00,0xFF
6.147565958333334,,0x00,0xFF
6.148725791666667,,0x00,0xFF
6.149885666666667,,0x00,0xFF
6.151045541666667,,0x00,0xFF
6.152205416666667,,0x00,0xFF
6.153365250000000,,0x00,0xFF
6.154525125000000,,0x00,0xFF
6.155685000000000,,0x00,0xFF
6.156844833333333,,0x00,0xFF
6.158004708333333,,0x00,0xFF
6.159164583333333,,0x00,0xFF
6.160324416666667,,0x00,0xFF
6.161484291666667,,0x00,0xFF
6.162644166666666,,0x00,0xFF
6.163804041666666,,0x00,0xFF
6.164963875000000,,0x00,0xFF
6.166123750000000,,0x00,0xFF
6.167283625000000,,0x00,0xFF
6.168443458333333,,0x00,0xFF
6.169603333333334,,0x00,0xFF
6.170763208333334,,0x00,0xFF
6.171923083333334,,0x00,0xFF
6.173082916666667,,0x00,0xFF
6.174242791666667,,0x00,0xFF
6.175463708333333,,0x00,0xFF
6.176623541666666,,0x00,0xFF
6.177783416666666,,0x00,0xFF
6.178943291666666,,0x00,0xFF
6.180103166666667,,0x00,0xFF
6.181263000000000,,0x00,0xFE
6.182422875000000,,0x00,0xFE
6.183582750000000,,0x00,0xFE
6.184742583333334,,0x00,0xFE
6.185902458333334,,0x00,0xFE
6.187062333333333,,0x00,0xFE
6.188222208333333,,0x00,0xFE
6.189382041666667,,0x00,0xFE
6.190541916666667,,0x00,0xFE
6.191701791666667,,0x00,0xFE
6.192861625000000,,0x00,0xFF
6.194021500000000,,0x00,0xFF
6.195181375000000,,0x00,0xFF
6.196341208333333,,0x00,0xFF
6.197501083333333,,0x00,0xFF
6.198660958333333,,0x00,0xFF
6.199820833333333,,0x00,0x24
6.200980666666666,,0x00,0x10
6.202140541666667,,0x00,0x30
6.203300416666667,,0x00,0x10
6.204460250000000,,0x00,0x30
6.205620125000000,,0x00,0x18
6.206780000000000,,0x00,0x3C
6.207939833333334,,0x00,0x18
6.209099708333333,,0x00,0x18
6.210259583333333,,0x00,0x3C
6.211419458333333,,0x00,0xFF
6.212579291666667,,0x00,0xFF
6.213739166666667,,0x00,0xFF
6.214899041666667,,0x00,0xFF
6.216058875000000,,0x00,0xFF
6.217218750000000,,0x00,0xFF
6.218378625000000,,0x00,0x02
6.219538500000000,,0x00,0x62
6.220698333333333,,0x00,0x02
6.221858208333333,,0x00,0x62
6.223018083333334,,0x00,0x02
6.224177916666667,,0x00,0x62
6.225337791666667,,0x00,0x42
6.226497666666667,,0x00,0x22
6.227657541666667,,0x00,0x02
6.228817375000000,,0x00,0x62
6.229977250000000,,0x00,0xFF
6.231137125000000,,0x00,0xFF
6.232296958333333,,0x00,0xFF
6.233456833333333,,0x00,0xFF
6.234616708333333,,0x00,0xFF
6.235776541666667,,0x00,0xFF
6.236936416666667,,0x00,0x19
6.238096291666666,,0x00,0x30
6.239256166666666,,0x00,0x19
6.240416000000000,,0x00,0x30
6.241575875000000,,0x00,0x19
6.242735750000000,,0x00,0x30
6.243895583333333,,0x00,0x19
6.245055458333334,,0x00,0x30
6.246215333333334,,0x00,0x11
6.247375208333334,,0x00,0x38
6.248535041666667,,0x00,0xFF
6.249694916666667,,0x00,0xFF
6.250854791666667,,0x00,0xFF
6.252014625000000,,0x00,0xFF
6.253174500000000,,0x00,0xFF
6.254334375000000,,0x00,0xFF
6.255494208333333,,0x00,0x4C
6.256654083333333,,0x00,0x88
6.257813958333333,,0x00,0x4C
6.258973833333333,,0x00,0x88
6.260133666666666,,0x00,0x4C
6.261293541666666,,0x00,0x88
6.262453416666666,,0x00,0x48
6.263613250000000,,0x00,0x8C
6.264773125000000,,0x00,0xCC
6.265933000000000,,0x00,0x8E
6.267092875000000,,0x00,0xFF
6.268252708333334,,0x00,0xFF
6.269412583333334,,0x00,0xFF
6.270572458333334,,0x00,0xFF
6.271732291666667,,0x00,0xFF
6.272892166666667,,0x00,0xFF
6.274052041666667,,0x00,0x06
6.275211875000000,,0x00,0x00
6.276371750000000,,0x00,0xFA
6.277531625000000,,0x00,0x04
6.278691500000000,,0x00,0x7A
6.279851333333333,,0x00,0xE4
6.281011208333333,,0x00,0xA2
6.282171083333333,,0x00,0x44
6.283330916666666,,0x00,0x06
6.284490791666666,,0x00,0x0C
6.285650666666666,,0x00,0xFF
6.286810541666667,,0x00,0xFF
6.287970375000000,,0x00,0xFF
6.289130250000000,,0x00,0xFF
6.290290125000000,,0x00,0xFF
6.291449958333334,,0x00,0xFF
6.292731916666667,,0x00,0x20
6.293891791666667,,0x00,0x31
6.295051666666667,,0x00,0x21
6.296211500000000,,0x00,0x30
6.297371375000000,,0x00,0x20
6.298531250000000,,0x00,0x31
6.299691083333333,,0x00,0x21
6.300850958333333,,0x00,0x31
6.302010833333333,,0x00,0x61
6.303170708333333,,0x00,0x31
6.304330541666666,,0x00,0xFF
6.305490416666666,,0x00,0xFF
6.306650291666666,,0x00,0xFF
6.307810125000000,,0x00,0xFF
6.308970000000000,,0x00,0xFF
6.310129875000000,,0x00,0xFF
6.311289750000000,,0x00,0x00
6.312449583333334,,0x00,0x18
6.313609458333334,,0x00,0x00
6.314769333333333,,0x00,0x18
6.315929166666667,,0x00,0x00
6.317089041666667,,0x00,0x18
6.318248916666667,,0x00,0x98
6.319408750000000,,0x00,0x00
6.320568625000000,,0x00,0xC0
6.321728500000000,,0x00,0x80
6.322888375000000,,0x00,0xFF
6.324048208333333,,0x00,0xFF
6.325208083333333,,0x00,0xFF
6.326367958333333,,0x00,0xFF
6.327527791666666,,0x00,0xFF
6.328687666666666,,0x00,0xFF
6.329847541666667,,0x00,0x04
6.331007416666667,,0x00,0x8C
6.332167250000000,,0x00,0x84
6.333327125000000,,0x00,0x0C
6.334487000000000,,0x00,0x04
6.335646833333334,,0x00,0x8C
6.336806708333333,,0x00,0x48
6.337966583333333,,0x00,0x84
6.339126458333333,,0x00,0x61
6.340286291666667,,0x00,0xC0
6.341446166666667,,0x00,0xFF
6.342606041666667,,0x00,0xFF
6.343765875000000,,0x00,0xFF
6.344925750000000,,0x00,0xFF
6.346085625000000,,0x00,0xFF
6.347245458333333,,0x00,0xFF
6.348405333333333,,0x00,0x7F
6.349565208333333,,0x00,0x3F
6.350725083333334,,0x00,0x7F
6.351884916666667,,0x00,0x3F
6.353044791666667,,0x00,0x7F
6.354204666666667,,0x00,0x3F
6.355364500000000,,0x00,0x3F
6.356524375000000,,0x00,0x7F
6.357684250000000,,0x00,0x7F
6.358844125000000,,0x00,0xFF
6.360003958333333,,0x00,0xFF
6.361163833333333,,0x00,0xFF
6.362323708333333,,0x00,0xFF
6.363483541666667,,0x00,0xFF
6.364643416666667,,0x00,0xFF
6.365803291666666,,0x00,0xFF
6.366963125000000,,0x00,0xFF
6.368123000000000,,0x00,0xFF
6.369282875000000,,0x00,0xFF
6.370442750000000,,0x00,0xFF
6.371602583333333,,0x00,0xFF
6.372762458333334,,0x00,0xFF
6.373922333333334,,0x00,0xFF
6.375082166666667,,0x00,0xFF
6.376242041666667,,0x00,0xFF
6.377401916666667,,0x00,0xFF
6.378561791666667,,0x00,0xFF
6.379721625000000,,0x00,0xFF
6.380881500000000,,0x00,0xFF
6.382041375000000,,0x00,0xFF
6.383201208333333,,0x00,0xFF
6.384361083333333,,0x00,0xFF
6.385520958333333,,0x00,0xFF
6.386680791666667,,0x00,0xFF
6.387840666666667,,0x00,0xFF
6.389000541666666,,0x00,0xFF
6.390160416666666,,0x00,0xFF
6.391320250000000,,0x00,0xFF
6.392480125000000,,0x00,0xFF
6.393640000000000,,0x00,0xFF
6.394799833333333,,0x00,0xFF
6.395959708333334,,0x00,0xFF
6.397119583333334,,0x00,0xFF
6.398279458333334,,0x00,0xFF
6.399439291666667,,0x00,0xFF
6.400599166666667,,0x00,0xFF
6.401759041666667,,0x00,0xFF
6.402918875000000,,0x00,0xFF
6.404078750000000,,0x00,0xFF
6.405238625000000,,0x00,0xFF
6.406398458333333,,0x00,0xFF
6.407558333333333,,0x00,0xFF
6.408718208333333,,0x00,0xFF
6.409939125000000,,0x00,0xFF
6.411098958333334,,0x00,0xFF
6.412258833333333,,0x00,0xFF
6.413418708333333,,0x00,0xFF
6.414578583333333,,0x00,0xFF
6.415738416666667,,0x00,0xFF
6.416898291666667,,0x00,0xFF
6.418058166666667,,0x00,0xFF
6.419218000000000,,0x00,0xFF
6.420377875000000,,0x00,0xFF
6.421537750000000,,0x00,0xFF
6.422697583333333,,0x00,0xFF
6.423857458333333,,0x00,0xFF
6.425017333333333,,0x00,0xFF
6.426177208333334,,0x00,0xFF
6.427337041666667,,0x00,0xFF
6.428496916666667,,0x00,0xFF
6.429656791666667,,0x00,0xFF
6.430816625000000,,0x00,0xFF
6.431976500000000,,0x00,0xFF
6.433136375000000,,0x00,0xFF
6.434296250000000,,0x00,0xFF
6.435456083333333,,0x00,0xFF
6.436615958333333,,0x00,0xFF
6.437775833333333,,0x00,0xFF
6.438935666666667,,0x00,0xFF
6.440095541666667,,0x00,0xFF
6.441255416666666,,0x00,0xFF
6.442415250000000,,0x00,0xFF
6.443575125000000,,0x00,0xFF
6.444735000000000,,0x00,0xFF
6.445894875000000,,0x00,0xFF
6.447054708333333,,0x00,0xFF
6.448214583333334,,0x00,0xFF
6.449374458333334,,0x00,0xFF
6.450534291666667,,0x00,0xFF
6.451694166666667,,0x00,0xFF
6.452854041666667,,0x00,0xFF
6.454013916666667,,0x00,0xFF
6.455173750000000,,0x00,0xFF
6.456333625000000,,0x00,0xFF
6.457493500000000,,0x00,0xFF
6.458653333333333,,0x00,0xFF
6.459752166666667,,0x00,0xC6
6.460851000000000,,0x00,0x0C
6.461949791666667,,0x81,0x00
6.463048625000000,,0x00,0x00
6.510786125000000,,0x00,0x88
6.511884958333333,,0x00,0x33
6.513044791666666,,0x00,0x0F
6.514204666666667,,0x00,0x00
6.515364541666667,,0x00,0x00
6.516524375000000,,0x00,0x00
6.517684250000000,,0x00,0x0F
6.518844125000000,,0x00,0x00
6.520004000000000,,0x81,0x00
6.521163833333333,,0x00,0x00
6.531114250000000,,0x00,0x88
6.532213083333334,,0x00,0x33
6.533372916666667,,0x00,0x04
6.534532791666667,,0x00,0x00
6.535692666666667,,0x00,0x80
6.536852500000000,,0x00,0x02
6.538012375000000,,0x00,0xFF
6.539172250000000,,0x00,0xFF
6.540332083333333,,0x00,0xFF
6.541491958333333,,0x00,0xFF
6.542651833333333,,0x00,0xFF
6.543872750000000,,0x00,0xFF
6.545032583333334,,0x00,0xFF
6.546192458333334,,0x00,0xFF
6.547352333333333,,0x00,0xFF
6.548512208333333,,0x00,0xFF
6.549672041666667,,0x00,0xFF
6.550831916666667,,0x00,0xFF
6.551991791666667,,0x00,0xFF
6.553151625000000,,0x00,0xFF
6.554311500000000,,0x00,0xFF
6.555471375000000,,0x00,0xFF
6.556631208333333,,0x00,0xFF
6.557791083333333,,0x00,0xFF
6.558950958333333,,0x00,0xFF
6.560110833333333,,0x00,0xFF
6.561270666666666,,0x00,0xFF
6.562430541666667,,0x00,0xFF
6.563590416666667,,0x00,0xFF
6.564750250000000,,0x00,0xFF
6.565910125000000,,0x00,0xFF
6.567070000000000,,0x00,0xFF
6.568229875000000,,0x00,0xFF
6.569389708333333,,0x00,0xFF
6.570549583333333,,0x00,0xFF
6.571709458333333,,0x00,0xFF
6.572869291666667,,0x00,0xFF
6.574029166666667,,0x00,0xFF
6.575189041666667,,0x00,0xFF
6.576348875000000,,0x00,0xFF
6.577508750000000,,0x00,0xFF
6.578668625000000,,0x00,0xFF
6.579828500000000,,0x00,0xFF
6.580988333333333,,0x00,0xFF
6.582148208333333,,0x00,0xFF
6.583308083333334,,0x00,0xFF
6.584467916666667,,0x00,0xFF
6.585627791666667,,0x00,0xFF
6.586787666666667,,0x00,0xFF
6.587947541666667,,0x00,0xFF
6.589107375000000,,0x00,0xFF
6.590267250000000,,0x00,0xFF
6.591427125000000,,0x00,0xFF
6.592586958333333,,0x00,0xFF
6.593746833333333,,0x00,0xFF
6.594906708333333,,0x00,0xFF
6.596066583333333,,0x00,0xFF
6.597226416666667,,0x00,0xFF
6.598386291666666,,0x00,0xFF
6.599546166666666,,0x00,0xFF
6.600706000000000,,0x00,0xFF
6.601865875000000,,0x00,0xFF
6.603025750000000,,0x00,0xFF
6.604185583333333,,0x00,0xFF
6.605345458333334,,0x00,0xFF
6.606505333333334,,0x00,0xFF
6.607665208333334,,0x00,0xFF
6.608825041666667,,0x00,0xFF
6.609984916666667,,0x00,0xFF
6.611144791666667,,0x00,0xFF
6.612304625000000,,0x00,0xFF
6.613464500000000,,0x00,0xFF
6.614624375000000,,0x00,0xFF
6.615784250000000,,0x00,0xFF
6.616944083333333,,0x00,0xFF
6.618103958333333,,0x00,0xFF
6.619263833333333,,0x00,0xFF
6.620423666666666,,0x00,0xFF
6.621583541666666,,0x00,0xFF
6.622743416666666,,0x00,0xFF
6.623903250000000,,0x00,0xFF
6.625063125000000,,0x00,0xFF
6.626223000000000,,0x00,0xFF
6.627382875000000,,0x00,0xFF
6.628542708333334,,0x00,0xFF
6.629702583333334,,0x00,0xFF
6.630862458333334,,0x00,0xFF
6.632022291666667,,0x00,0xFF
6.633182166666667,,0x00,0xFF
6.634342041666667,,0x00,0xFF
6.635501875000000,,0x00,0xFF
6.636661750000000,,0x00,0xFF
6.637821625000000,,0x00,0xFF
6.638981500000000,,0x00,0xFF
6.640141333333333,,0x00,0xFF
6.641301208333333,,0x00,0xFF
6.642461083333333,,0x00,0xFF
6.643620916666666,,0x00,0xFF
6.644780791666666,,0x00,0xFF
6.645940666666666,,0x00,0xFF
6.647100541666667,,0x00,0xFF
6.648260375000000,,0x00,0xFF
6.649420250000000,,0x00,0xFF
6.650580125000000,,0x00,0xFF
6.651739958333334,,0x00,0xFF
6.652899833333334,,0x00,0xFF
6.654059708333333,,0x00,0xFF
6.655219583333333,,0x00,0xFF
6.656379416666667,,0x00,0xFF
6.657539291666667,,0x00,0xFF
6.658699166666667,,0x00,0xFF
6.659859000000000,,0x00,0xFF
6.661140958333333,,0x00,0xFF
6.662300833333333,,0x00,0xFF
6.663460708333333,,0x00,0xFF
6.664620541666666,,0x00,0xFF
6.665780416666666,,0x00,0xFF
6.666940291666666,,0x00,0xFF
6.668100125000000,,0x00,0xFF
6.669260000000000,,0x00,0xFF
6.670419875000000,,0x00,0xFF
6.671579750000000,,0x00,0xFF
6.672739583333334,,0x00,0xFF
6.673899458333334,,0x00,0xFF
6.675059333333333,,0x00,0xFF
6.676219166666667,,0x00,0xFF
6.677379041666667,,0x00,0xFF
6.678538916666667,,0x00,0xFF
6.679698791666667,,0x00,0xFF
6.680858625000000,,0x00,0xFF
6.682018500000000,,0x00,0xFF
6.683178375000000,,0x00,0xFF
6.684338208333333,,0x00,0xFF
6.685498083333333,,0x00,0xFF
6.686657958333333,,0x00,0xF5
6.687817791666666,,0x00,0xFF
6.688977666666666,,0x00,0xF2
6.690137541666667,,0x00,0xFF
6.691297416666667,,0x00,0xD5
6.692457250000000,,0x00,0xFF
6.693617125000000,,0x00,0xCA
6.694777000000000,,0x00,0xFF
6.695936833333334,,0x00,0xD5
6.697096708333333,,0x00,0xFF
6.698256583333333,,0x00,0xA0
6.699416458333333,,0x00,0xFF
6.700576291666667,,0x00,0xD5
6.701736166666667,,0x00,0xFF
6.702896041666667,,0x00,0xBF
6.704055875000000,,0x00,0xFF
6.705215750000000,,0x00,0x42
6.706375625000000,,0x00,0xFD
6.707535458333333,,0x00,0x00
6.708695333333333,,0x00,0xFF
6.709855208333333,,0x00,0x68
6.711015083333334,,0x00,0xD7
6.712174916666667,,0x00,0x02
6.713334791666667,,0x00,0xFC
6.714494666666667,,0x00,0x29
6.715654500000000,,0x00,0xD4
6.716814375000000,,0x00,0x02
6.717974250000000,,0x00,0xF8
6.719134125000000,,0x00,0x15
6.720293958333333,,0x00,0xF0
6.721453833333333,,0x00,0x0A
6.722613708333333,,0x00,0xF0
6.723773541666667,,0x00,0x17
6.724933416666667,,0x00,0xC0
6.726093291666666,,0x00,0xBF
6.727253125000000,,0x00,0x00
6.728413000000000,,0x00,0x55
6.729572875000000,,0x00,0x00
6.730732750000000,,0x00,0xFF
6.731892583333333,,0x00,0x00
6.733052458333334,,0x00,0x55
6.734212333333334,,0x00,0x00
6.735372166666667,,0x00,0xBB
6.736532041666667,,0x00,0x00
6.737691916666667,,0x00,0x55
6.738851791666667,,0x00,0x00
6.740011625000000,,0x00,0xAA
6.741171500000000,,0x00,0x00
6.742331375000000,,0x00,0x76
6.743491208333333,,0x00,0x01
6.744651083333333,,0x00,0xFF
6.745810958333333,,0x00,0x00
6.746970833333333,,0x00,0x55
6.748130666666666,,0x00,0x00
6.749290541666666,,0x00,0xFF
6.750450416666666,,0x00,0x00
6.751610250000000,,0x00,0x75
6.752770125000000,,0x00,0x00
6.753930000000000,,0x00,0xBF
6.755089833333333,,0x00,0x00
6.756249708333334,,0x00,0x55
6.757409583333334,,0x00,0x00
6.758569458333334,,0x00,0xFF
6.759729291666667,,0x00,0x00
6.760889166666667,,0x00,0xBF
6.762049041666667,,0x00,0x7F
6.763208875000000,,0x00,0x3F
6.764368750000000,,0x00,0xFF
6.765528625000000,,0x00,0xD5
6.766688500000000,,0x00,0x7F
6.767848333333333,,0x00,0xFE
6.769008208333333,,0x00,0x3F
6.770168083333333,,0x00,0x75
6.771327916666666,,0x00,0x1F
6.772487791666666,,0x00,0xFF
6.773647666666666,,0x00,0x0F
6.774807500000000,,0x00,0x57
6.775967375000000,,0x00,0x0C
6.777127250000000,,0x00,0xEC
6.778348166666667,,0x00,0x00
6.779508000000000,,0x00,0xFF
6.780667875000000,,0x00,0xFF
6.781827750000000,,0x00,0xFF
6.782987625000000,,0x00,0xFF
6.784147458333333,,0x00,0x57
6.785307333333333,,0x00,0xFC
6.786467208333334,,0x00,0xA8
6.787627041666667,,0x00,0xF0
6.788786916666667,,0x00,0x71
6.789946791666667,,0x00,0xC0
6.791106625000000,,0x00,0x00
6.792266500000000,,0x00,0x80
6.793426375000000,,0x00,0x15
6.794586250000000,,0x00,0x00
6.795746083333333,,0x00,0x0A
6.796905958333333,,0x00,0x00
6.798065833333333,,0x00,0xF5
6.799225666666667,,0x00,0xFF
6.800385541666667,,0x00,0xFB
6.801545416666666,,0x00,0x80
6.802705250000000,,0x00,0x45
6.803865125000000,,0x00,0x00
6.805025000000000,,0x00,0x0A
6.806184875000000,,0x00,0x00
6.807344708333333,,0x00,0x55
6.808504583333334,,0x00,0x00
6.809664458333334,,0x00,0x3B
6.810824291666667,,0x00,0x00
6.811984166666667,,0x00,0x55
6.813144041666667,,0x00,0x00
6.814303916666667,,0x00,0xAF
6.815463750000000,,0x00,0x00
6.816623625000000,,0x00,0xFD
6.817783500000000,,0x00,0xFF
6.818943333333333,,0x00,0x7F
6.820103208333333,,0x00,0xFF
6.821263083333333,,0x00,0xBD
6.822422916666667,,0x00,0x7F
6.823582791666666,,0x00,0xDE
6.824742666666666,,0x00,0x3F
6.825902541666666,,0x00,0x6F
6.827062375000000,,0x00,0x1F
6.828222250000000,,0x00,0xFE
6.829382125000000,,0x00,0x0F
6.830541958333334,,0x00,0x5D
6.831701833333334,,0x00,0x0F
6.832861708333334,,0x00,0xFE
6.834021583333334,,0x00,0x0F
6.835181416666667,,0x00,0x57
6.836341291666667,,0x00,0xFF
6.837501166666667,,0x00,0x3B
6.838661000000000,,0x00,0xFF
6.839820875000000,,0x00,0x55
6.840980750000000,,0x00,0xFF
6.842140625000000,,0x00,0xAE
6.843300458333333,,0x00,0xFF
6.844460333333333,,0x00,0x75
6.845620208333333,,0x00,0xFF
6.846780041666666,,0x00,0xEA
6.847939916666666,,0x00,0xFF
6.849099791666666,,0x00,0x55
6.850259625000000,,0x00,0xFF
6.851419500000000,,0x00,0xEA
6.852579375000000,,0x00,0xFF
6.853739250000000,,0x00,0xD5
6.854899083333334,,0x00,0xFF
6.856058958333334,,0x00,0xFF
6.857218833333333,,0x00,0xFF
6.858378666666667,,0x00,0xD5
6.859538541666667,,0x00,0xFF
6.860698416666667,,0x00,0xEF
6.861858291666667,,0x00,0xFF
6.863018125000000,,0x00,0x55
6.864178000000000,,0x00,0xFF
6.865337875000000,,0x00,0xBF
6.866497708333333,,0x00,0xFF
6.867657583333333,,0x00,0x55
6.868817458333333,,0x00,0xFF
6.869977291666666,,0x00,0xFF
6.871137166666666,,0x00,0xFF
6.872297041666667,,0x00,0xFF
6.873456916666667,,0x00,0xFF
6.874616750000000,,0x00,0xFF
6.875776625000000,,0x00,0xFF
6.876936500000000,,0x00,0xFF
6.878096333333334,,0x00,0xFF
6.879256208333334,,0x00,0xFF
6.880416083333333,,0x00,0xFF
6.881575958333333,,0x00,0xFF
6.882735791666667,,0x00,0xFF
6.883895666666667,,0x00,0xFF
6.885055541666667,,0x00,0xFF
6.886215375000000,,0x00,0xFF
6.887375250000000,,0x00,0xFF
6.888535125000000,,0x00,0xFF
6.889694958333333,,0x00,0xFF
6.890854833333333,,0x00,0xFF
6.892014708333333,,0x00,0xFF
6.893174583333334,,0x00,0xFF
6.894334416666666,,0x00,0xFF
6.895555333333333,,0x00,0xFF
6.896715208333333,,0x00,0xFF
6.897875083333333,,0x00,0xFF
6.899034916666666,,0x00,0xFF
6.900194791666666,,0x00,0xFF
6.901354666666666,,0x00,0xFF
6.902514500000000,,0x00,0xFF
6.903674375000000,,0x00,0xFF
6.904834250000000,,0x00,0xFF
6.905994083333334,,0x00,0xFF
6.907153958333334,,0x00,0xFF
6.908313833333334,,0x00,0xFF
6.909473708333334,,0x00,0xFF
6.910633541666667,,0x00,0xFF
6.911793416666667,,0x00,0xFF
6.912953291666667,,0x00,0xFF
6.914113125000000,,0x00,0xFF
6.915273000000000,,0x00,0xFF
6.916432875000000,,0x00,0xFF
6.917592750000000,,0x00,0xFF
6.918752583333333,,0x00,0xFF
6.919912458333333,,0x00,0xFF
6.921072333333333,,0x00,0xFF
6.922232166666666,,0x00,0xFF
6.923392041666666,,0x00,0xFF
6.924551916666666,,0x00,0xFF
6.925711750000000,,0x00,0xFF
6.926871625000000,,0x00,0xFF
6.928031500000000,,0x00,0xFF
6.929191375000000,,0x00,0xFF
6.930351208333334,,0x00,0xFF
6.931511083333334,,0x00,0xFF
6.932670958333333,,0x00,0xFF
6.933830791666667,,0x00,0xFF
6.934990666666667,,0x00,0xFF
6.936150541666667,,0x00,0xFF
6.937310416666667,,0x00,0xFF
6.938470250000000,,0x00,0xFF
6.939630125000000,,0x00,0xFF
6.940790000000000,,0x00,0xFF
6.941949833333333,,0x00,0xFF
6.943109708333333,,0x00,0xFF
6.944269583333333,,0x00,0xFF
6.945429416666666,,0x00,0xFF
6.946589291666666,,0x00,0xFF
6.947749166666667,,0x00,0xFF
6.948909041666667,,0x00,0xFF
6.950068875000000,,0x00,0xFF
6.951228750000000,,0x00,0xFF
6.952388625000000,,0x00,0xFF
6.953548458333334,,0x00,0xFF
6.954708333333333,,0x00,0xFF
6.955868208333333,,0x00,0xFF
6.957028083333333,,0x00,0xFF
6.958187916666667,,0x00,0xFF
6.959347791666667,,0x00,0xFF
6.960507666666667,,0x00,0xFF
6.961667500000000,,0x00,0xFF
6.962827375000000,,0x00,0xFF
6.963987250000000,,0x00,0xFF
6.965147083333333,,0x00,0xFF
6.966306958333333,,0x00,0xFF
6.967466833333333,,0x00,0xFF
6.968626708333334,,0x00,0xFF
6.969786541666666,,0x00,0xFF
6.970946416666667,,0x00,0xFF
6.972106291666667,,0x00,0xFF
6.973266125000000,,0x00,0xFF
6.974426000000000,,0x00,0xFF
6.975585875000000,,0x00,0xFF
6.976745750000000,,0x00,0xFF
6.977905583333333,,0x00,0xFF
6.979065458333333,,0x00,0xFF
6.980225333333333,,0x00,0xFF
6.981385166666667,,0x00,0xFF
6.982545041666667,,0x00,0xFF
6.983704916666666,,0x00,0xFF
6.984864750000000,,0x00,0xFF
6.986024625000000,,0x00,0xFF
6.987184500000000,,0x00,0xFF
6.988344375000000,,0x00,0xFF
6.989504208333333,,0x00,0xFF
6.990664083333333,,0x00,0xFD
6.991823958333334,,0x00,0xFE
6.992983791666667,,0x00,0xFD
6.994143666666667,,0x00,0xF8
6.995303541666667,,0x00,0xF2
6.996463416666667,,0x00,0xF0
6.997623250000000,,0x00,0xF5
6.998783125000000,,0x00,0xE0
6.999943000000000,,0x00,0xCA
7.001102833333333,,0x00,0xE0
7.002262708333333,,0x00,0xFF
7.003422583333333,,0x00,0xFF
7.004582416666667,,0x00,0xFF
7.005742291666667,,0x00,0xFF
7.006902166666666,,0x00,0xDF
7.008062041666666,,0x00,0xFF
7.009221875000000,,0x00,0xAF
7.010381750000000,,0x00,0x00
7.011541625000000,,0x00,0x55
7.012762541666667,,0x00,0x00
7.013922375000000,,0x00,0x22
7.015082250000000,,0x00,0x00
7.016242125000000,,0x00,0x55
7.017401958333333,,0x00,0x00
7.018561833333333,,0x00,0xAF
7.019721708333333,,0x00,0x00
7.020881541666666,,0x00,0xFF
7.022041416666666,,0x00,0xFF
7.023201291666667,,0x00,0xFF
7.024361166666667,,0x00,0xFF
7.025521000000000,,0x00,0xFF
7.026680875000000,,0x00,0xFF
7.027840750000000,,0x00,0x7F
7.029000583333334,,0x00,0xFF
7.030160458333333,,0x00,0x6F
7.031320333333333,,0x00,0x17
7.032480166666667,,0x00,0x0B
7.033640041666667,,0x00,0x00
7.034799916666667,,0x00,0x55
7.035959791666667,,0x00,0x00
7.037119625000000,,0x00,0xE8
7.038279500000000,,0x00,0x00
7.039439375000000,,0x00,0xFF
7.040599208333333,,0x00,0xFF
7.041759083333333,,0x00,0xFF
7.042918958333333,,0x00,0xFF
7.044078833333334,,0x00,0xFF
7.045238666666667,,0x00,0xFF
7.046398541666667,,0x00,0xFF
7.047558416666667,,0x00,0xFF
7.048718250000000,,0x00,0xFF
7.049878125000000,,0x00,0xFF
7.051038000000000,,0x00,0x3F
7.052197875000000,,0x00,0xFF
7.053357708333333,,0x00,0x77
7.054517583333333,,0x00,0x0F
7.055677458333333,,0x00,0x3F
7.056837291666667,,0x00,0x00
7.057997166666667,,0x00,0xD1
7.059157041666666,,0x00,0xFF
7.060316875000000,,0x00,0xB0
7.061476750000000,,0x00,0xFF
7.062636625000000,,0x00,0xD8
7.063796500000000,,0x00,0xF7
7.064956333333333,,0x00,0x80
7.066116208333334,,0x00,0xFF
7.067276083333334,,0x00,0x09
7.068435916666667,,0x00,0xF7
7.069595791666667,,0x00,0x01
7.070755666666667,,0x00,0xFF
7.071915541666667,,0x00,0x82
7.073075375000000,,0x00,0xFD
7.074235250000000,,0x00,0xFE
7.075395125000000,,0x00,0x00
7.076554958333333,,0x00,0x15
7.077714833333333,,0x00,0xE0
7.078874708333333,,0x00,0x13
7.080034541666667,,0x00,0xE0
7.081194416666666,,0x00,0x55
7.082354291666666,,0x00,0xC0
7.083514166666666,,0x00,0x6E
7.084674000000000,,0x00,0xC0
7.085833875000000,,0x00,0x55
7.086993750000000,,0x00,0x80
7.088153583333333,,0x00,0xBA
7.089313458333334,,0x00,0x80
7.090473333333334,,0x00,0x55
7.091633208333334,,0x00,0x00
7.092793041666667,,0x00,0xAA
7.093952916666667,,0x00,0x00
7.095112791666667,,0x00,0x55
7.096272625000000,,0x00,0x00
7.097432500000000,,0x00,0xA3
7.098592375000000,,0x00,0x00
7.099752250000000,,0x00,0x55
7.100912083333333,,0x00,0x00
7.102071958333333,,0x00,0xAF
7.103231833333333,,0x00,0x01
7.104391666666666,,0x00,0x57
7.105551541666666,,0x00,0x03
7.106711416666666,,0x00,0xAF
7.107871250000000,,0x00,0x07
7.109031125000000,,0x00,0x5F
7.110191000000000,,0x00,0x04
7.111350875000000,,0x00,0xAC
7.112510708333334,,0x00,0x0C
7.113670583333334,,0x00,0x55
7.114830458333333,,0x00,0x00
7.115990291666667,,0x00,0xFF
7.117150166666667,,0x00,0x00
7.118310041666667,,0x00,0xA5
7.119469875000000,,0x00,0x50
7.120629750000000,,0x00,0xFA
7.121789625000000,,0x00,0xFC
7.122949500000000,,0x00,0xA5
7.124109333333333,,0x00,0xDE
7.125269208333333,,0x00,0x01
7.126429083333333,,0x00,0x02
7.127588916666666,,0x00,0x55
7.128748791666666,,0x00,0x00
7.129969708333333,,0x00,0x0E
7.131129583333333,,0x00,0x00
7.132289416666667,,0x00,0x55
7.133449291666667,,0x00,0x00
7.134609166666666,,0x00,0xAE
7.135769000000000,,0x00,0x00
7.136928875000000,,0x00,0x55
7.138088750000000,,0x00,0x00
7.139248625000000,,0x00,0xEF
7.140408458333333,,0x00,0x00
7.141568333333334,,0x00,0x57
7.142728208333334,,0x00,0x00
7.143888041666667,,0x00,0xBF
7.145047916666667,,0x00,0x00
7.146207791666667,,0x00,0x7F
7.147367666666667,,0x00,0x00
7.148527500000000,,0x00,0xFF
7.149687375000000,,0x00,0x00
7.150847250000000,,0x00,0x55
7.152007083333333,,0x00,0x00
7.153166958333333,,0x00,0xA3
7.154326833333333,,0x00,0x00
7.155486666666667,,0x00,0x55
7.156646541666666,,0x00,0x00
7.157806416666666,,0x00,0xFE
7.158966291666666,,0x00,0x00
7.160126125000000,,0x00,0x77
7.161286000000000,,0x00,0x00
7.162445875000000,,0x00,0xFF
7.163605708333334,,0x00,0x00
7.164765583333334,,0x00,0xFB
7.165925458333334,,0x00,0x04
7.167085333333334,,0x00,0xFF
7.168245166666667,,0x00,0x00
7.169405041666667,,0x00,0x55
7.170564916666667,,0x00,0x00
7.171724750000000,,0x00,0xBB
7.172884625000000,,0x00,0x00
7.174044500000000,,0x00,0x55
7.175204333333333,,0x00,0x00
7.176364208333333,,0x00,0xAF
7.177524083333333,,0x00,0x00
7.178683958333333,,0x00,0x55
7.179843791666666,,0x00,0x00
7.181003666666666,,0x00,0x82
7.182163541666666,,0x00,0x00
7.183323375000000,,0x00,0x85
7.184483250000000,,0x00,0x40
7.185643125000000,,0x00,0xDF
7.186803000000000,,0x00,0x20
7.187962833333334,,0x00,0x75
7.189122708333334,,0x00,0x0F
7.190282583333333,,0x00,0xF6
7.191442416666667,,0x00,0x0F
7.192602291666667,,0x00,0x5D
7.193762166666667,,0x00,0x07
7.194922000000000,,0x00,0xFA
7.196081875000000,,0x00,0x07
7.197241750000000,,0x00,0x53
7.198401625000000,,0x00,0x07
7.199561458333333,,0x00,0x2F
7.200721333333333,,0x00,0x03
7.201881208333333,,0x00,0x5E
7.203041041666666,,0x00,0x01
7.204200916666666,,0x00,0xFF
7.205360791666667,,0x00,0x00
7.206520666666667,,0x00,0x55
7.207680500000000,,0x00,0xFF
7.208840375000000,,0x00,0xBA
7.210000250000000,,0x00,0xFF
7.211160083333334,,0x00,0x55
7.212319958333334,,0x00,0xFF
7.213479833333333,,0x00,0xFE
7.214639708333333,,0x00,0xFF
7.215799541666667,,0x00,0x55
7.216959416666667,,0x00,0xFF
7.218119291666667,,0x00,0xAB
7.219279125000000,,0x00,0xFF
7.220439000000000,,0x00,0x57
7.221598875000000,,0x00,0xFF
7.222758708333333,,0x00,0xEE
7.223918583333333,,0x00,0x3F
7.225078458333333,,0x00,0x55
7.226238333333334,,0x00,0xFF
7.227398166666666,,0x00,0xBB
7.228558041666667,,0x00,0xFF
7.229717916666667,,0x00,0x55
7.230877750000000,,0x00,0xFF
7.232037625000000,,0x00,0xAE
7.233197500000000,,0x00,0xFF
7.234357375000000,,0x00,0x77
7.235517208333333,,0x00,0xFF
7.236677083333333,,0x00,0xAF
7.237836958333333,,0x00,0xFF
7.238996791666667,,0x00,0x55
7.240156666666667,,0x00,0xFF
7.241316541666666,,0x00,0xAE
7.242476375000000,,0x00,0xFF
7.243636250000000,,0x00,0xFF
7.244796125000000,,0x00,0xFF
7.245956000000000,,0x00,0xFF
7.247176875000000,,0x00,0xFF
7.248336750000000,,0x00,0xFF
7.249496625000000,,0x00,0xFF
7.250656458333333,,0x00,0xFF
7.251816333333333,,0x00,0xFF
7.252976208333333,,0x00,0xFF
7.254136083333333,,0x00,0xFF
7.255295916666666,,0x00,0xFF
7.256455791666666,,0x00,0xFF
7.257615666666666,,0x00,0xFF
7.258775500000000,,0x00,0xFF
7.259935375000000,,0x00,0xFF
7.261095250000000,,0x00,0xFF
7.262255125000000,,0x00,0xFF
7.263414958333334,,0x00,0xFF
7.264574833333334,,0x00,0xFF
7.265734708333333,,0x00,0xFF
7.266894541666667,,0x00,0xFF
7.268054416666667,,0x00,0xFF
7.269214291666667,,0x00,0xFF
7.270374125000000,,0x00,0xFF
7.271534000000000,,0x00,0xFF
7.272693875000000,,0x00,0xFF
7.273853750000000,,0x00,0xFF
7.275013583333333,,0x00,0xFF
7.276173458333333,,0x00,0xFF
7.277333333333333,,0x00,0xFF
7.278493166666666,,0x00,0xFF
7.279653041666666,,0x00,0xFF
7.280751875000000,,0x00,0x6F
7.281850666666666,,0x00,0xCF
7.282949500000000,,0x81,0x00
7.284048333333334,,0x00,0x00
7.334960208333333,,0x00,0x88
7.336059000000000,,0x00,0x33
7.337218875000000,,0x00,0x04
7.338378708333333,,0x00,0x00
7.339538583333334,,0x00,0x80
7.340698458333334,,0x00,0x02
7.341858333333334,,0x00,0xFF
7.343018166666667,,0x00,0xFF
7.344178041666667,,0x00,0xFF
7.345337916666667,,0x00,0xFF
7.346497750000000,,0x00,0xFF
7.347657625000000,,0x00,0xFF
7.348817500000000,,0x00,0xFF
7.349977375000000,,0x00,0xFF
7.351137208333333,,0x00,0xFF
7.352297083333333,,0x00,0xFF
7.353456958333333,,0x00,0xFF
7.354616791666666,,0x00,0xFF
7.355776666666666,,0x00,0xFF
7.356936541666666,,0x00,0xFF
7.358096416666666,,0x00,0xFF
7.359256250000000,,0x00,0xFF
7.360416125000000,,0x00,0xFF
7.361576000000000,,0x00,0xFF
7.362735833333334,,0x00,0xFF
7.363895708333334,,0x00,0xFF
7.365055583333334,,0x00,0xFF
7.366215416666667,,0x00,0xFF
7.367375291666667,,0x00,0xFF
7.368535166666667,,0x00,0xFF
7.369695041666667,,0x00,0xFF
7.370854875000000,,0x00,0xFF
7.372014750000000,,0x00,0xFF
7.373174625000000,,0x00,0xFF
7.374334458333333,,0x00,0xFF
7.375494333333333,,0x00,0xFF
7.376654208333333,,0x00,0xFF
7.377814083333333,,0x00,0xFF
7.378973916666666,,0x00,0xFF
7.380133791666666,,0x00,0xFF
7.381293666666667,,0x00,0xFF
7.382453500000000,,0x00,0xFF
7.383613375000000,,0x00,0xFF
7.384773250000000,,0x00,0xFF
7.385933083333334,,0x00,0xFF
7.387092958333334,,0x00,0xFF
7.388252833333333,,0x00,0xFF
7.389412708333333,,0x00,0xFF
7.390572541666667,,0x00,0xFF
7.391732416666667,,0x00,0xFF
7.392892291666667,,0x00,0xFF
7.394052125000000,,0x00,0xFF
7.395212000000000,,0x00,0xFF
7.396371875000000,,0x00,0xFF
7.397531750000000,,0x00,0xFF
7.398691583333333,,0x00,0xFF
7.399851458333333,,0x00,0xFF
7.401011333333333,,0x00,0xFF
7.402171166666666,,0x00,0xFF
7.403331041666666,,0x00,0xFF
7.404490916666667,,0x00,0xFF
7.405650750000000,,0x00,0xFF
7.406810625000000,,0x00,0xFF
7.407970500000000,,0x00,0xFF
7.409130375000000,,0x00,0xFF
7.410290208333334,,0x00,0xFF
7.411450083333333,,0x00,0xFF
7.412609958333333,,0x00,0xFF
7.413769791666667,,0x00,0xFF
7.414929666666667,,0x00,0xFF
7.416089541666667,,0x00,0xD5
7.417249416666666,,0x00,0xC0
7.418409250000000,,0x00,0xFB
7.419569125000000,,0x00,0xC0
7.420729000000000,,0x00,0xD5
7.421888833333333,,0x00,0xC0
7.423048708333333,,0x00,0xBF
7.424208583333333,,0x00,0xC0
7.425368416666666,,0x00,0x97
7.426528291666667,,0x00,0xC0
7.427688166666667,,0x00,0xBF
7.428848041666667,,0x00,0xC0
7.430007875000000,,0x00,0xBD
7.431167750000000,,0x00,0xC0
7.432327625000000,,0x00,0xBF
7.433487458333333,,0x00,0xC0
7.434647333333333,,0x00,0x55
7.435807208333333,,0x00,0x00
7.436967083333333,,0x00,0xFF
7.438126916666667,,0x00,0x00
7.439286791666667,,0x00,0x55
7.440446666666666,,0x00,0x00
7.441606500000000,,0x00,0xFF
7.442766375000000,,0x00,0x00
7.443926250000000,,0x00,0x75
7.445086083333333,,0x00,0x00
7.446245958333333,,0x00,0xFF
7.447405833333334,,0x00,0x00
7.448565708333334,,0x00,0xD5
7.449725541666667,,0x00,0x00
7.450885416666667,,0x00,0xFF
7.452045291666667,,0x00,0x00
7.453205125000000,,0x00,0x55
7.454365000000000,,0x00,0x00
7.455524875000000,,0x00,0xBB
7.456684750000000,,0x00,0x00
7.457844583333333,,0x00,0x55
7.459004458333333,,0x00,0x00
7.460164333333333,,0x00,0xFF
7.461324166666667,,0x00,0x00
7.462484041666666,,0x00,0x55
7.463643916666666,,0x00,0x00
7.464925875000000,,0x00,0xBA
7.466085708333333,,0x00,0x00
7.467245583333334,,0x00,0x55
7.468405458333334,,0x00,0x00
7.469565333333334,,0x00,0xA8
7.470725166666667,,0x00,0x00
7.471885041666667,,0x00,0x55
7.473044916666667,,0x00,0x00
7.474204750000000,,0x00,0xA2
7.475364625000000,,0x00,0x00
7.476524500000000,,0x00,0x54
7.477684333333333,,0x00,0x00
7.478844208333333,,0x00,0xE0
7.480004083333333,,0x00,0x00
7.481163958333333,,0x00,0x50
7.482323791666667,,0x00,0x00
7.483483666666666,,0x00,0x00
7.484643541666666,,0x00,0x00
7.485803375000000,,0x00,0x00
7.486963250000000,,0x00,0x00
7.488123125000000,,0x00,0x00
7.489282958333333,,0x00,0x00
7.490442833333334,,0x00,0x55
7.491602708333334,,0x00,0x00
7.492762583333334,,0x00,0x00
7.493922416666667,,0x00,0x00
7.495082291666667,,0x00,0x40
7.496242166666667,,0x00,0x00
7.497402000000000,,0x00,0x00
7.498561875000000,,0x00,0x00
7.499721750000000,,0x00,0x00
7.500881625000000,,0x00,0x00
7.502041458333333,,0x00,0x00
7.503201333333333,,0x00,0x00
7.504361208333333,,0x00,0x00
7.505521041666666,,0x00,0x00
7.506680916666666,,0x00,0x00
7.507840791666666,,0x00,0x00
7.509000625000000,,0x00,0x55
7.510160500000000,,0x00,0x00
7.511320375000000,,0x00,0x22
7.512480250000000,,0x00,0x00
7.513640083333334,,0x00,0x54
7.514799958333334,,0x00,0x00
7.515959833333334,,0x00,0x88
7.517119666666667,,0x00,0x00
7.518279541666667,,0x00,0x55
7.519439416666667,,0x00,0x00
7.520599291666667,,0x00,0xA2
7.521759125000000,,0x00,0x00
7.522919000000000,,0x00,0x55
7.524078875000000,,0x00,0x00
7.525238708333333,,0x00,0x8A
7.526398583333333,,0x00,0x00
7.527558458333333,,0x00,0x51
7.528718333333333,,0x00,0x0C
7.529878166666666,,0x00,0x3C
7.531038041666666,,0x00,0x08
7.532197916666667,,0x00,0x59
7.533357750000000,,0x00,0x04
7.534517625000000,,0x00,0xA8
7.535677500000000,,0x00,0x04
7.536837333333334,,0x00,0x56
7.537997208333334,,0x00,0x00
7.539157083333333,,0x00,0x03
7.540316958333333,,0x00,0x00
7.541476791666667,,0x00,0x55
7.542636666666667,,0x00,0x00
7.543796541666667,,0x00,0x0A
7.544956375000000,,0x00,0x00
7.546116250000000,,0x00,0x55
7.547276125000000,,0x00,0x00
7.548436000000000,,0x00,0x2B
7.549595833333333,,0x00,0x00
7.550755708333333,,0x00,0x5D
7.551915583333333,,0x00,0x00
7.553075416666666,,0x00,0x8B
7.554235291666667,,0x00,0x00
7.555395166666667,,0x00,0x55
7.556555000000000,,0x00,0x00
7.557714875000000,,0x00,0x0B
7.558874750000000,,0x00,0x00
7.560034625000000,,0x00,0x5D
7.561194458333333,,0x00,0x00
7.562354333333333,,0x00,0x26
7.563514208333333,,0x00,0x08
7.564674041666667,,0x00,0xF7
7.565833916666667,,0x00,0x00
7.566993791666667,,0x00,0xFF
7.568153666666666,,0x00,0x00
7.569313500000000,,0x00,0xD7
7.570473375000000,,0x00,0x00
7.571633250000000,,0x00,0xFF
7.572793083333333,,0x00,0x00
7.573952958333333,,0x00,0x56
7.575112833333334,,0x00,0x01
7.576272666666667,,0x00,0xBF
7.577432541666667,,0x00,0x00
7.578592416666667,,0x00,0x5E
7.579752291666667,,0x00,0x01
7.580912125000000,,0x00,0xFF
7.582133041666666,,0x00,0x00
7.583292916666666,,0x00,0x7F
7.584452791666667,,0x00,0x00
7.585612625000000,,0x00,0xFF
7.586772500000000,,0x00,0x00
7.587932375000000,,0x00,0xFF
7.589092208333334,,0x00,0x00
7.590252083333334,,0x00,0xFF
7.591411958333333,,0x00,0x00
7.592571791666667,,0x00,0xF7
7.593731666666667,,0x00,0x00
7.594891541666667,,0x00,0xFF
7.596051416666667,,0x00,0x00
7.597211250000000,,0x00,0xF5
7.598371125000000,,0x00,0x00
7.599531000000000,,0x00,0xFF
7.600690833333333,,0x00,0x00
7.601850708333333,,0x00,0xF7
7.603010583333333,,0x00,0x10
7.604170458333333,,0x00,0xF7
7.605330291666666,,0x00,0x08
7.606490166666667,,0x00,0xE3
7.607650041666667,,0x00,0x1C
7.608809875000000,,0x00,0xFF
7.609969750000000,,0x00,0x08
7.611129625000000,,0x00,0x72
7.612289458333334,,0x00,0x0D
7.613449333333334,,0x00,0xF6
7.614609208333333,,0x00,0x0F
7.615769083333333,,0x00,0xF7
7.616928916666667,,0x00,0x0F
7.618088791666667,,0x00,0xFB
7.619248666666667,,0x00,0x0C
7.620408500000000,,0x00,0xEF
7.621568375000000,,0x00,0x10
7.622728250000000,,0x00,0xFF
7.623888083333333,,0x00,0x00
7.625047958333333,,0x00,0xFF
7.626207833333333,,0x00,0x00
7.627367708333334,,0x00,0xFF
7.628527541666666,,0x00,0x00
7.629687416666667,,0x00,0xF7
7.630847291666667,,0x00,0x00
7.632007125000000,,0x00,0xFF
7.633167000000000,,0x00,0x00
7.634326875000000,,0x00,0x15
7.635486750000000,,0x00,0xC0
7.636646583333333,,0x00,0xFF
7.637806458333333,,0x00,0xC0
7.638966333333333,,0x00,0xF7
7.640126166666667,,0x00,0x1F
7.641286041666667,,0x00,0xFF
7.642445916666667,,0x00,0x0F
7.643605791666666,,0x00,0xF5
7.644765625000000,,0x00,0x0F
7.645925500000000,,0x00,0xF6
7.647085375000000,,0x00,0x0F
7.648245208333333,,0x00,0x6B
7.649405083333333,,0x00,0x17
7.650564958333334,,0x00,0xFF
7.651724791666667,,0x00,0x03
7.652884666666667,,0x00,0xEB
7.654044541666667,,0x00,0x17
7.655204416666667,,0x00,0xF3
7.656364250000000,,0x00,0x0F
7.657524125000000,,0x00,0xD5
7.658684000000000,,0x00,0xFF
7.659843833333333,,0x00,0xFB
7.661003708333333,,0x00,0xFF
7.662163583333333,,0x00,0xDD
7.663323458333333,,0x00,0xFF
7.664483291666667,,0x00,0xEF
7.665643166666666,,0x00,0xFF
7.666803041666666,,0x00,0x55
7.667962875000000,,0x00,0xFF
7.669122750000000,,0x00,0xFA
7.670282625000000,,0x00,0xFF
7.671442458333333,,0x00,0xF7
7.672602333333334,,0x00,0xFF
7.673762208333334,,0x00,0xFF
7.674922083333334,,0x00,0xFF
7.676081916666667,,0x00,0xFF
7.677241791666667,,0x00,0xFF
7.678401666666667,,0x00,0xFF
7.679561500000000,,0x00,0xFF
7.680721375000000,,0x00,0xFF
7.681881250000000,,0x00,0xFF
7.683041125000000,,0x00,0xFF
7.684200958333333,,0x00,0xFF
7.685360833333333,,0x00,0xFF
7.686520708333333,,0x00,0xFF
7.687680541666666,,0x00,0xFF
7.688840416666666,,0x00,0xFF
7.690000291666666,,0x00,0xFF
7.691160125000000,,0x00,0xFF
7.692320000000000,,0x00,0xFF
7.693479875000000,,0x00,0xFF
7.694639750000000,,0x00,0xFF
7.695799583333334,,0x00,0xFF
7.696959458333334,,0x00,0xFF
7.698119333333334,,0x00,0xFF
7.699340250000000,,0x00,0xFF
7.700500083333333,,0x00,0xFF
7.701659958333333,,0x00,0xFF
7.702819833333334,,0x00,0xFF
7.703979666666666,,0x00,0xFF
7.705139541666667,,0x00,0xFF
7.706299416666667,,0x00,0xFF
7.707459250000000,,0x00,0xFF
7.708619125000000,,0x00,0xFF
7.709779000000000,,0x00,0xFF
7.710938875000000,,0x00,0xFF
7.712098708333333,,0x00,0xFF
7.713258583333333,,0x00,0xFF
7.714418458333333,,0x00,0xFF
7.715578291666667,,0x00,0xFF
7.716738166666667,,0x00,0xFF
7.717898041666666,,0x00,0xFF
7.719057916666666,,0x00,0xFF
7.720217750000000,,0x00,0xFF
7.721377625000000,,0x00,0xFF
7.722537500000000,,0x00,0xFF
7.723697333333333,,0x00,0xFF
7.724857208333333,,0x00,0xFF
7.726017083333334,,0x00,0xFF
7.727176916666667,,0x00,0xFF
7.728336791666667,,0x00,0xFF
7.729496666666667,,0x00,0xFF
7.730656541666667,,0x00,0xFF
7.731816375000000,,0x00,0xFF
7.732976250000000,,0x00,0xFF
7.734136125000000,,0x00,0xFF
7.735295958333333,,0x00,0xFF
7.736455833333333,,0x00,0xFF
7.737615708333333,,0x00,0xFF
7.738775583333333,,0x00,0xFF
7.739935416666667,,0x00,0xFF
7.741095291666666,,0x00,0xFF
7.742255166666666,,0x00,0xFF
7.743415000000000,,0x00,0xFF
7.744574875000000,,0x00,0xFF
7.745734750000000,,0x00,0xFF
7.746894583333333,,0x00,0xFF
7.748054458333334,,0x00,0xFF
7.749214333333334,,0x00,0xFF
7.750374208333334,,0x00,0xFF
7.751534041666667,,0x00,0xFF
7.752693916666667,,0x00,0xFF
7.753853791666667,,0x00,0xFF
7.755013625000000,,0x00,0xFF
7.756173500000000,,0x00,0xFF
7.757333375000000,,0x00,0xFF
7.758493250000000,,0x00,0xFF
7.759653083333333,,0x00,0xFF
7.760812958333333,,0x00,0xFF
7.761972833333333,,0x00,0xFF
7.763132666666666,,0x00,0xFF
7.764292541666666,,0x00,0xFF
7.765452416666666,,0x00,0xFF
7.766612250000000,,0x00,0xFF
7.767772125000000,,0x00,0xFF
7.768932000000000,,0x00,0xFF
7.770091875000000,,0x00,0xFF
7.771251708333334,,0x00,0xFF
7.772411583333334,,0x00,0xFF
7.773571458333334,,0x00,0xFF
7.774731291666667,,0x00,0xFF
7.775891166666667,,0x00,0xFF
7.777051041666667,,0x00,0xFF
7.778210916666667,,0x00,0xFF
7.779370750000000,,0x00,0xFF
7.780530625000000,,0x00,0xFF
7.781690500000000,,0x00,0xFF
7.782850333333333,,0x00,0xFF
7.784010208333333,,0x00,0xFF
7.785170083333333,,0x00,0xFF
7.786329958333333,,0x00,0xFF
7.787489791666666,,0x00,0xB7
7.788649666666666,,0x00,0xC0
7.789809541666667,,0x00,0xBF
7.790969375000000,,0x00,0xC0
7.792129250000000,,0x00,0xEF
7.793289125000000,,0x00,0xD0
7.794448958333334,,0x00,0xDF
7.795608833333334,,0x00,0xE0
7.796768708333333,,0x00,0xEF
7.797928583333333,,0x00,0xD0
7.799088416666667,,0x00,0xDF
7.800248291666667,,0x00,0xE0
7.801408166666667,,0x00,0xCB
7.802568000000000,,0x00,0xF4
7.803727875000000,,0x00,0xC7
7.804887750000000,,0x00,0xF8
7.806047583333333,,0x00,0x55
7.807207458333333,,0x00,0x00
7.808367333333333,,0x00,0xFF
7.809527208333333,,0x00,0x00
7.810687041666666,,0x00,0xD5
7.811846916666667,,0x00,0x00
7.813006791666667,,0x00,0xFE
7.814166625000000,,0x00,0x00
7.815326500000000,,0x00,0x54
7.816547416666666,,0x00,0x00
7.817707291666666,,0x00,0xF0
7.818867125000000,,0x00,0x00
7.820027000000000,,0x00,0x50
7.821186875000000,,0x00,0x00
7.822346708333333,,0x00,0xE0
7.823506583333334,,0x00,0x00
7.824666458333334,,0x00,0x50
7.825826333333334,,0x00,0x00
7.826986166666667,,0x00,0x80
7.828146041666667,,0x00,0x00
7.829305916666667,,0x00,0x00
7.830465750000000,,0x00,0x00
7.831625625000000,,0x00,0x00
7.832785500000000,,0x00,0x00
7.833945375000000,,0x00,0x00
7.835105208333333,,0x00,0x00
7.836265083333333,,0x00,0x00
7.837424958333333,,0x00,0x00
7.838584791666666,,0x00,0x00
7.839744666666666,,0x00,0x00
7.840904541666666,,0x00,0x00
7.842064375000000,,0x00,0x00
7.843224250000000,,0x00,0x00
7.844384125000000,,0x00,0x00
7.845544000000000,,0x00,0x00
7.846703833333334,,0x00,0x00
7.847863708333334,,0x00,0x00
7.849023583333333,,0x00,0x00
7.850183416666667,,0x00,0x00
7.851343291666667,,0x00,0x00
7.852503166666667,,0x00,0x00
7.853663041666667,,0x00,0x00
7.854822875000000,,0x00,0x00
7.855982750000000,,0x00,0x00
7.857142625000000,,0x00,0x00
7.858302458333333,,0x00,0x00
7.859462333333333,,0x00,0x00
7.860622208333333,,0x00,0x00
7.861782041666666,,0x00,0x00
7.862941916666666,,0x00,0x00
7.864101791666666,,0x00,0x00
7.865261666666667,,0x00,0x00
7.866421500000000,,0x00,0x00
7.867581375000000,,0x00,0x00
7.868741250000000,,0x00,0x00
7.869901083333334,,0x00,0x00
7.871060958333334,,0x00,0x00
7.872220833333333,,0x00,0x00
7.873380708333333,,0x00,0x00
7.874540541666667,,0x00,0x00
7.875700416666667,,0x00,0x00
7.876860291666667,,0x00,0x00
7.878020125000000,,0x00,0x00
7.879180000000000,,0x00,0x00
7.880339875000000,,0x00,0x55
7.881499708333333,,0x00,0x00
7.882659583333333,,0x00,0x22
7.883819458333333,,0x00,0x00
7.884979333333333,,0x00,0x55
7.886139166666666,,0x00,0x00
7.887299041666667,,0x00,0x68
7.888458916666667,,0x00,0x00
7.889618750000000,,0x00,0x75
7.890778625000000,,0x00,0x00
7.891938500000000,,0x00,0x00
7.893098375000000,,0x00,0x20
7.894258208333333,,0x00,0x15
7.895418083333333,,0x00,0x10
7.896577958333333,,0x00,0x1A
7.897737791666667,,0x00,0x0C
7.898897666666667,,0x00,0x15
7.900057541666667,,0x00,0x00
7.901217375000000,,0x00,0x02
7.902377250000000,,0x00,0x00
7.903537125000000,,0x00,0x55
7.904697000000000,,0x00,0x00
7.905856833333333,,0x00,0x00
7.907016708333333,,0x00,0x00
7.908176583333334,,0x00,0x11
7.909336416666667,,0x00,0x00
7.910496291666667,,0x00,0x00
7.911656166666667,,0x00,0x00
7.912816041666667,,0x00,0x05
7.913975875000000,,0x00,0x00
7.915135750000000,,0x00,0x82
7.916295625000000,,0x00,0x00
7.917455458333333,,0x00,0x5D
7.918615333333333,,0x00,0x00
7.919775208333333,,0x00,0x2B
7.920935083333333,,0x00,0x04
7.922094916666667,,0x00,0x53
7.923254791666666,,0x00,0x04
7.924414666666666,,0x00,0x83
7.925574500000000,,0x00,0x02
7.926734375000000,,0x00,0x51
7.927894250000000,,0x00,0x01
7.929054083333333,,0x00,0x21
7.930213958333334,,0x00,0x00
7.931373833333334,,0x00,0x51
7.932533708333334,,0x00,0x07
7.933754583333333,,0x00,0xCE
7.934914458333333,,0x00,0x3F
7.936074333333333,,0x00,0x6A
7.937234166666666,,0x00,0x15
7.938394041666666,,0x00,0xFF
7.939553916666667,,0x00,0x00
7.940713791666667,,0x00,0x7D
7.941873625000000,,0x00,0x00
7.943033500000000,,0x00,0xFF
7.944193375000000,,0x00,0x00
7.945353208333334,,0x00,0x55
7.946513083333334,,0x00,0x00
7.947672958333333,,0x00,0xBB
7.948832833333333,,0x00,0xC0
7.949992666666667,,0x00,0xC5
7.951152541666667,,0x00,0xF0
7.952312416666667,,0x00,0x8C
7.953472250000000,,0x00,0xFF
7.954632125000000,,0x00,0xF7
7.955792000000000,,0x00,0x00
7.956951833333333,,0x00,0xFF
7.958111708333333,,0x00,0x00
7.959271583333333,,0x00,0x55
7.960431458333334,,0x00,0x00
7.961591291666666,,0x00,0xFF
7.962751166666667,,0x00,0x00
7.963911041666667,,0x00,0x57
7.965070875000000,,0x00,0x00
7.966230750000000,,0x00,0xBE
7.967390625000000,,0x00,0x01
7.968550500000000,,0x00,0x5B
7.969710333333333,,0x00,0x07
7.970870208333333,,0x00,0x1F
7.972030083333333,,0x00,0xFF
7.973189916666667,,0x00,0x6A
7.974349791666667,,0x00,0x1D
7.975509666666666,,0x00,0xE8
7.976669500000000,,0x00,0x1F
7.977829375000000,,0x00,0xFA
7.978989250000000,,0x00,0x1D
7.980149125000000,,0x00,0xF7
7.981308958333333,,0x00,0x38
7.982468833333333,,0x00,0xFA
7.983628708333334,,0x00,0x75
7.984788541666667,,0x00,0xEF
7.985948416666667,,0x00,0xF0
7.987108291666667,,0x00,0xEF
7.988268166666667,,0x00,0xD0
7.989428000000000,,0x00,0x7F
7.990587875000000,,0x00,0x80
7.991747750000000,,0x00,0x77
7.992907583333333,,0x00,0x40
7.994067458333333,,0x00,0xDF
7.995227333333333,,0x00,0x20
7.996387166666667,,0x00,0xFF
7.997547041666667,,0x00,0x00
7.998706916666666,,0x00,0xFF
7.999866791666666,,0x00,0x00
8.001026625000000,,0x00,0x76
8.002186500000001,,0x00,0x01
8.003346375000000,,0x00,0xFF
8.004506208333334,,0x00,0x00
8.005666083333333,,0x00,0xFB
8.006825958333334,,0x00,0x04
8.007985833333333,,0x00,0xFF
8.009145666666667,,0x00,0x00
8.010305541666666,,0x00,0x6B
8.011465416666667,,0x00,0x17
8.012625249999999,,0x00,0xDF
8.013785125000000,,0x00,0x23
8.014945000000001,,0x00,0xEB
8.016104833333333,,0x00,0x17
8.017264708333334,,0x00,0xFB
8.018424583333333,,0x00,0x07
8.019584458333334,,0x00,0xEB
8.020744291666666,,0x00,0x17
8.021904166666667,,0x00,0xFB
8.023064041666666,,0x00,0x07
8.024223875000001,,0x00,0xFF
8.025383750000000,,0x00,0x07
8.026543625000000,,0x00,0xF7
8.027703499999999,,0x00,0x0F
8.028863333333334,,0x00,0xFF
8.030023208333333,,0x00,0xFF
8.031183083333334,,0x00,0xFF
8.032342916666666,,0x00,0xFF
8.033502791666667,,0x00,0xFF
8.034662666666666,,0x00,0xFF
8.035822541666667,,0x00,0xFF
8.036982374999999,,0x00,0xFF
8.038142250000000,,0x00,0xF7
8.039302125000001,,0x00,0xFF
8.040461958333333,,0x00,0xFF
8.041621833333334,,0x00,0xFF
8.042781708333333,,0x00,0xFF
8.043941541666667,,0x00,0xFF
8.045101416666666,,0x00,0xFF
8.046261291666667,,0x00,0xFF
8.047421166666666,,0x00,0xFF
8.048581000000000,,0x00,0xFF
8.049740874999999,,0x00,0xFF
8.050961791666667,,0x00,0xFF
8.052121625000000,,0x00,0xFF
8.053281500000001,,0x00,0xFF
8.054441375000000,,0x00,0xFF
8.055601250000000,,0x00,0xFF
8.056761083333333,,0x00,0xFF
8.057920958333334,,0x00,0xFF
8.059080833333333,,0x00,0xFF
8.060240666666667,,0x00,0xFF
8.061400541666666,,0x00,0xFF
8.062560416666667,,0x00,0xFF
8.063720291666666,,0x00,0xFF
8.064880125000000,,0x00,0xFF
8.066039999999999,,0x00,0xFF
8.067199875000000,,0x00,0xFF
8.068359708333332,,0x00,0xFF
8.069519583333333,,0x00,0xFF
8.070679458333334,,0x00,0xFF
8.071839291666667,,0x00,0xFF
8.072999166666667,,0x00,0xFF
8.074159041666666,,0x00,0xFF
8.075318916666667,,0x00,0xFF
8.076478750000000,,0x00,0xFF
8.077638625000001,,0x00,0xFF
8.078798500000000,,0x00,0xFF
8.079958333333334,,0x00,0xFF
8.081118208333333,,0x00,0xFF
8.082278083333334,,0x00,0xFF
8.083437958333333,,0x00,0xFF
8.084536750000000,,0x00,0x46
8.085635583333334,,0x00,0x66
8.086734375000001,,0x81,0x00
8.087833208333333,,0x00,0x00
8.118355916666667,,0x00,0x88
8.119454708333333,,0x00,0x33
8.120614583333333,,0x00,0x0F
8.121774458333332,,0x00,0x00
8.122934333333333,,0x00,0x00
8.124094166666668,,0x00,0x00
8.125254041666667,,0x00,0x0F
8.126413916666667,,0x00,0x00
8.127573750000000,,0x81,0x00
8.128733625000001,,0x00,0x00
8.138256708333333,,0x00,0x88
8.139355541666667,,0x00,0x33
8.140515375000000,,0x00,0x04
8.141675250000000,,0x00,0x00
8.142835125000000,,0x00,0x80
8.143995000000000,,0x00,0x02
8.145154833333333,,0x00,0xFF
8.146314708333334,,0x00,0xFF
8.147474583333333,,0x00,0xFF
8.148634416666667,,0x00,0xFF
8.149794291666666,,0x00,0xFF
8.150954166666667,,0x00,0xFF
8.152114041666668,,0x00,0xFF
8.153273875000000,,0x00,0xFF
8.154433750000001,,0x00,0xFF
8.155593625000000,,0x00,0xFF
8.156753458333334,,0x00,0xFF
8.157913333333333,,0x00,0xFF
8.159073208333334,,0x00,0xFF
8.160233041666666,,0x00,0xFF
8.161392916666667,,0x00,0xFF
8.162552791666666,,0x00,0xFF
8.163712666666667,,0x00,0xFF
8.164872500000000,,0x00,0xFF
8.166032375000000,,0x00,0xFF
8.167192249999999,,0x00,0xFF
8.168352083333334,,0x00,0xFF
8.169511958333333,,0x00,0xFF
8.170671833333333,,0x00,0xFF
8.171831708333333,,0x00,0xFF
8.172991541666667,,0x00,0xFF
8.174151416666666,,0x00,0xFF
8.175311291666667,,0x00,0xFF
8.176471125000001,,0x00,0xFF
8.177631000000000,,0x00,0xFF
8.178790875000001,,0x00,0xFF
8.179950750000000,,0x00,0xFF
8.181110583333334,,0x00,0xFF
8.182270458333333,,0x00,0xFF
8.183430333333334,,0x00,0xFF
8.184590166666666,,0x00,0xFF
8.185750041666667,,0x00,0xFF
8.186909916666666,,0x00,0xFF
8.188069750000000,,0x00,0xFF
8.189229624999999,,0x00,0xFF
8.190389500000000,,0x00,0xFF
8.191549374999999,,0x00,0xFF
8.192709208333333,,0x00,0xFF
8.193869083333333,,0x00,0xFF
8.195028958333333,,0x00,0xFF
8.196188791666666,,0x00,0xFF
8.197348666666667,,0x00,0xFF
8.198508541666667,,0x00,0xFF
8.199668375000000,,0x00,0xFF
8.200828250000001,,0x00,0xFF
8.201988125000000,,0x00,0xFF
8.203148000000001,,0x00,0xFF
8.204307833333333,,0x00,0xFF
8.205467708333334,,0x00,0xFF
8.206627583333333,,0x00,0xFF
8.207787416666667,,0x00,0xFF
8.208947291666666,,0x00,0xFF
8.210107166666667,,0x00,0xFF
8.211267041666666,,0x00,0xFF
8.212426875000000,,0x00,0xFF
8.213586749999999,,0x00,0xFF
8.214746625000000,,0x00,0xFF
8.215906458333333,,0x00,0xFF
8.217066333333333,,0x00,0xFF
8.218226208333334,,0x00,0xFF
8.219386083333333,,0x00,0xEB
8.220545916666667,,0x00,0xF4
8.221705791666666,,0x00,0xEF
8.222865666666667,,0x00,0xF0
8.224025500000000,,0x00,0xFF
8.225185375000001,,0x00,0xF0
8.226345250000000,,0x00,0xF6
8.227505083333334,,0x00,0xF8
8.228664958333333,,0x00,0xF9
8.229824833333334,,0x00,0xF4
8.230984708333333,,0x00,0xF6
8.232144541666667,,0x00,0xF8
8.233304416666666,,0x00,0xF9
8.234464291666667,,0x00,0xFC
8.235624124999999,,0x00,0xFE
8.236784000000000,,0x00,0xF8
8.237943874999999,,0x00,0x40
8.239103750000000,,0x00,0x00
8.240263583333334,,0x00,0x80
8.241423458333333,,0x00,0x00
8.242583333333334,,0x00,0x00
8.243743166666667,,0x00,0x00
8.244903041666667,,0x00,0x00
8.246062916666666,,0x00,0x00
8.247222750000001,,0x00,0x00
8.248382625000000,,0x00,0x00
8.249542500000000,,0x00,0x00
8.250702374999999,,0x00,0x00
8.251923250000001,,0x00,0x00
8.253083125000000,,0x00,0x00
8.254243000000001,,0x00,0x00
8.255402875000000,,0x00,0x00
8.256562708333334,,0x00,0x00
8.257722583333333,,0x00,0x00
8.258882458333334,,0x00,0x00
8.260042291666666,,0x00,0x00
8.261202166666667,,0x00,0x00
8.262362041666666,,0x00,0x00
8.263521875000000,,0x00,0x00
8.264681749999999,,0x00,0x00
8.265841625000000,,0x00,0x00
8.267001499999999,,0x00,0x00
8.268161333333333,,0x00,0x00
8.269321208333333,,0x00,0x00
8.270481083333333,,0x00,0x00
8.271640916666666,,0x00,0x00
8.272800791666667,,0x00,0x00
8.273960666666667,,0x00,0x00
8.275120500000000,,0x00,0x00
8.276280375000001,,0x00,0x00
8.277440250000000,,0x00,0x00
8.278600125000001,,0x00,0x00
8.279759958333333,,0x00,0x00
8.280919833333334,,0x00,0x00
8.282079708333333,,0x00,0x00
8.283239541666667,,0x00,0x00
8.284399416666666,,0x00,0x00
8.285559291666667,,0x00,0x00
8.286719166666666,,0x00,0x00
8.287879000000000,,0x00,0x00
8.289038874999999,,0x00,0x00
8.290198750000000,,0x00,0x00
8.291358583333333,,0x00,0x00
8.292518458333333,,0x00,0x00
8.293678333333334,,0x00,0x00
8.294838166666667,,0x00,0x00
8.295998041666667,,0x00,0x00
8.297157916666666,,0x00,0x00
8.298317791666667,,0x00,0x00
8.299477625000000,,0x00,0x00
8.300637500000001,,0x00,0x00
8.301797375000000,,0x00,0x00
8.302957208333334,,0x00,0x00
8.304117083333333,,0x00,0x00
8.305276958333334,,0x00,0x00
8.306436833333333,,0x00,0x00
8.307596666666667,,0x00,0x00
8.308756541666666,,0x00,0x00
8.309916416666667,,0x00,0x00
8.311076249999999,,0x00,0x00
8.312236125000000,,0x00,0x0B
8.313395999999999,,0x00,0x07
8.314555833333333,,0x00,0x07
8.315715708333334,,0x00,0x03
8.316875583333333,,0x00,0x00
8.318035458333334,,0x00,0x00
8.319195291666666,,0x00,0x00
8.320355166666667,,0x00,0x00
8.321515041666666,,0x00,0x00
8.322674875000001,,0x00,0x00
8.323834750000000,,0x00,0x00
8.324994625000000,,0x00,0x00
8.326154499999999,,0x00,0x00
8.327314333333334,,0x00,0x00
8.328474208333333,,0x00,0x00
8.329634083333334,,0x00,0x00
8.330793916666666,,0x00,0x0D
8.331953791666667,,0x00,0xF7
8.333113666666666,,0x00,0xFF
8.334273541666667,,0x00,0xFF
8.335433374999999,,0x00,0x54
8.336593250000000,,0x00,0x00
8.337753125000001,,0x00,0x00
8.338912958333333,,0x00,0x00
8.340072833333334,,0x00,0x00
8.341232708333333,,0x00,0x00
8.342392541666667,,0x00,0x00
8.343552416666666,,0x00,0x00
8.344712291666667,,0x00,0x00
8.345872166666666,,0x00,0x00
8.347032000000000,,0x00,0x00
8.348191874999999,,0x00,0x00
8.349351750000000,,0x00,0x57
8.350511583333333,,0x00,0xFF
8.351671458333334,,0x00,0x98
8.352831333333333,,0x00,0xE0
8.353991208333333,,0x00,0x00
8.355151041666666,,0x00,0x00
8.356310916666667,,0x00,0x00
8.357470791666668,,0x00,0x00
8.358630625000000,,0x00,0x00
8.359790500000001,,0x00,0x00
8.360950375000000,,0x00,0x00
8.362110208333334,,0x00,0x00
8.363270083333333,,0x00,0x00
8.364429958333334,,0x00,0x00
8.365589833333333,,0x00,0x00
8.366749666666667,,0x00,0x00
8.367909541666666,,0x00,0x97
8.369130458333334,,0x00,0x7F
8.370290291666667,,0x00,0x3F
8.371450166666667,,0x00,0x0F
8.372610041666666,,0x00,0x16
8.373769916666667,,0x00,0x01
8.374929750000000,,0x00,0x00
8.376089625000001,,0x00,0x00
8.377249500000000,,0x00,0x00
8.378409333333334,,0x00,0x00
8.379569208333333,,0x00,0x00
8.380729083333334,,0x00,0x00
8.381888958333333,,0x00,0x00
8.383048791666667,,0x00,0x00
8.384208666666666,,0x00,0x00
8.385368541666667,,0x00,0x00
8.386528374999999,,0x00,0xFF
8.387688250000000,,0x00,0xFC
8.388848125000001,,0x00,0xFB
8.390008000000000,,0x00,0xE0
8.391167833333334,,0x00,0x45
8.392327708333333,,0x00,0xF0
8.393487583333334,,0x00,0x87
8.394647416666666,,0x00,0x38
8.395807291666667,,0x00,0x17
8.396967166666666,,0x00,0x0C
8.398127000000001,,0x00,0x09
8.399286875000000,,0x00,0x06
8.400446750000000,,0x00,0x07
8.401606624999999,,0x00,0x03
8.402766458333334,,0x00,0x01
8.403926333333333,,0x00,0x01
8.405086208333334,,0x00,0x77
8.406246041666666,,0x00,0x00
8.407405916666667,,0x00,0xFF
8.408565791666666,,0x00,0x00
8.409725666666667,,0x00,0xFB
8.410885499999999,,0x00,0x04
8.412045375000000,,0x00,0xFF
8.413205250000001,,0x00,0x00
8.414365083333333,,0x00,0x77
8.415524958333334,,0x00,0x00
8.416684833333333,,0x00,0xFF
8.417844666666667,,0x00,0x00
8.419004541666666,,0x00,0xFF
8.420164416666667,,0x00,0x00
8.421324291666666,,0x00,0xBF
8.422484125000000,,0x00,0xC0
8.423643999999999,,0x00,0xEE
8.424803875000000,,0x00,0x11
8.425963708333333,,0x00,0xFF
8.427123583333334,,0x00,0x00
8.428283458333333,,0x00,0xFF
8.429443291666667,,0x00,0x00
8.430603166666666,,0x00,0xFF
8.431763041666667,,0x00,0x00
8.432922916666667,,0x00,0xFE
8.434082750000000,,0x00,0x01
8.435242625000001,,0x00,0xFD
8.436402500000000,,0x00,0x02
8.437562333333334,,0x00,0xDA
8.438722208333333,,0x00,0x05
8.439882083333334,,0x00,0xF5
8.441041958333333,,0x00,0x0B
8.442201791666667,,0x00,0xE7
8.443361666666666,,0x00,0x1F
8.444521541666667,,0x00,0xCF
8.445681374999999,,0x00,0x3F
8.446841250000000,,0x00,0xAF
8.448001124999999,,0x00,0x5F
8.449160958333334,,0x00,0x5F
8.450320833333333,,0x00,0xBF
8.451480708333333,,0x00,0xBF
8.452640583333332,,0x00,0x7F
8.453800416666667,,0x00,0x7F
8.454960291666668,,0x00,0xFF
8.456120166666667,,0x00,0xFF
8.457280000000001,,0x00,0xFF
8.458439875000000,,0x00,0xFF
8.459599750000001,,0x00,0xFF
8.460759625000000,,0x00,0xFD
8.461919458333334,,0x00,0xFF
8.463079333333333,,0x00,0xFF
8.464239208333334,,0x00,0xFF
8.465399041666666,,0x00,0xFD
8.466558916666667,,0x00,0xFF
8.467718791666666,,0x00,0xFF
8.468878666666667,,0x00,0xFF
8.470038499999999,,0x00,0xFF
8.471198375000000,,0x00,0xFF
8.472358249999999,,0x00,0xFF
8.473518083333333,,0x00,0xFF
8.474677958333332,,0x00,0xFF
8.475837833333333,,0x00,0xFF
8.476997666666668,,0x00,0xFF
8.478157541666667,,0x00,0xFF
8.479317416666667,,0x00,0xFF
8.480477291666666,,0x00,0xFF
8.481637125000001,,0x00,0xFF
8.482797000000000,,0x00,0xFF
8.483956875000001,,0x00,0xFF
8.485116708333333,,0x00,0xFF
8.486398666666666,,0x00,0xFF
8.487558541666667,,0x00,0xFF
8.488718416666666,,0x00,0xFF
8.489878250000000,,0x00,0xFF
8.491038124999999,,0x00,0xFF
8.492198000000000,,0x00,0xFF
8.493357874999999,,0x00,0xFF
8.494517708333333,,0x00,0xFF
8.495677583333332,,0x00,0xFF
8.496837458333333,,0x00,0xFF
8.497997291666668,,0x00,0xFF
8.499157166666667,,0x00,0xFF
8.500317041666667,,0x00,0xFF
8.501476875000000,,0x00,0xFF
8.502636750000001,,0x00,0xFF
8.503796625000000,,0x00,0xFF
8.504956500000000,,0x00,0xFF
8.506116333333333,,0x00,0xFF
8.507276208333334,,0x00,0xFF
8.508436083333333,,0x00,0xFF
8.509595916666667,,0x00,0xFF
8.510755791666666,,0x00,0xFF
8.511915666666667,,0x00,0xFF
8.513075541666666,,0x00,0xFF
8.514235375000000,,0x00,0xFF
8.515395249999999,,0x00,0xFF
8.516555125000000,,0x00,0xFF
8.517714958333332,,0x00,0xFF
8.518874833333333,,0x00,0xFF
8.520034708333334,,0x00,0xFF
8.521194541666667,,0x00,0xFF
8.522354416666667,,0x00,0xFF
8.523514291666666,,0x00,0xFF
8.524674166666667,,0x00,0xFF
8.525834000000000,,0x00,0xFF
8.526993875000001,,0x00,0xFF
8.528153750000000,,0x00,0xFF
8.529313583333334,,0x00,0xFF
8.530473458333333,,0x00,0xFF
8.531633333333334,,0x00,0xFF
8.532793208333333,,0x00,0xFF
8.533953041666667,,0x00,0xFF
8.535112916666666,,0x00,0xFF
8.536272791666667,,0x00,0xFF
8.537432624999999,,0x00,0xFF
8.538592500000000,,0x00,0xFF
8.539752375000001,,0x00,0xFF
8.540912250000000,,0x00,0xFF
8.542072083333334,,0x00,0xFF
8.543231958333333,,0x00,0xFF
8.544391833333334,,0x00,0xFF
8.545551666666666,,0x00,0xFF
8.546711541666667,,0x00,0xFF
8.547871416666666,,0x00,0xFF
8.549031250000001,,0x00,0xFF
8.550191125000000,,0x00,0xFF
8.551351000000000,,0x00,0xFF
8.552510874999999,,0x00,0xFF
8.553670708333334,,0x00,0xFF
8.554830583333333,,0x00,0xFF
8.555990458333333,,0x00,0xFF
8.557150291666666,,0x00,0xFF
8.558310166666667,,0x00,0xFF
8.559470041666666,,0x00,0xFF
8.560629875000000,,0x00,0xFF
8.561789750000001,,0x00,0xFF
8.562949625000000,,0x00,0xFF
8.564109500000001,,0x00,0xFF
8.565269333333333,,0x00,0xFF
8.566429208333334,,0x00,0xFF
8.567589083333333,,0x00,0xFF
8.568748916666667,,0x00,0xFF
8.569908791666666,,0x00,0xFF
8.571068666666667,,0x00,0xFF
8.572228541666666,,0x00,0xFF
8.573388375000000,,0x00,0xFF
8.574548249999999,,0x00,0xFF
8.575708125000000,,0x00,0xFF
8.576867958333333,,0x00,0xFF
8.578027833333334,,0x00,0xFF
8.579187708333333,,0x00,0xFF
8.580347541666667,,0x00,0xFF
8.581507416666666,,0x00,0xFF
8.582667291666667,,0x00,0xFF
8.583827166666667,,0x00,0xFF
8.584987000000000,,0x00,0xFF
8.586146875000001,,0x00,0xFF
8.587306750000000,,0x00,0xFF
8.588466583333334,,0x00,0xFF
8.589626458333333,,0x00,0xFF
8.590786333333334,,0x00,0xFD
8.591946208333333,,0x00,0xF8
8.593106041666667,,0x00,0xFA
8.594265916666666,,0x00,0xFC
8.595425791666667,,0x00,0xFD
8.596585624999999,,0x00,0xFC
8.597745500000000,,0x00,0xFC
8.598905374999999,,0x00,0xF8
8.600065208333334,,0x00,0xFD
8.601225083333333,,0x00,0xF8
8.602384958333333,,0x00,0xFE
8.603605875000000,,0x00,0xF8
8.604765708333334,,0x00,0xFD
8.605925583333333,,0x00,0xF8
8.607085458333334,,0x00,0xF4
8.608245333333333,,0x00,0xF8
8.609405166666667,,0x00,0x00
8.610565041666666,,0x00,0x00
8.611724916666667,,0x00,0x00
8.612884749999999,,0x00,0x00
8.614044625000000,,0x00,0x00
8.615204500000001,,0x00,0x00
8.616364333333333,,0x00,0x00
8.617524208333334,,0x00,0x00
8.618684083333333,,0x00,0x00
8.619843958333334,,0x00,0x00
8.621003791666666,,0x00,0x00
8.622163666666667,,0x00,0x00
8.623323541666666,,0x00,0x00
8.624483375000001,,0x00,0x00
8.625643250000000,,0x00,0x00
8.626803125000000,,0x00,0x00
8.627962999999999,,0x00,0x00
8.629122833333334,,0x00,0x00
8.630282708333333,,0x00,0x00
8.631442583333333,,0x00,0x00
8.632602416666666,,0x00,0x00
8.633762291666667,,0x00,0x00
8.634922166666666,,0x00,0x00
8.636082000000000,,0x00,0x00
8.637241875000001,,0x00,0x00
8.638401750000000,,0x00,0x00
8.639561625000001,,0x00,0x00
8.640721458333333,,0x00,0x00
8.641881333333334,,0x00,0x00
8.643041208333333,,0x00,0x00
8.644201041666667,,0x00,0x00
8.645360916666666,,0x00,0x00
8.646520791666667,,0x00,0x00
8.647680666666666,,0x00,0x00
8.648840500000000,,0x00,0x00
8.650000374999999,,0x00,0x00
8.651160250000000,,0x00,0x00
8.652320083333333,,0x00,0x00
8.653479958333333,,0x00,0x00
8.654639833333333,,0x00,0x00
8.655799666666667,,0x00,0x00
8.656959541666666,,0x00,0x00
8.658119416666667,,0x00,0x00
8.659279291666667,,0x00,0x00
8.660439125000000,,0x00,0x00
8.661599000000001,,0x00,0x00
8.662758875000000,,0x00,0x00
8.663918708333334,,0x00,0x00
8.665078583333333,,0x00,0x00
8.666238458333334,,0x00,0x00
8.667398333333333,,0x00,0x00
8.668558166666667,,0x00,0x00
8.669718041666666,,0x00,0x00
8.670877916666667,,0x00,0x00
8.672037749999999,,0x00,0x00
8.673197625000000,,0x00,0x00
8.674357499999999,,0x00,0x00
8.675517333333334,,0x00,0x00
8.676677208333333,,0x00,0x00
8.677837083333333,,0x00,0x00
8.678996958333334,,0x00,0x00
8.680156791666667,,0x00,0x00
8.681316666666667,,0x00,0x00
8.682476541666666,,0x00,0x00
8.683636375000001,,0x00,0x00
8.684796250000000,,0x00,0x00
8.685956125000001,,0x00,0x00
8.687116000000000,,0x00,0x00
8.688275833333334,,0x00,0x00
8.689435708333333,,0x00,0x00
8.690595583333334,,0x00,0x00
8.691755416666666,,0x00,0x00
8.692915291666667,,0x00,0x00
8.694075166666666,,0x00,0x00
8.695235000000000,,0x00,0x00
8.696394874999999,,0x00,0x00
8.697554750000000,,0x00,0x00
8.698714624999999,,0x00,0x00
8.699874458333333,,0x00,0x00
8.701034333333334,,0x00,0x00
8.702194208333333,,0x00,0x00
8.703354041666667,,0x00,0x00
8.704513916666667,,0x00,0x00
8.705673791666667,,0x00,0x00
8.706833666666666,,0x00,0x00
8.707993500000001,,0x00,0x00
8.709153375000000,,0x00,0x00
8.710313250000000,,0x00,0x00
8.711473083333333,,0x00,0x00
8.712632958333334,,0x00,0x00
8.713792833333333,,0x00,0x00
8.714952666666667,,0x00,0x00
8.716112541666666,,0x00,0x00
8.717272416666667,,0x00,0x00
8.718432291666666,,0x00,0x00
8.719592125000000,,0x00,0x00
8.720813041666666,,0x00,0x00
8.721972916666667,,0x00,0x00
8.723132791666666,,0x00,0x00
8.724292625000000,,0x00,0x00
8.725452499999999,,0x00,0x00
8.726612375000000,,0x00,0x00
8.727772208333333,,0x00,0x00
8.728932083333333,,0x00,0x00
8.730091958333333,,0x00,0x00
8.731251791666667,,0x00,0x00
8.732411666666666,,0x00,0x00
8.733571541666667,,0x00,0x00
8.734731416666667,,0x00,0x00
8.735891250000000,,0x00,0x00
8.737051125000001,,0x00,0x00
8.738211000000000,,0x00,0x00
8.739370833333334,,0x00,0x00
8.740530708333333,,0x00,0x00
8.741690583333334,,0x00,0x00
8.742850458333333,,0x00,0x00
8.744010291666667,,0x00,0x00
8.745170166666666,,0x00,0x00
8.746330041666667,,0x00,0x00
8.747489874999999,,0x00,0x00
8.748649750000000,,0x00,0x00
8.749809624999999,,0x00,0x00
8.750969458333334,,0x00,0x00
8.752129333333333,,0x00,0x00
8.753289208333333,,0x00,0x00
8.754449083333334,,0x00,0x00
8.755608916666667,,0x00,0x00
8.756768791666667,,0x00,0x00
8.757928666666666,,0x00,0x00
8.759088500000001,,0x00,0x00
8.760248375000000,,0x00,0x00
8.761408250000001,,0x00,0x00
8.762568125000000,,0x00,0x00
8.763727958333334,,0x00,0x00
8.764887833333333,,0x00,0x00
8.766047708333334,,0x00,0x00
8.767207541666666,,0x00,0x00
8.768367416666667,,0x00,0x00
8.769527291666666,,0x00,0x00
8.770687125000000,,0x00,0x00
8.771846999999999,,0x00,0x00
8.773006875000000,,0x00,0x00
8.774166749999999,,0x00,0x00
8.775326583333333,,0x00,0x00
8.776486458333334,,0x00,0x6F
8.777646333333333,,0x00,0xF0
8.778806166666667,,0x00,0x3C
8.779966041666666,,0x00,0x3F
8.781125916666667,,0x00,0x1F
8.782285791666666,,0x00,0x0F
8.783445625000001,,0x00,0x0F
8.784605500000000,,0x00,0x03
8.785765375000000,,0x00,0x11
8.786925208333333,,0x00,0x00
8.788085083333334,,0x00,0x02
8.789244958333333,,0x00,0x00
8.790404791666667,,0x00,0x15
8.791564666666666,,0x00,0x00
8.792724541666667,,0x00,0x02
8.793884416666666,,0x00,0x00
8.795044250000000,,0x00,0x6F
8.796204124999999,,0x00,0x17
8.797364000000000,,0x00,0x3F
8.798523833333334,,0x00,0xFF
8.799683708333333,,0x00,0xFF
8.800843583333334,,0x00,0xFF
8.802003458333333,,0x00,0xFF
8.803163291666667,,0x00,0xFF
8.804323166666666,,0x00,0x7F
8.805483041666667,,0x00,0xFF
8.806642875000000,,0x00,0xF2
8.807802750000000,,0x00,0x0F
8.808962624999999,,0x00,0x59
8.810122458333334,,0x00,0x07
8.811282333333333,,0x00,0xBC
8.812442208333334,,0x00,0x03
8.813602083333333,,0x00,0xFF
8.814761916666667,,0x00,0xFF
8.815921791666666,,0x00,0xFF
8.817081666666667,,0x00,0xFF
8.818241499999999,,0x00,0xFF
8.819401375000000,,0x00,0xFF
8.820561250000001,,0x00,0xFF
8.821721125000000,,0x00,0xFF
8.822880958333334,,0x00,0xFF
8.824040833333333,,0x00,0xFF
8.825200708333334,,0x00,0xBF
8.826360541666666,,0x00,0xFF
8.827520416666667,,0x00,0x7F
8.828680291666666,,0x00,0xFF
8.829840125000000,,0x00,0xFF
8.831000000000000,,0x00,0xFF
8.832159875000000,,0x00,0xFF
8.833319749999999,,0x00,0xFF
8.834479583333334,,0x00,0xFF
8.835639458333333,,0x00,0xFF
8.836799333333333,,0x00,0xFF
8.838020250000000,,0x00,0xFF
8.839180083333334,,0x00,0xFF
8.840339958333333,,0x00,0xFF
8.841499833333334,,0x00,0xFF
8.842659666666666,,0x00,0xFF
8.843819541666667,,0x00,0xFF
8.844979416666666,,0x00,0xFF
8.846139250000000,,0x00,0xFF
8.847299124999999,,0x00,0xFF
8.848459000000000,,0x00,0xFF
8.849618875000001,,0x00,0xFF
8.850778708333333,,0x00,0xFF
8.851938583333334,,0x00,0xFF
8.853098458333333,,0x00,0xFF
8.854258291666667,,0x00,0xFF
8.855418166666666,,0x00,0xFF
8.856578041666667,,0x00,0xFF
8.857737916666666,,0x00,0xFF
8.858897750000001,,0x00,0xFF
8.860057625000000,,0x00,0xFF
8.861217500000000,,0x00,0xFF
8.862377333333333,,0x00,0xFF
8.863537208333334,,0x00,0xFF
8.864697083333333,,0x00,0xFF
8.865856916666667,,0x00,0xFF
8.867016791666666,,0x00,0xFF
8.868176666666667,,0x00,0xFF
8.869336541666666,,0x00,0xFF
8.870496375000000,,0x00,0xFF
8.871656249999999,,0x00,0xFF
8.872816125000000,,0x00,0xFF
8.873975958333334,,0x00,0xFF
8.875135833333333,,0x00,0xFF
8.876295708333334,,0x00,0xFF
8.877455583333333,,0x00,0xFF
8.878615416666667,,0x00,0xFF
8.879775291666666,,0x00,0xFF
8.880935166666667,,0x00,0xFF
8.882095000000000,,0x00,0xFF
8.883254875000000,,0x00,0xFF
8.884414749999999,,0x00,0xFF
8.885574583333334,,0x00,0xFF
8.886734458333333,,0x00,0xFF
8.887833291666666,,0x00,0x35
8.888932083333334,,0x00,0x42
8.890030916666667,,0x81,0x00
8.891129749999999,,0x00,0x00
8.942529958333333,,0x00,0x88
8.943628791666667,,0x00,0x33
8.944788666666666,,0x00,0x04
8.945948500000000,,0x00,0x00
8.947108374999999,,0x00,0x80
8.948268250000000,,0x00,0x02
8.949428083333334,,0x00,0xFF
8.950587958333333,,0x00,0xFF
8.951747833333334,,0x00,0xFF
8.952907666666666,,0x00,0xFF
8.954067541666667,,0x00,0xFF
8.955227416666666,,0x00,0xFF
8.956387291666667,,0x00,0xFF
8.957547125000000,,0x00,0xFF
8.958707000000000,,0x00,0xFF
8.959866874999999,,0x00,0xFF
8.961026708333334,,0x00,0xFF
8.962186583333333,,0x00,0xFF
8.963346458333334,,0x00,0xFF
8.964506333333333,,0x00,0xFF
8.965666166666667,,0x00,0xFF
8.966826041666666,,0x00,0xFF
8.967985916666667,,0x00,0xFF
8.969145749999999,,0x00,0xFF
8.970305625000000,,0x00,0xFF
8.971465500000001,,0x00,0xFF
8.972625375000000,,0x00,0xFF
8.973785208333334,,0x00,0xFF
8.974945083333333,,0x00,0xFF
8.976104958333334,,0x00,0xFF
8.977264791666666,,0x00,0xFF
8.978424666666667,,0x00,0xFF
8.979584541666666,,0x00,0xFF
8.980744375000000,,0x00,0xFF
8.981904249999999,,0x00,0xFF
8.983064125000000,,0x00,0xFF
8.984223999999999,,0x00,0xFF
8.985383833333334,,0x00,0xFF
8.986543708333333,,0x00,0xFF
8.987703583333333,,0x00,0xFF
8.988863416666666,,0x00,0xFF
8.990023291666667,,0x00,0xFF
8.991183166666668,,0x00,0xFF
8.992343041666667,,0x00,0xFF
8.993502875000001,,0x00,0xFF
8.994662750000000,,0x00,0xFF
8.995822625000001,,0x00,0xFF
8.996982458333333,,0x00,0xFF
8.998142333333334,,0x00,0xFF
8.999302208333333,,0x00,0xFF
9.000462041666667,,0x00,0xFF
9.001621916666666,,0x00,0xFF
9.002781791666667,,0x00,0xFF
9.003941666666666,,0x00,0xFF
9.005101500000000,,0x00,0xFF
9.006261374999999,,0x00,0xFF
9.007421250000000,,0x00,0xFF
9.008581083333333,,0x00,0xFF
9.009740958333333,,0x00,0xFF
9.010900833333332,,0x00,0xFF
9.012060708333333,,0x00,0xFF
9.013220541666668,,0x00,0xFF
9.014380416666667,,0x00,0xFF
9.015540291666667,,0x00,0xFF
9.016700125000000,,0x00,0xFF
9.017860000000001,,0x00,0xFF
9.019019875000000,,0x00,0xFF
9.020179708333334,,0x00,0xFF
9.021339583333333,,0x00,0xFF
9.022499458333334,,0x00,0xFF
9.023659333333333,,0x00,0xFD
9.024819166666667,,0x00,0xF0
9.025979041666666,,0x00,0xFA
9.027138916666667,,0x00,0xF0
9.028298749999999,,0x00,0xFD
9.029458625000000,,0x00,0xF0
9.030618499999999,,0x00,0xFC
9.031778375000000,,0x00,0xF0
9.032938208333332,,0x00,0xF5
9.034098083333333,,0x00,0xF0
9.035257958333334,,0x00,0xFA
9.036417791666667,,0x00,0xF0
9.037577666666667,,0x00,0xF5
9.038737541666666,,0x00,0xF0
9.039897375000001,,0x00,0xFE
9.041057250000000,,0x00,0xF0
9.042217125000001,,0x00,0x00
9.043377000000000,,0x00,0x00
9.044536833333334,,0x00,0x00
9.045696708333333,,0x00,0x00
9.046856583333334,,0x00,0x00
9.048016416666666,,0x00,0x00
9.049176291666667,,0x00,0x00
9.050336166666666,,0x00,0x00
9.051496041666667,,0x00,0x10
9.052655874999999,,0x00,0x00
9.053815750000000,,0x00,0x00
9.054975625000001,,0x00,0x00
9.056135458333333,,0x00,0x54
9.057295333333334,,0x00,0x00
9.058455208333333,,0x00,0x00
9.059615041666667,,0x00,0x00
9.060774916666666,,0x00,0x00
9.061934791666667,,0x00,0x00
9.063094666666666,,0x00,0x00
9.064254500000001,,0x00,0x00
9.065414375000000,,0x00,0x00
9.066574250000000,,0x00,0x00
9.067734083333333,,0x00,0x00
9.068893958333334,,0x00,0x00
9.070053833333333,,0x00,0x00
9.071213708333334,,0x00,0x00
9.072495625000000,,0x00,0x00
9.073655499999999,,0x00,0x00
9.074815375000000,,0x00,0x00
9.075975250000001,,0x00,0x00
9.077135083333333,,0x00,0x00
9.078294958333334,,0x00,0x00
9.079454833333333,,0x00,0x00
9.080614666666667,,0x00,0x00
9.081774541666666,,0x00,0x00
9.082934416666667,,0x00,0x00
9.084094250000000,,0x00,0x00
9.085254125000001,,0x00,0x00
9.086414000000000,,0x00,0x00
9.087573875000000,,0x00,0x00
9.088733708333333,,0x00,0x00
9.089893583333334,,0x00,0x00
9.091053458333333,,0x00,0x00
9.092213291666667,,0x00,0x00
9.093373166666666,,0x00,0x00
9.094533041666667,,0x00,0x00
9.095692916666666,,0x00,0x00
9.096852750000000,,0x00,0x00
9.098012625000001,,0x00,0x00
9.099172500000000,,0x00,0x00
9.100332333333334,,0x00,0x00
9.101492208333333,,0x00,0x00
9.102652083333334,,0x00,0x00
9.103811916666666,,0x00,0x00
9.104971791666667,,0x00,0x00
9.106131666666666,,0x00,0x00
9.107291541666667,,0x00,0x00
9.108451375000000,,0x00,0x00
9.109611250000000,,0x00,0x00
9.110771124999999,,0x00,0x00
9.111930958333334,,0x00,0x00
9.113090833333333,,0x00,0x00
9.114250708333334,,0x00,0x00
9.115410583333333,,0x00,0x00
9.116570416666667,,0x00,0x00
9.117730291666666,,0x00,0x00
9.118890166666667,,0x00,0x00
9.120050000000001,,0x00,0x00
9.121209875000000,,0x00,0x00
9.122369750000001,,0x00,0x00
9.123529583333333,,0x00,0x00
9.124689458333334,,0x00,0x00
9.125849333333333,,0x00,0x00
9.127009208333334,,0x00,0x00
9.128169041666666,,0x00,0x00
9.129328916666667,,0x00,0x00
9.130488791666666,,0x00,0x00
9.131648625000000,,0x00,0x00
9.132808499999999,,0x00,0x00
9.133968375000000,,0x00,0x00
9.135128249999999,,0x00,0x00
9.136288083333334,,0x00,0x00
9.137447958333333,,0x00,0x00
9.138607833333333,,0x00,0x00
9.139767666666666,,0x00,0x00
9.140927541666667,,0x00,0x00
9.142087416666667,,0x00,0x00
9.143247291666666,,0x00,0x00
9.144407125000001,,0x00,0x00
9.145567000000000,,0x00,0x00
9.146726875000001,,0x00,0x00
9.147886708333333,,0x00,0x00
9.149046583333334,,0x00,0x00
9.150206458333333,,0x00,0x00
9.151366291666667,,0x00,0x00
9.152526166666666,,0x00,0x00
9.153686041666667,,0x00,0x00
9.154845916666666,,0x00,0x00
9.156005750000000,,0x00,0x00
9.157165624999999,,0x00,0x00
9.158325500000000,,0x00,0x00
9.159485333333333,,0x00,0x00
9.160645208333333,,0x00,0x00
9.161805083333334,,0x00,0x00
9.162964916666667,,0x00,0x00
9.164124791666667,,0x00,0x00
9.165284666666667,,0x00,0x00
9.166444541666667,,0x00,0x00
9.167604375000000,,0x00,0x00
9.168764250000001,,0x00,0x00
9.169924125000000,,0x00,0x00
9.171083958333334,,0x00,0x00
9.172243833333333,,0x00,0x00
9.173403708333334,,0x00,0x00
9.174563583333333,,0x00,0x00
9.175723416666667,,0x00,0x00
9.176883291666666,,0x00,0x00
9.178043166666667,,0x00,0x00
9.179202999999999,,0x00,0x00
9.180362875000000,,0x00,0x00
9.181522749999999,,0x00,0x00
9.182682583333333,,0x00,0x00
9.183842458333332,,0x00,0x00
9.185002333333333,,0x00,0x00
9.186162208333334,,0x00,0x00
9.187322041666667,,0x00,0x00
9.188481916666667,,0x00,0x00
9.189702833333333,,0x00,0x00
9.190862708333333,,0x00,0x01
9.192022541666667,,0x00,0x00
9.193182416666666,,0x00,0x00
9.194342291666667,,0x00,0x00
9.195502125000001,,0x00,0x00
9.196662000000000,,0x00,0x00
9.197821875000001,,0x00,0x00
9.198981708333333,,0x00,0x00
9.200141583333334,,0x00,0x00
9.201301458333333,,0x00,0x00
9.202461333333334,,0x00,0x00
9.203621166666666,,0x00,0x00
9.204781041666667,,0x00,0x00
9.205940916666666,,0x00,0x00
9.207100750000000,,0x00,0x00
9.208260624999999,,0x00,0x00
9.209420500000000,,0x00,0x15
9.210580374999999,,0x00,0x00
9.211740208333334,,0x00,0x02
9.212900083333333,,0x00,0x00
9.214059958333333,,0x00,0x55
9.215219791666666,,0x00,0x00
9.216379666666667,,0x00,0x02
9.217539541666667,,0x00,0x00
9.218699375000000,,0x00,0x15
9.219859250000001,,0x00,0x00
9.221019125000000,,0x00,0x23
9.222179000000001,,0x00,0x00
9.223338833333333,,0x00,0x55
9.224498708333334,,0x00,0x00
9.225658583333333,,0x00,0x0A
9.226818416666667,,0x00,0x00
9.227978291666666,,0x00,0x58
9.229138166666667,,0x00,0x07
9.230298041666666,,0x00,0xBC
9.231457875000000,,0x00,0x03
9.232617749999999,,0x00,0x5A
9.233777625000000,,0x00,0x05
9.234937458333333,,0x00,0xFC
9.236097333333333,,0x00,0x03
9.237257208333334,,0x00,0x78
9.238417041666667,,0x00,0x07
9.239576916666667,,0x00,0xFC
9.240736791666667,,0x00,0x03
9.241896666666667,,0x00,0x79
9.243056500000000,,0x00,0x07
9.244216375000001,,0x00,0xF0
9.245376250000000,,0x00,0x0F
9.246536083333334,,0x00,0x7F
9.247695958333333,,0x00,0xFF
9.248855833333334,,0x00,0xBF
9.250015708333333,,0x00,0xFF
9.251175541666667,,0x00,0x7F
9.252335416666666,,0x00,0xFF
9.253495291666667,,0x00,0xFF
9.254655124999999,,0x00,0xFF
9.255815000000000,,0x00,0x7F
9.256974874999999,,0x00,0xFF
9.258134708333333,,0x00,0xFF
9.259294583333334,,0x00,0xFF
9.260454458333333,,0x00,0xFF
9.261614333333334,,0x00,0xFF
9.262774166666667,,0x00,0xFF
9.263934041666667,,0x00,0xFF
9.265093916666666,,0x00,0xFF
9.266253750000001,,0x00,0xFF
9.267413625000000,,0x00,0xFF
9.268573500000000,,0x00,0xFF
9.269733374999999,,0x00,0xFF
9.270893208333334,,0x00,0xFF
9.272053083333333,,0x00,0xFF
9.273212958333334,,0x00,0xFF
9.274372791666666,,0x00,0xFF
9.275532666666667,,0x00,0xFF
9.276692541666666,,0x00,0xFF
9.277852375000000,,0x00,0xFF
9.279012249999999,,0x00,0xFF
9.280172125000000,,0x00,0xFF
9.281332000000001,,0x00,0xFF
9.282491833333333,,0x00,0xFF
9.283651708333334,,0x00,0xFF
9.284811583333333,,0x00,0xFF
9.285971416666667,,0x00,0xFF
9.287131291666666,,0x00,0xFF
9.288291166666667,,0x00,0xFF
9.289451041666666,,0x00,0xFF
9.290610875000000,,0x00,0xFF
9.291770750000000,,0x00,0xFF
9.292930625000000,,0x00,0xFF
9.294090458333333,,0x00,0xFF
9.295250333333334,,0x00,0xFF
9.296410208333333,,0x00,0xFF
9.297570041666667,,0x00,0xFF
9.298729916666666,,0x00,0xFF
9.299889791666667,,0x00,0xFF
9.301049666666668,,0x00,0xFF
9.302209500000000,,0x00,0xFF
9.303369375000001,,0x00,0xFF
9.304529250000000,,0x00,0xFF
9.305689083333334,,0x00,0xFF
9.306910000000000,,0x00,0xFF
9.308069874999999,,0x00,0xFF
9.309229750000000,,0x00,0xFF
9.310389583333333,,0x00,0xFF
9.311549458333333,,0x00,0xFF
9.312709333333334,,0x00,0xFF
9.313869166666667,,0x00,0xFF
9.315029041666667,,0x00,0xFF
9.316188916666666,,0x00,0xFF
9.317348791666667,,0x00,0xFF
9.318508625000000,,0x00,0xFF
9.319668500000001,,0x00,0xFF
9.320828375000000,,0x00,0xFF
9.321988208333334,,0x00,0xFF
9.323148083333333,,0x00,0xFF
9.324307958333334,,0x00,0xFF
9.325467833333333,,0x00,0xFF
9.326627666666667,,0x00,0xFF
9.327787541666666,,0x00,0xFF
9.328947416666667,,0x00,0xFF
9.330107249999999,,0x00,0xFF
9.331267125000000,,0x00,0xFF
9.332426999999999,,0x00,0xFF
9.333586833333333,,0x00,0xFF
9.334746708333334,,0x00,0xFF
9.335906583333333,,0x00,0xFF
9.337066458333334,,0x00,0xFF
9.338226291666667,,0x00,0xFF
9.339386166666667,,0x00,0xFF
9.340546041666666,,0x00,0xFF
9.341705875000001,,0x00,0xFF
9.342865750000000,,0x00,0xFF
9.344025625000000,,0x00,0xFF
9.345185499999999,,0x00,0xFF
9.346345333333334,,0x00,0xFF
9.347505208333333,,0x00,0xFF
9.348665083333334,,0x00,0xFF
9.349824916666666,,0x00,0xFF
9.350984791666667,,0x00,0xFF
9.352144666666666,,0x00,0xFF
9.353304500000000,,0x00,0xFF
9.354464374999999,,0x00,0xFF
9.355624250000000,,0x00,0xFF
9.356784125000001,,0x00,0xFF
9.357943958333333,,0x00,0xFF
9.359103833333334,,0x00,0xFF
9.360263708333333,,0x00,0xFF
9.361423541666667,,0x00,0xFF
9.362583416666666,,0x00,0xFF
9.363743291666667,,0x00,0xFF
9.364903166666666,,0x00,0xFF
9.366063000000000,,0x00,0xFF
9.367222875000000,,0x00,0xFF
9.368382750000000,,0x00,0xFF
9.369542583333333,,0x00,0xFF
9.370702458333334,,0x00,0xFF
9.371862333333333,,0x00,0xFF
9.373022166666667,,0x00,0xFF
9.374182041666666,,0x00,0xFF
9.375341916666667,,0x00,0xFF
9.376501791666668,,0x00,0xFF
9.377661625000000,,0x00,0xFF
9.378821500000001,,0x00,0xFF
9.379981375000000,,0x00,0xFF
9.381141208333334,,0x00,0xFF
9.382301083333333,,0x00,0xFF
9.383460958333334,,0x00,0xFF
9.384620833333333,,0x00,0xFF
9.385780666666667,,0x00,0xFF
9.386940541666666,,0x00,0xFF
9.388100416666667,,0x00,0xFF
9.389260250000000,,0x00,0xFF
9.390420125000000,,0x00,0xFF
9.391579999999999,,0x00,0xFF
9.392739875000000,,0x00,0xFF
9.393899708333333,,0x00,0xFF
9.395059583333333,,0x00,0xF5
9.396219458333332,,0x00,0xF0
9.397379291666667,,0x00,0xFF
9.398539166666668,,0x00,0xF0
9.399699041666667,,0x00,0xFD
9.400858875000001,,0x00,0xF0
9.402018750000000,,0x00,0xF7
9.403178625000001,,0x00,0xF8
9.404338500000000,,0x00,0xFF
9.405498333333334,,0x00,0xF0
9.406658208333333,,0x00,0xF7
9.407818083333334,,0x00,0xF8
9.408977916666666,,0x00,0xF3
9.410137791666667,,0x00,0xFC
9.411297666666666,,0x00,0xF7
9.412457500000000,,0x00,0xF8
9.413617374999999,,0x00,0x51
9.414777250000000,,0x00,0x00
9.415937124999999,,0x00,0x20
9.417096958333333,,0x00,0x00
9.418256833333333,,0x00,0x54
9.419416708333333,,0x00,0x00
9.420576541666666,,0x00,0xA8
9.421736416666667,,0x00,0x00
9.422896291666667,,0x00,0x55
9.424117208333334,,0x00,0x00
9.425277041666666,,0x00,0xAA
9.426436916666667,,0x00,0x00
9.427596791666666,,0x00,0x55
9.428756625000000,,0x00,0x00
9.429916499999999,,0x00,0xEA
9.431076375000000,,0x00,0x00
9.432236250000001,,0x00,0x00
9.433396083333333,,0x00,0x00
9.434555958333334,,0x00,0x00
9.435715833333333,,0x00,0x00
9.436875666666667,,0x00,0x00
9.438035541666666,,0x00,0x00
9.439195416666667,,0x00,0x00
9.440355291666666,,0x00,0x00
9.441515125000000,,0x00,0x00
9.442674999999999,,0x00,0x00
9.443834875000000,,0x00,0x00
9.444994708333333,,0x00,0x00
9.446154583333334,,0x00,0x40
9.447314458333333,,0x00,0x00
9.448474291666667,,0x00,0x00
9.449634166666666,,0x00,0x00
9.450794041666667,,0x00,0x00
9.451953916666668,,0x00,0x00
9.453113750000000,,0x00,0x00
9.454273625000001,,0x00,0x00
9.455433500000000,,0x00,0x00
9.456593333333334,,0x00,0x00
9.457753208333333,,0x00,0x00
9.458913083333334,,0x00,0x00
9.460072958333333,,0x00,0x00
9.461232791666667,,0x00,0x00
9.462392666666666,,0x00,0x00
9.463552541666667,,0x00,0x00
9.464712375000000,,0x00,0x00
9.465872250000000,,0x00,0x00
9.467032124999999,,0x00,0x00
9.468191958333334,,0x00,0x00
9.469351833333333,,0x00,0x00
9.470511708333333,,0x00,0x00
9.471671583333332,,0x00,0x00
9.472831416666667,,0x00,0x00
9.473991291666668,,0x00,0x00
9.475151166666667,,0x00,0x00
9.476311000000001,,0x00,0x00
9.477470875000000,,0x00,0x00
9.478630750000001,,0x00,0x00
9.479790625000000,,0x00,0x00
9.480950458333334,,0x00,0x00
9.482110333333333,,0x00,0x00
9.483270208333334,,0x00,0x00
9.484430041666666,,0x00,0x00
9.485589916666667,,0x00,0x00
9.486749791666666,,0x00,0x00
9.487909625000000,,0x00,0x00
9.489069499999999,,0x00,0x00
9.490229375000000,,0x00,0x00
9.491389249999999,,0x00,0x00
9.492549083333333,,0x00,0x00
9.493708958333333,,0x00,0x00
9.494868833333333,,0x00,0x00
9.496028666666666,,0x00,0x00
9.497188541666667,,0x00,0x00
9.498348416666667,,0x00,0x00
9.499508291666666,,0x00,0x00
9.500668125000001,,0x00,0x00
9.501828000000000,,0x00,0x00
9.502987875000001,,0x00,0x00
9.504147708333333,,0x00,0x00
9.505307583333334,,0x00,0x00
9.506467458333333,,0x00,0x00
9.507627291666667,,0x00,0x00
9.508787166666666,,0x00,0x00
9.509947041666667,,0x00,0x00
9.511106916666666,,0x00,0x00
9.512266750000000,,0x00,0x00
9.513426624999999,,0x00,0x00
9.514586500000000,,0x00,0x00
9.515746333333333,,0x00,0x00
9.516906208333333,,0x00,0x00
9.518066083333334,,0x00,0x00
9.519225958333333,,0x00,0x00
9.520385791666667,,0x00,0x00
9.521545666666666,,0x00,0x00
9.522705541666667,,0x00,0x00
9.523865375000000,,0x00,0x00
9.525025250000001,,0x00,0x00
9.526185125000000,,0x00,0x00
9.527344958333334,,0x00,0x00
9.528504833333333,,0x00,0x00
9.529664708333334,,0x00,0x00
9.530824583333333,,0x00,0x00
9.531984416666667,,0x00,0x00
9.533144291666666,,0x00,0x00
9.534304166666667,,0x00,0x00
9.535463999999999,,0x00,0x00
9.536623875000000,,0x00,0x00
9.537783749999999,,0x00,0x00
9.538943625000000,,0x00,0x00
9.540103458333334,,0x00,0x00
9.541324375000000,,0x00,0x00
9.542484249999999,,0x00,0x00
9.543644083333334,,0x00,0x00
9.544803958333333,,0x00,0x00
9.545963833333333,,0x00,0x00
9.547123708333332,,0x00,0x00
9.548283541666667,,0x00,0x00
9.549443416666668,,0x00,0x00
9.550603291666667,,0x00,0x00
9.551763125000001,,0x00,0x00
9.552923000000000,,0x00,0x11
9.554082875000001,,0x00,0x00
9.555242750000000,,0x00,0x00
9.556402583333334,,0x00,0x00
9.557562458333333,,0x00,0x55
9.558722333333334,,0x00,0x00
9.559882166666666,,0x00,0x02
9.561042041666667,,0x00,0x00
9.562201916666666,,0x00,0x11
9.563361750000000,,0x00,0x00
9.564521624999999,,0x00,0x00
9.565681500000000,,0x00,0x00
9.566841374999999,,0x00,0x15
9.568001208333333,,0x00,0x00
9.569161083333332,,0x00,0x00
9.570320958333333,,0x00,0x00
9.571480791666668,,0x00,0x55
9.572640666666667,,0x00,0x00
9.573800541666667,,0x00,0x23
9.574960416666666,,0x00,0x00
9.576120250000001,,0x00,0x55
9.577280125000000,,0x00,0x00
9.578440000000001,,0x00,0xAF
9.579599833333333,,0x00,0x00
9.580759708333334,,0x00,0x55
9.581919583333333,,0x00,0x00
9.583079416666667,,0x00,0x2B
9.584239291666666,,0x00,0x00
9.585399166666667,,0x00,0x55
9.586559041666666,,0x00,0x00
9.587718875000000,,0x00,0xAF
9.588878749999999,,0x00,0x00
9.590038625000000,,0x00,0x57
9.591198458333333,,0x00,0x00
9.592358333333333,,0x00,0xBF
9.593518208333334,,0x00,0x00
9.594678083333333,,0x00,0x57
9.595837916666667,,0x00,0x00
9.596997791666666,,0x00,0xFF
9.598157666666667,,0x00,0x00
9.599317500000000,,0x00,0x69
9.600477375000001,,0x00,0x17
9.601637250000000,,0x00,0xF2
9.602797083333334,,0x00,0x0F
9.603956958333333,,0x00,0xE9
9.605116833333334,,0x00,0x17
9.606276708333333,,0x00,0xF2
9.607436541666667,,0x00,0x0F
9.608596416666666,,0x00,0x61
9.609756291666667,,0x00,0x1F
9.610916124999999,,0x00,0xC3
9.612076000000000,,0x00,0x3F
9.613235875000001,,0x00,0xA5
9.614395750000000,,0x00,0x5F
9.615555583333334,,0x00,0x87
9.616715458333333,,0x00,0x7F
9.617875333333334,,0x00,0xFF
9.619035166666666,,0x00,0xFF
9.620195041666667,,0x00,0xFF
9.621354916666666,,0x00,0xFF
9.622514750000001,,0x00,0xFF
9.623674625000000,,0x00,0xFF
9.624834500000000,,0x00,0xFF
9.625994374999999,,0x00,0xFF
9.627154208333334,,0x00,0xFF
9.628314083333333,,0x00,0xFF
9.629473958333334,,0x00,0xFF
9.630633791666666,,0x00,0xFF
9.631793666666667,,0x00,0xFF
9.632953541666666,,0x00,0xFF
9.634113416666667,,0x00,0xFF
9.635273249999999,,0x00,0xFF
9.636433125000000,,0x00,0xFF
9.637593000000001,,0x00,0xFF
9.638752833333333,,0x00,0xFF
9.639912708333334,,0x00,0xFF
9.641072583333333,,0x00,0xFF
9.642232416666667,,0x00,0xFF
9.643392291666666,,0x00,0xFF
9.644552166666667,,0x00,0xFF
9.645712041666666,,0x00,0xFF
9.646871875000000,,0x00,0xFF
9.648031749999999,,0x00,0xFF
9.649191625000000,,0x00,0xFF
9.650351458333333,,0x00,0xFF
9.651511333333334,,0x00,0xFF
9.652671208333333,,0x00,0xFF
9.653831083333333,,0x00,0xFF
9.654990916666666,,0x00,0xFF
9.656150791666667,,0x00,0xFF
9.657310666666667,,0x00,0xFF
9.658531541666667,,0x00,0xFF
9.659691416666666,,0x00,0xFF
9.660851291666667,,0x00,0xFF
9.662011166666666,,0x00,0xFF
9.663171000000000,,0x00,0xFF
9.664330874999999,,0x00,0xFF
9.665490750000000,,0x00,0xFF
9.666650583333332,,0x00,0xFF
9.667810458333333,,0x00,0xFF
9.668970333333334,,0x00,0xFF
9.670130166666667,,0x00,0xFF
9.671290041666667,,0x00,0xFF
9.672449916666666,,0x00,0xFF
9.673609791666667,,0x00,0xFF
9.674769625000000,,0x00,0xFF
9.675929500000001,,0x00,0xFF
9.677089375000000,,0x00,0xFF
9.678249208333334,,0x00,0xFF
9.679409083333333,,0x00,0xFF
9.680568958333334,,0x00,0xFF
9.681728833333333,,0x00,0xFF
9.682888666666667,,0x00,0xFF
9.684048541666666,,0x00,0xFF
9.685208416666667,,0x00,0xFF
9.686368249999999,,0x00,0xFF
9.687528125000000,,0x00,0xFF
9.688688000000001,,0x00,0xFF
9.689847875000000,,0x00,0xFF
9.691007708333334,,0x00,0xFF
9.692106541666666,,0x00,0x5A
9.693205333333333,,0x00,0x34
9.694304166666667,,0x81,0x00
9.695403000000001,,0x00,0x00
9.725925708333333,,0x00,0x88
9.727024500000001,,0x00,0x33
9.728184375000000,,0x00,0x0F
9.729344250000000,,0x00,0x00
9.730504083333333,,0x00,0x00
9.731663958333334,,0x00,0x00
9.732823833333333,,0x00,0x0F
9.733983666666667,,0x00,0x00
9.735143541666666,,0x81,0x00
9.736303416666667,,0x00,0x00
9.745826500000000,,0x00,0x88
9.746925291666667,,0x00,0x33
9.748085166666666,,0x00,0x04
9.749245041666667,,0x00,0x00
9.750404916666668,,0x00,0x80
9.751564750000000,,0x00,0x02
9.752724625000001,,0x00,0xFF
9.753884500000000,,0x00,0xFF
9.755044333333334,,0x00,0xFF
9.756204208333333,,0x00,0xFF
9.757364083333334,,0x00,0xFF
9.758523958333333,,0x00,0xFF
9.759683791666667,,0x00,0xFF
9.760843666666666,,0x00,0xFF
9.762003541666667,,0x00,0xFF
9.763163375000000,,0x00,0xFF
9.764323250000000,,0x00,0xFF
9.765483124999999,,0x00,0xFF
9.766642958333334,,0x00,0xFF
9.767802833333333,,0x00,0xFF
9.768962708333333,,0x00,0xFF
9.770122583333332,,0x00,0xFF
9.771282416666667,,0x00,0xFF
9.772442291666666,,0x00,0xFF
9.773602166666667,,0x00,0xFF
9.774762000000001,,0x00,0xFF
9.775921875000000,,0x00,0xFF
9.777081750000001,,0x00,0xFF
9.778241625000000,,0x00,0xFF
9.779401458333334,,0x00,0xFF
9.780561333333333,,0x00,0xFF
9.781721208333334,,0x00,0xFF
9.782881041666666,,0x00,0xFF
9.784040916666667,,0x00,0xFF
9.785200791666666,,0x00,0xFF
9.786360625000000,,0x00,0xFF
9.787520499999999,,0x00,0xFF
9.788680375000000,,0x00,0xFF
9.789840249999999,,0x00,0xFF
9.791000083333333,,0x00,0xFF
9.792159958333333,,0x00,0xFF
9.793319833333333,,0x00,0xFF
9.794479666666666,,0x00,0xFF
9.795639541666667,,0x00,0xFF
9.796799416666667,,0x00,0xFF
9.797959291666666,,0x00,0xFF
9.799119125000001,,0x00,0xFF
9.800279000000000,,0x00,0xFF
9.801438875000001,,0x00,0xFF
9.802598708333333,,0x00,0xFF
9.803758583333334,,0x00,0xFF
9.804918458333333,,0x00,0xFF
9.806078291666667,,0x00,0xFF
9.807238166666666,,0x00,0xFF
9.808398041666667,,0x00,0xFF
9.809557916666666,,0x00,0xFF
9.810717750000000,,0x00,0xFF
9.811877624999999,,0x00,0xFF
9.813037500000000,,0x00,0xFF
9.814197333333333,,0x00,0xFF
9.815357208333333,,0x00,0xFF
9.816517083333334,,0x00,0xFF
9.817676958333333,,0x00,0xFF
9.818836791666667,,0x00,0xFF
9.819996666666666,,0x00,0xFF
9.821156541666667,,0x00,0xFF
9.822316375000000,,0x00,0xFF
9.823476250000001,,0x00,0xFF
9.824636125000000,,0x00,0xFF
9.825796000000000,,0x00,0xFF
9.826955833333333,,0x00,0xFB
9.828115708333334,,0x00,0xFC
9.829275583333333,,0x00,0xFF
9.830435416666667,,0x00,0xF8
9.831595291666666,,0x00,0xFF
9.832755166666667,,0x00,0xFC
9.833914999999999,,0x00,0xFD
9.835074875000000,,0x00,0xFE
9.836234749999999,,0x00,0xFC
9.837394625000000,,0x00,0xFF
9.838554458333334,,0x00,0xFC
9.839714333333333,,0x00,0xFF
9.840874208333334,,0x00,0xFD
9.842034041666667,,0x00,0xFF
9.843193916666667,,0x00,0xFF
9.844353791666666,,0x00,0xFF
9.845513625000001,,0x00,0x55
9.846673500000000,,0x00,0x00
9.847833375000000,,0x00,0xFA
9.848993249999999,,0x00,0x00
9.850153083333334,,0x00,0x55
9.851312958333333,,0x00,0x00
9.852472833333334,,0x00,0xFF
9.853632666666666,,0x00,0x00
9.854792541666667,,0x00,0xB7
9.855952416666666,,0x00,0x40
9.857112291666667,,0x00,0xFF
9.858272124999999,,0x00,0x03
9.859493041666667,,0x00,0xBF
9.860652916666666,,0x00,0x47
9.861812750000000,,0x00,0x1F
9.862972624999999,,0x00,0xE7
9.864132500000000,,0x00,0x51
9.865292374999999,,0x00,0x00
9.866452208333333,,0x00,0x00
9.867612083333333,,0x00,0x00
9.868771958333333,,0x00,0x55
9.869931791666666,,0x00,0x00
9.871091666666667,,0x00,0xA8
9.872251541666667,,0x00,0x00
9.873411416666666,,0x00,0x55
9.874571250000001,,0x00,0x00
9.875731125000000,,0x00,0x7A
9.876891000000001,,0x00,0x80
9.878050833333333,,0x00,0xD5
9.879210708333334,,0x00,0xC0
9.880370583333333,,0x00,0xFE
9.881530416666667,,0x00,0xE0
9.882690291666666,,0x00,0x10
9.883850166666667,,0x00,0x00
9.885010041666666,,0x00,0x00
9.886169875000000,,0x00,0x00
9.887329749999999,,0x00,0x54
9.888489625000000,,0x00,0x00
9.889649458333333,,0x00,0x00
9.890809333333333,,0x00,0x00
9.891969208333334,,0x00,0x55
9.893129083333333,,0x00,0x00
9.894288916666667,,0x00,0x22
9.895448791666666,,0x00,0x00
9.896608666666667,,0x00,0x55
9.897768500000000,,0x00,0x00
9.898928375000001,,0x00,0xAA
9.900088250000000,,0x00,0x00
9.901248083333334,,0x00,0x00
9.902407958333333,,0x00,0x00
9.903567833333334,,0x00,0x00
9.904727708333333,,0x00,0x00
9.905887541666667,,0x00,0x05
9.907047416666666,,0x00,0x00
9.908207291666667,,0x00,0x00
9.909367124999999,,0x00,0x00
9.910527000000000,,0x00,0x15
9.911686874999999,,0x00,0x00
9.912846750000000,,0x00,0x22
9.914006583333334,,0x00,0x00
9.915166458333333,,0x00,0x55
9.916326333333334,,0x00,0x00
9.917486166666666,,0x00,0xA8
9.918646041666667,,0x00,0x00
9.919805916666666,,0x00,0x11
9.920965750000001,,0x00,0x00
9.922125625000000,,0x00,0x00
9.923285500000000,,0x00,0x00
9.924445374999999,,0x00,0x55
9.925605208333334,,0x00,0x00
9.926765083333333,,0x00,0x00
9.927924958333334,,0x00,0x00
9.929084791666666,,0x00,0x55
9.930244666666667,,0x00,0x00
9.931404541666666,,0x00,0x22
9.932564416666667,,0x00,0x00
9.933724249999999,,0x00,0x55
9.934884125000000,,0x00,0x00
9.936044000000001,,0x00,0xAA
9.937203833333333,,0x00,0x00
9.938363708333334,,0x00,0x11
9.939523583333333,,0x00,0x00
9.940683416666667,,0x00,0x00
9.941843291666666,,0x00,0x00
9.943003166666667,,0x00,0x55
9.944163041666666,,0x00,0x00
9.945322875000000,,0x00,0x00
9.946482749999999,,0x00,0x00
9.947642625000000,,0x00,0x55
9.948802458333333,,0x00,0x00
9.949962333333334,,0x00,0x22
9.951122208333333,,0x00,0x00
9.952282083333333,,0x00,0x55
9.953441916666666,,0x00,0x00
9.954601791666667,,0x00,0xAA
9.955761666666668,,0x00,0x00
9.956921500000000,,0x00,0x11
9.958081375000001,,0x00,0x00
9.959241250000000,,0x00,0x00
9.960401083333334,,0x00,0x00
9.961560958333333,,0x00,0x55
9.962720833333334,,0x00,0x00
9.963880708333333,,0x00,0xAA
9.965040541666667,,0x00,0x00
9.966200416666666,,0x00,0x55
9.967360291666667,,0x00,0x00
9.968520125000000,,0x00,0x2B
9.969680000000000,,0x00,0x00
9.970839874999999,,0x00,0x55
9.971999750000000,,0x00,0x00
9.973159583333333,,0x00,0xAF
9.974319458333333,,0x00,0x00
9.975479333333332,,0x00,0x55
9.976700208333334,,0x00,0x00
9.977860083333333,,0x00,0x2B
9.979019958333334,,0x00,0x00
9.980179833333333,,0x00,0x55
9.981339666666667,,0x00,0x00
9.982499541666666,,0x00,0xAF
9.983659416666667,,0x00,0x01
9.984819249999999,,0x00,0x57
9.985979125000000,,0x00,0x03
9.987139000000001,,0x00,0xBF
9.988298833333333,,0x00,0x03
9.989458708333334,,0x00,0x57
9.990618583333333,,0x00,0x03
9.991778458333334,,0x00,0xFF
9.992938291666666,,0x00,0x03
9.994098166666667,,0x00,0x55
9.995258041666666,,0x00,0x00
9.996417875000001,,0x00,0xEF
9.997577750000000,,0x00,0x30
9.998737625000000,,0x00,0xFD
9.999897499999999,,0x00,0xFC
10.001057333333334,,0x00,0xFF
10.002217208333333,,0x00,0xFC
10.003377083333334,,0x00,0xFD
10.004536916666666,,0x00,0xFE
10.005696791666667,,0x00,0xFF
10.006856666666666,,0x00,0xFE
10.008016541666667,,0x00,0xFF
10.009176374999999,,0x00,0xFE
10.010336250000000,,0x00,0xFF
10.011496125000001,,0x00,0xFE
10.012655958333333,,0x00,0x76
10.013815833333334,,0x00,0x01
10.014975708333333,,0x00,0xFD
10.016135541666667,,0x00,0x02
10.017295416666666,,0x00,0xDA
10.018455291666667,,0x00,0x05
10.019615166666666,,0x00,0xF4
10.020775000000000,,0x00,0x0B
10.021934874999999,,0x00,0xE9
10.023094750000000,,0x00,0x17
10.024254583333333,,0x00,0xC2
10.025414458333334,,0x00,0x3F
10.026574333333333,,0x00,0xA9
10.027734208333333,,0x00,0x57
10.028894041666666,,0x00,0x42
10.030053916666667,,0x00,0xBF
10.031213791666667,,0x00,0x97
10.032373625000000,,0x00,0x7F
10.033533500000001,,0x00,0x0B
10.034693375000000,,0x00,0xFF
10.035853208333334,,0x00,0x17
10.037013083333333,,0x00,0xFF
10.038172958333334,,0x00,0x6F
10.039332833333333,,0x00,0xFF
10.040492666666667,,0x00,0x7F
10.041652541666666,,0x00,0xFF
10.042812416666667,,0x00,0xFF
10.043972249999999,,0x00,0xFF
10.045132125000000,,0x00,0xFF
10.046291999999999,,0x00,0xFF
10.047451875000000,,0x00,0xFF
10.048611708333333,,0x00,0xFF
10.049771583333333,,0x00,0xFF
10.050931458333332,,0x00,0xFF
10.052091291666667,,0x00,0xFF
10.053251166666668,,0x00,0xFF
10.054411041666667,,0x00,0xFF
10.055570875000001,,0x00,0xFF
10.056730750000000,,0x00,0xFF
10.057890625000001,,0x00,0xFF
10.059050500000000,,0x00,0xFF
10.060210333333334,,0x00,0xFF
10.061370208333333,,0x00,0xFF
10.062530083333334,,0x00,0xFF
10.063689916666666,,0x00,0xFF
10.064849791666667,,0x00,0xFF
10.066009666666666,,0x00,0xFF
10.067169541666667,,0x00,0xFF
10.068329374999999,,0x00,0xFF
10.069489250000000,,0x00,0xFF
10.070649124999999,,0x00,0xFF
10.071808958333333,,0x00,0xFF
10.072968833333332,,0x00,0xFF
10.074128708333333,,0x00,0xFF
10.075288541666668,,0x00,0xFF
10.076448416666667,,0x00,0xFF
10.077608291666667,,0x00,0xFF
10.078768166666666,,0x00,0xFF
10.079928000000001,,0x00,0xFF
10.081087875000000,,0x00,0xFF
10.082247750000001,,0x00,0xFF
10.083407583333333,,0x00,0xFF
10.084567458333334,,0x00,0xFF
10.085727333333333,,0x00,0xFF
10.086887208333334,,0x00,0xFF
10.088047041666666,,0x00,0xFF
10.089206916666667,,0x00,0xFF
10.090366791666666,,0x00,0xFF
10.091526625000000,,0x00,0xFF
10.092686499999999,,0x00,0xFF
10.093968458333332,,0x00,0xFF
10.095128333333333,,0x00,0xFF
10.096288166666668,,0x00,0xFF
10.097448041666667,,0x00,0xFF
10.098607916666667,,0x00,0xFF
10.099767750000000,,0x00,0xFF
10.100927625000001,,0x00,0xFF
10.102087500000000,,0x00,0xFF
10.103247375000000,,0x00,0xFF
10.104407208333333,,0x00,0xFF
10.105567083333334,,0x00,0xFF
10.106726958333333,,0x00,0xFF
10.107886791666667,,0x00,0xFF
10.109046666666666,,0x00,0xFF
10.110206541666667,,0x00,0xFF
10.111366416666666,,0x00,0xFF
10.112526250000000,,0x00,0xFF
10.113686124999999,,0x00,0xFF
10.114846000000000,,0x00,0xFF
10.116005833333332,,0x00,0xFF
10.117165708333333,,0x00,0xFF
10.118325583333334,,0x00,0xFF
10.119485416666667,,0x00,0xFF
10.120645291666667,,0x00,0xFF
10.121805166666666,,0x00,0xFF
10.122965041666667,,0x00,0xFF
10.124124875000000,,0x00,0xFF
10.125284750000000,,0x00,0xFF
10.126444625000000,,0x00,0xFF
10.127604458333334,,0x00,0xFF
10.128764333333333,,0x00,0xFF
10.129924208333334,,0x00,0xFF
10.131084083333333,,0x00,0xFF
10.132243916666667,,0x00,0xFF
10.133403791666666,,0x00,0xFF
10.134563666666667,,0x00,0xFF
10.135723499999999,,0x00,0xFF
10.136883375000000,,0x00,0xFF
10.138043250000001,,0x00,0xFF
10.139203083333333,,0x00,0xFF
10.140362958333334,,0x00,0xFF
10.141522833333333,,0x00,0xFF
10.142682708333334,,0x00,0xFF
10.143842541666666,,0x00,0xFF
10.145002416666667,,0x00,0xFF
10.146162291666666,,0x00,0xFF
10.147322125000001,,0x00,0xFF
10.148482000000000,,0x00,0xFF
10.149641875000000,,0x00,0xFF
10.150801749999999,,0x00,0xFF
10.151961583333334,,0x00,0xFF
10.153121458333333,,0x00,0xFF
10.154281333333333,,0x00,0xFF
10.155441166666666,,0x00,0xFF
10.156601041666667,,0x00,0xFF
10.157760916666666,,0x00,0xFF
10.158920750000000,,0x00,0xFF
10.160080625000001,,0x00,0xFF
10.161240500000000,,0x00,0xFF
10.162400375000001,,0x00,0xFF
10.163560208333333,,0x00,0xFF
10.164720083333334,,0x00,0xFF
10.165879958333333,,0x00,0xFF
10.167039791666667,,0x00,0xFF
10.168199666666666,,0x00,0xFF
10.169359541666667,,0x00,0xFF
10.170519416666666,,0x00,0xFF
10.171679250000000,,0x00,0xFF
10.172839124999999,,0x00,0xFF
10.173999000000000,,0x00,0xFF
10.175158833333333,,0x00,0xFF
10.176318708333334,,0x00,0xFF
10.177478583333333,,0x00,0xFF
10.178638458333333,,0x00,0xFF
10.179798291666666,,0x00,0xFF
10.180958166666667,,0x00,0xFF
10.182118041666667,,0x00,0xFF
10.183277875000000,,0x00,0xFF
10.184437750000001,,0x00,0xFF
10.185597625000000,,0x00,0xFF
10.186757458333334,,0x00,0xFF
10.187917333333333,,0x00,0xFF
10.189077208333334,,0x00,0xFF
10.190237083333333,,0x00,0xFF
10.191396916666667,,0x00,0xFF
10.192556791666666,,0x00,0xFF
10.193716666666667,,0x00,0xFF
10.194876499999999,,0x00,0xFF
10.196036375000000,,0x00,0xFF
10.197196249999999,,0x00,0xFF
10.198356125000000,,0x00,0xFF
10.199515958333333,,0x00,0xFF
10.200675833333333,,0x00,0xFF
10.201835708333334,,0x00,0xFF
10.202995541666667,,0x00,0xFF
10.204155416666667,,0x00,0xFF
10.205315291666667,,0x00,0xFF
10.206475125000001,,0x00,0xFF
10.207635000000000,,0x00,0xFF
10.208794875000001,,0x00,0xFF
10.209954750000000,,0x00,0xFF
10.211175624999999,,0x00,0xFF
10.212335500000000,,0x00,0xFF
10.213495375000001,,0x00,0xFF
10.214655250000000,,0x00,0xFF
10.215815083333334,,0x00,0xFF
10.216974958333333,,0x00,0x6F
10.218134833333334,,0x00,0xD7
10.219294666666666,,0x00,0xC3
10.220454541666667,,0x00,0xFF
10.221614416666666,,0x00,0xDB
10.222774250000001,,0x00,0xF7
10.223934125000000,,0x00,0xE1
10.225094000000000,,0x00,0xFF
10.226253874999999,,0x00,0xF7
10.227413708333334,,0x00,0xFD
10.228573583333333,,0x00,0xFF
10.229733458333333,,0x00,0xFC
10.230893291666666,,0x00,0xFF
10.232053166666667,,0x00,0xFE
10.233213041666666,,0x00,0xFF
10.234372875000000,,0x00,0xFF
10.235532750000001,,0x00,0xE5
10.236692625000000,,0x00,0xF0
10.237852500000001,,0x00,0xFF
10.239012333333333,,0x00,0xF0
10.240172208333334,,0x00,0xFD
10.241332083333333,,0x00,0xF0
10.242491916666667,,0x00,0xF7
10.243651791666666,,0x00,0xF8
10.244811666666667,,0x00,0xFA
10.245971541666666,,0x00,0xFD
10.247131375000000,,0x00,0xF8
10.248291249999999,,0x00,0xFF
10.249451125000000,,0x00,0x7A
10.250610958333333,,0x00,0x7D
10.251770833333333,,0x00,0x38
10.252930708333333,,0x00,0x37
10.254090541666667,,0x00,0x55
10.255250416666666,,0x00,0x00
10.256410291666667,,0x00,0xBA
10.257570166666667,,0x00,0x00
10.258730000000000,,0x00,0x55
10.259889875000001,,0x00,0x00
10.261049750000000,,0x00,0xFE
10.262209583333334,,0x00,0x00
10.263369458333333,,0x00,0xF7
10.264529333333334,,0x00,0x00
10.265689208333333,,0x00,0xFF
10.266849041666667,,0x00,0x00
10.268008916666666,,0x00,0xAB
10.269168791666667,,0x00,0x54
10.270328624999999,,0x00,0x01
10.271488500000000,,0x00,0xFE
10.272648374999999,,0x00,0x55
10.273808208333334,,0x00,0x00
10.274968083333333,,0x00,0xBB
10.276127958333333,,0x00,0x00
10.277287833333334,,0x00,0x55
10.278447666666667,,0x00,0x00
10.279607541666667,,0x00,0xFF
10.280767416666666,,0x00,0x00
10.281927250000001,,0x00,0x55
10.283087125000000,,0x00,0x00
10.284247000000001,,0x00,0xFF
10.285406875000000,,0x00,0x00
10.286566708333334,,0x00,0xFD
10.287726583333333,,0x00,0x00
10.288886458333334,,0x00,0xFF
10.290046291666666,,0x00,0x00
10.291206166666667,,0x00,0x55
10.292366041666666,,0x00,0x00
10.293525875000000,,0x00,0xBB
10.294685749999999,,0x00,0x00
10.295845625000000,,0x00,0x55
10.297005499999999,,0x00,0x00
10.298165333333333,,0x00,0xFF
10.299325208333334,,0x00,0x00
10.300485083333333,,0x00,0x55
10.301644916666667,,0x00,0x00
10.302804791666667,,0x00,0xBF
10.303964666666667,,0x00,0x00
10.305124541666666,,0x00,0x55
10.306284375000001,,0x00,0x00
10.307444250000000,,0x00,0x81
10.308604125000000,,0x00,0x00
10.309763958333333,,0x00,0x55
10.310923833333334,,0x00,0x00
10.312083708333333,,0x00,0xBB
10.313243583333334,,0x00,0x00
10.314403416666666,,0x00,0x55
10.315563291666667,,0x00,0x00
10.316723166666666,,0x00,0xFF
10.317883000000000,,0x00,0x00
10.319042874999999,,0x00,0x77
10.320202750000000,,0x00,0x00
10.321362583333332,,0x00,0xFF
10.322522458333333,,0x00,0x00
10.323682333333334,,0x00,0xFF
10.324842208333333,,0x00,0x00
10.326002041666667,,0x00,0xFF
10.327161916666666,,0x00,0x00
10.328382833333333,,0x00,0x55
10.329542666666667,,0x00,0x00
10.330702541666666,,0x00,0xBB
10.331862416666667,,0x00,0x00
10.333022291666667,,0x00,0x55
10.334182125000000,,0x00,0x00
10.335342000000001,,0x00,0xFF
10.336501875000000,,0x00,0x00
10.337661708333334,,0x00,0x76
10.338821583333333,,0x00,0x01
10.339981458333334,,0x00,0xFF
10.341141291666666,,0x00,0x00
10.342301166666667,,0x00,0xAA
10.343461041666666,,0x00,0x55
10.344620916666667,,0x00,0x74
10.345780749999999,,0x00,0x8B
10.346940625000000,,0x00,0x73
10.348100499999999,,0x00,0x07
10.349260333333334,,0x00,0xFF
10.350420208333333,,0x00,0x03
10.351580083333333,,0x00,0xFB
10.352739958333334,,0x00,0x07
10.353899791666667,,0x00,0xFF
10.355059666666667,,0x00,0x03
10.356219541666666,,0x00,0xAB
10.357379375000001,,0x00,0x55
10.358539250000000,,0x00,0xD1
10.359699125000001,,0x00,0x2E
10.360859000000000,,0x00,0xAA
10.362018833333334,,0x00,0x55
10.363178708333333,,0x00,0x00
10.364338583333334,,0x00,0xFF
10.365498416666666,,0x00,0xFD
10.366658291666667,,0x00,0xFE
10.367818166666666,,0x00,0xFF
10.368978000000000,,0x00,0xFC
10.370137874999999,,0x00,0xFC
10.371297750000000,,0x00,0xFD
10.372457624999999,,0x00,0xFE
10.373617458333333,,0x00,0xF9
10.374777333333334,,0x00,0xF3
10.375937208333333,,0x00,0xF3
10.377097041666667,,0x00,0xA3
10.378256916666666,,0x00,0x47
10.379416791666667,,0x00,0xDF
10.380576666666666,,0x00,0x0F
10.381736500000001,,0x00,0xFF
10.382896375000000,,0x00,0xFF
10.384056250000000,,0x00,0x85
10.385216083333333,,0x00,0x7F
10.386375958333334,,0x00,0x0B
10.387535833333333,,0x00,0xFF
10.388695666666667,,0x00,0x57
10.389855541666666,,0x00,0xFF
10.391015416666667,,0x00,0xEF
10.392175291666666,,0x00,0xFF
10.393335125000000,,0x00,0x7F
10.394494999999999,,0x00,0xFF
10.395654875000000,,0x00,0xFF
10.396814708333334,,0x00,0xFF
10.397974583333333,,0x00,0xFF
10.399134458333334,,0x00,0xFF
10.400294333333333,,0x00,0xFF
10.401454166666667,,0x00,0xFF
10.402614041666666,,0x00,0xFF
10.403773916666667,,0x00,0xFF
10.404933750000000,,0x00,0xFF
10.406093625000000,,0x00,0xFF
10.407253499999999,,0x00,0xFF
10.408413333333334,,0x00,0xFF
10.409573208333333,,0x00,0xFF
10.410733083333334,,0x00,0xFF
10.411892958333333,,0x00,0xFF
10.413052791666667,,0x00,0xFF
10.414212666666666,,0x00,0xFF
10.415372541666667,,0x00,0xFF
10.416532374999999,,0x00,0xFF
10.417692250000000,,0x00,0xFF
10.418852125000001,,0x00,0xFF
10.420012000000000,,0x00,0xFF
10.421171833333334,,0x00,0xFF
10.422331708333333,,0x00,0xFF
10.423491583333334,,0x00,0xFF
10.424651416666666,,0x00,0xFF
10.425811291666667,,0x00,0xFF
10.426971166666666,,0x00,0xFF
10.428131000000000,,0x00,0xFF
10.429290875000000,,0x00,0xFF
10.430450750000000,,0x00,0xFF
10.431610624999999,,0x00,0xFF
10.432770458333334,,0x00,0xFF
10.433930333333333,,0x00,0xFF
10.435090208333333,,0x00,0xFF
10.436250041666666,,0x00,0xFF
10.437409916666667,,0x00,0xFF
10.438569791666668,,0x00,0xFF
10.439729666666667,,0x00,0xFF
10.440889500000001,,0x00,0xFF
10.442049375000000,,0x00,0xFF
10.443209250000001,,0x00,0xFF
10.444369083333333,,0x00,0xFF
10.445589999999999,,0x00,0xFF
10.446749875000000,,0x00,0xFF
10.447909750000001,,0x00,0xFF
10.449069583333333,,0x00,0xFF
10.450229458333334,,0x00,0xFF
10.451389333333333,,0x00,0xFF
10.452549166666667,,0x00,0xFF
10.453709041666666,,0x00,0xFF
10.454868916666667,,0x00,0xFF
10.456028791666666,,0x00,0xFF
10.457188625000001,,0x00,0xFF
10.458348500000000,,0x00,0xFF
10.459508375000000,,0x00,0xFF
10.460668208333333,,0x00,0xFF
10.461828083333334,,0x00,0xFF
10.462987958333333,,0x00,0xFF
10.464147791666667,,0x00,0xFF
10.465307666666666,,0x00,0xFF
10.466467541666667,,0x00,0xFF
10.467627416666666,,0x00,0xFF
10.468787250000000,,0x00,0xFF
10.469947124999999,,0x00,0xFF
10.471107000000000,,0x00,0xFF
10.472266833333334,,0x00,0xFF
10.473426708333333,,0x00,0xFF
10.474586583333334,,0x00,0xFF
10.475746458333333,,0x00,0xFF
10.476906291666667,,0x00,0xFF
10.478066166666666,,0x00,0xFF
10.479226041666667,,0x00,0xFF
10.480385875000000,,0x00,0xFF
10.481545750000000,,0x00,0xFF
10.482705624999999,,0x00,0xFF
10.483865458333334,,0x00,0xFF
10.485025333333333,,0x00,0xFF
10.486185208333334,,0x00,0xFF
10.487345083333333,,0x00,0xFF
10.488504916666667,,0x00,0xFF
10.489664791666666,,0x00,0xFF
10.490824666666667,,0x00,0xFF
10.491984499999999,,0x00,0xFF
10.493144375000000,,0x00,0xFF
10.494304250000001,,0x00,0xFF
10.495403041666666,,0x00,0xA3
10.496501875000000,,0x00,0xC3
10.497600708333334,,0x81,0x00
10.498699500000001,,0x00,0x00
10.550099749999999,,0x00,0x88
10.551198541666666,,0x00,0x33
10.552358416666667,,0x00,0x04
10.553518291666666,,0x00,0x00
10.554678166666667,,0x00,0x80
10.555838000000000,,0x00,0x02
10.556997875000000,,0x00,0xFF
10.558157749999999,,0x00,0xFF
10.559317583333334,,0x00,0xFF
10.560477458333333,,0x00,0xFF
10.561637333333334,,0x00,0xFF
10.562797208333333,,0x00,0xFF
10.563957041666667,,0x00,0xFF
10.565116916666666,,0x00,0xFF
10.566276791666667,,0x00,0xFF
10.567436624999999,,0x00,0xFF
10.568596500000000,,0x00,0xFF
10.569756375000001,,0x00,0xFF
10.570916208333333,,0x00,0xFF
10.572076083333334,,0x00,0xFF
10.573235958333333,,0x00,0xFF
10.574395833333334,,0x00,0xFF
10.575555666666666,,0x00,0xFF
10.576715541666667,,0x00,0xFF
10.577875416666666,,0x00,0xFF
10.579035250000000,,0x00,0xFF
10.580195124999999,,0x00,0xFF
10.581355000000000,,0x00,0xFF
10.582514874999999,,0x00,0xFF
10.583674708333334,,0x00,0xFF
10.584834583333333,,0x00,0xFF
10.585994458333333,,0x00,0xFF
10.587154291666666,,0x00,0xFF
10.588314166666667,,0x00,0xFF
10.589474041666668,,0x00,0xFF
10.590633875000000,,0x00,0xFF
10.591793750000001,,0x00,0xFF
10.592953625000000,,0x00,0xFF
10.594113500000001,,0x00,0xFF
10.595273333333333,,0x00,0xFF
10.596433208333334,,0x00,0xFF
10.597593083333333,,0x00,0xFF
10.598752916666667,,0x00,0xFF
10.599912791666666,,0x00,0xFF
10.601072666666667,,0x00,0xFF
10.602232541666666,,0x00,0xFF
10.603392375000000,,0x00,0xFF
10.604552249999999,,0x00,0xFF
10.605712125000000,,0x00,0xFF
10.606871958333333,,0x00,0xFF
10.608031833333333,,0x00,0xFF
10.609191708333332,,0x00,0xFF
10.610351541666667,,0x00,0xFF
10.611511416666668,,0x00,0xFF
10.612671291666667,,0x00,0xFF
10.613831166666667,,0x00,0xFF
10.614991000000000,,0x00,0xFF
10.616150875000001,,0x00,0xFF
10.617310750000000,,0x00,0xFF
10.618470583333334,,0x00,0xFF
10.619630458333333,,0x00,0xFF
10.620790333333334,,0x00,0xFF
10.621950208333333,,0x00,0xFF
10.623110041666667,,0x00,0xFF
10.624269916666666,,0x00,0xFF
10.625429791666667,,0x00,0xFF
10.626589624999999,,0x00,0xFF
10.627749500000000,,0x00,0xFF
10.628909374999999,,0x00,0xFF
10.630069250000000,,0x00,0xFF
10.631229083333332,,0x00,0xFF
10.632388958333333,,0x00,0xFF
10.633548833333334,,0x00,0xFF
10.634708666666667,,0x00,0xFF
10.635868541666667,,0x00,0xFF
10.637028416666666,,0x00,0xFF
10.638188250000001,,0x00,0xFF
10.639348125000000,,0x00,0xFF
10.640508000000001,,0x00,0xFF
10.641667875000000,,0x00,0xFF
10.642827708333334,,0x00,0xFF
10.643987583333333,,0x00,0xFF
10.645147458333334,,0x00,0xFF
10.646307291666666,,0x00,0xFF
10.647467166666667,,0x00,0xFF
10.648627041666666,,0x00,0xFF
10.649786916666667,,0x00,0xFF
10.650946749999999,,0x00,0xFF
10.652106625000000,,0x00,0xFF
10.653266500000001,,0x00,0xFF
10.654426333333333,,0x00,0xFF
10.655586208333334,,0x00,0xFF
10.656746083333333,,0x00,0xFF
10.657905916666667,,0x00,0xFF
10.659065791666666,,0x00,0xFF
10.660225666666667,,0x00,0xFF
10.661385541666666,,0x00,0xFF
10.662545375000001,,0x00,0xFF
10.663705250000000,,0x00,0xFF
10.664865125000000,,0x00,0xFF
10.666024958333333,,0x00,0xFF
10.667184833333334,,0x00,0xFF
10.668344708333333,,0x00,0xCD
10.669504583333334,,0x00,0x87
10.670664416666666,,0x00,0xFF
10.671824291666667,,0x00,0xFF
10.672984166666666,,0x00,0xFD
10.674144000000000,,0x00,0xFF
10.675303875000001,,0x00,0xFF
10.676463750000000,,0x00,0xFF
10.677623583333334,,0x00,0xFF
10.678783458333333,,0x00,0xFF
10.680065416666666,,0x00,0xFF
10.681225291666667,,0x00,0xFF
10.682385125000000,,0x00,0xFF
10.683545000000001,,0x00,0xFF
10.684704875000000,,0x00,0xFF
10.685864750000000,,0x00,0xFF
10.687024583333333,,0x00,0x1A
10.688184458333334,,0x00,0xF5
10.689344333333333,,0x00,0x21
10.690504166666667,,0x00,0xFE
10.691664041666666,,0x00,0x54
10.692823916666667,,0x00,0xFF
10.693983791666666,,0x00,0xF2
10.695143625000000,,0x00,0xFF
10.696303500000001,,0x00,0x7F
10.697463375000000,,0x00,0xFF
10.698623208333334,,0x00,0xFF
10.699783083333333,,0x00,0xFF
10.700942958333334,,0x00,0xFF
10.702102791666666,,0x00,0xFF
10.703262666666667,,0x00,0xFF
10.704422541666666,,0x00,0xFF
10.705582416666667,,0x00,0xEF
10.706742250000000,,0x00,0x10
10.707902125000000,,0x00,0x5E
10.709061999999999,,0x00,0xA0
10.710221833333334,,0x00,0xA9
10.711381708333333,,0x00,0x54
10.712541583333334,,0x00,0x01
10.713701458333333,,0x00,0xFE
10.714861291666667,,0x00,0x4B
10.716021166666666,,0x00,0xF7
10.717181041666667,,0x00,0x41
10.718340875000001,,0x00,0xFF
10.719500750000000,,0x00,0x55
10.720660625000001,,0x00,0xFF
10.721820458333333,,0x00,0xFF
10.722980333333334,,0x00,0xFF
10.724140208333333,,0x00,0x01
10.725300083333334,,0x00,0x00
10.726459916666666,,0x00,0x02
10.727619791666667,,0x00,0x00
10.728779666666666,,0x00,0x55
10.729939500000000,,0x00,0x00
10.731099374999999,,0x00,0xFF
10.732259250000000,,0x00,0x00
10.733419124999999,,0x00,0x09
10.734578958333334,,0x00,0xF7
10.735738833333333,,0x00,0xFF
10.736898708333333,,0x00,0xFF
10.738058541666666,,0x00,0xFF
10.739218416666667,,0x00,0xFF
10.740378291666667,,0x00,0xFF
10.741538125000000,,0x00,0xFF
10.742698000000001,,0x00,0x6A
10.743857875000000,,0x00,0x15
10.745017750000001,,0x00,0x84
10.746177583333333,,0x00,0x3B
10.747337458333334,,0x00,0xAA
10.748497333333333,,0x00,0x55
10.749657166666667,,0x00,0x30
10.750817041666666,,0x00,0xFF
10.751976916666667,,0x00,0x79
10.753136791666666,,0x00,0xF7
10.754296625000000,,0x00,0xE7
10.755456499999999,,0x00,0xFF
10.756616375000000,,0x00,0xD7
10.757776208333333,,0x00,0xFF
10.758936083333333,,0x00,0xFF
10.760095958333334,,0x00,0xFF
10.761255791666667,,0x00,0xAA
10.762415666666667,,0x00,0x55
10.763575541666667,,0x00,0x40
10.764735416666667,,0x00,0xBF
10.765895250000000,,0x00,0x85
10.767055125000001,,0x00,0x7F
10.768215000000000,,0x00,0x03
10.769374833333334,,0x00,0xFF
10.770534708333333,,0x00,0x57
10.771694583333334,,0x00,0xFF
10.772854458333333,,0x00,0xFF
10.774014291666667,,0x00,0xFF
10.775174166666666,,0x00,0xDF
10.776334041666667,,0x00,0xFF
10.777493874999999,,0x00,0xFF
10.778653750000000,,0x00,0xFF
10.779813624999999,,0x00,0x81
10.780973458333333,,0x00,0x7F
10.782133333333332,,0x00,0x03
10.783293208333333,,0x00,0xFF
10.784453083333334,,0x00,0x55
10.785612916666667,,0x00,0xFF
10.786772791666667,,0x00,0xFF
10.787932666666666,,0x00,0xFF
10.789092500000001,,0x00,0xFF
10.790252375000000,,0x00,0xFF
10.791412250000000,,0x00,0xFF
10.792572125000000,,0x00,0xFF
10.793731958333334,,0x00,0xFF
10.794891833333333,,0x00,0xFF
10.796051708333334,,0x00,0xFF
10.797272583333333,,0x00,0xFF
10.798432458333334,,0x00,0x77
10.799592333333333,,0x00,0xFF
10.800752208333334,,0x00,0xFF
10.801912041666666,,0x00,0xFF
10.803071916666667,,0x00,0xFF
10.804231791666666,,0x00,0xFF
10.805391625000000,,0x00,0xFF
10.806551499999999,,0x00,0xFF
10.807711375000000,,0x00,0xFF
10.808871249999999,,0x00,0xFF
10.810031083333334,,0x00,0xFF
10.811190958333333,,0x00,0xFF
10.812350833333333,,0x00,0xFF
10.813510666666666,,0x00,0xFF
10.814670541666667,,0x00,0xFF
10.815830416666667,,0x00,0xFF
10.816990250000000,,0x00,0xFF
10.818150125000001,,0x00,0xFF
10.819310000000000,,0x00,0xFF
10.820469875000001,,0x00,0xFF
10.821629708333333,,0x00,0xFF
10.822789583333334,,0x00,0xFF
10.823949458333333,,0x00,0xFF
10.825109291666667,,0x00,0xFF
10.826269166666666,,0x00,0xFF
10.827429041666667,,0x00,0xFF
10.828588916666666,,0x00,0xFF
10.829748750000000,,0x00,0xFF
10.830908624999999,,0x00,0xFF
10.832068500000000,,0x00,0xFF
10.833228333333333,,0x00,0xFF
10.834388208333333,,0x00,0xFF
10.835548083333334,,0x00,0xFF
10.836707916666667,,0x00,0xFF
10.837867791666667,,0x00,0xFF
10.839027666666667,,0x00,0xFF
10.840187541666667,,0x00,0xFF
10.841347375000000,,0x00,0xFF
10.842507250000001,,0x00,0xFF
10.843667125000000,,0x00,0xFF
10.844826958333334,,0x00,0xFF
10.845986833333333,,0x00,0xFF
10.847146708333334,,0x00,0xFF
10.848306583333333,,0x00,0xFF
10.849466416666667,,0x00,0xFF
10.850626291666666,,0x00,0xFF
10.851786166666667,,0x00,0xFF
10.852945999999999,,0x00,0xFF
10.854105875000000,,0x00,0xFF
10.855265749999999,,0x00,0xFF
10.856425583333333,,0x00,0xFF
10.857585458333334,,0x00,0xFF
10.858745333333333,,0x00,0xFF
10.859905208333334,,0x00,0xFF
10.861065041666667,,0x00,0xFF
10.862224916666667,,0x00,0xFF
10.863384791666666,,0x00,0xFF
10.864544625000001,,0x00,0xFF
10.865704500000000,,0x00,0xFF
10.866864375000000,,0x00,0xFF
10.868024249999999,,0x00,0xFF
10.869184083333334,,0x00,0xFF
10.870343958333333,,0x00,0xFF
10.871503833333334,,0x00,0xFF
10.872663666666666,,0x00,0xFF
10.873823541666667,,0x00,0xFF
10.874983416666666,,0x00,0xFF
10.876143250000000,,0x00,0xFF
10.877303124999999,,0x00,0xFF
10.878463000000000,,0x00,0xFF
10.879622875000001,,0x00,0xFF
10.880782708333333,,0x00,0xFF
10.881942583333334,,0x00,0xFF
10.883102458333333,,0x00,0xFF
10.884262291666667,,0x00,0xFF
10.885422166666666,,0x00,0xFF
10.886582041666667,,0x00,0xFF
10.887741916666666,,0x00,0xFF
10.888901750000000,,0x00,0xFF
10.890061625000000,,0x00,0xFF
10.891221500000000,,0x00,0xFF
10.892381333333333,,0x00,0xFF
10.893541208333334,,0x00,0xFF
10.894701083333333,,0x00,0xFF
10.895860916666667,,0x00,0xFF
10.897020791666666,,0x00,0xFF
10.898180666666667,,0x00,0xFF
10.899340541666668,,0x00,0xFF
10.900500375000000,,0x00,0xFF
10.901660250000001,,0x00,0xFF
10.902820125000000,,0x00,0xFF
10.903979958333334,,0x00,0xFF
10.905139833333333,,0x00,0xFF
10.906299708333334,,0x00,0xFF
10.907459583333333,,0x00,0xFF
10.908619416666667,,0x00,0xFF
10.909779291666666,,0x00,0xFF
10.910939166666667,,0x00,0xFF
10.912099000000000,,0x00,0xFF
10.913258875000000,,0x00,0xFF
10.914479791666666,,0x00,0xFF
10.915639666666667,,0x00,0xFF
10.916799500000000,,0x00,0xFF
10.917959375000001,,0x00,0xFF
10.919119250000000,,0x00,0xFF
10.920279083333334,,0x00,0xFF
10.921438958333333,,0x00,0xFF
10.922598833333334,,0x00,0xFF
10.923758666666666,,0x00,0xFF
10.924918541666667,,0x00,0xFF
10.926078416666666,,0x00,0xFF
10.927238291666667,,0x00,0xFF
10.928398124999999,,0x00,0xFF
10.929558000000000,,0x00,0xFF
10.930717874999999,,0x00,0xFF
10.931877708333333,,0x00,0xFF
10.933037583333334,,0x00,0xFF
10.934197458333333,,0x00,0xFF
10.935357333333334,,0x00,0xFF
10.936517166666667,,0x00,0xFF
10.937677041666667,,0x00,0xFF
10.938836916666666,,0x00,0xFF
10.939996750000001,,0x00,0xFF
10.941156625000000,,0x00,0xFF
10.942316500000000,,0x00,0xFF
10.943476333333333,,0x00,0xFF
10.944636208333334,,0x00,0xFF
10.945796083333333,,0x00,0xFF
10.946955958333334,,0x00,0xFF
10.948115791666666,,0x00,0xFF
10.949275666666667,,0x00,0xFF
10.950435541666666,,0x00,0xFF
10.951595375000000,,0x00,0xFF
10.952755249999999,,0x00,0xFF
10.953915125000000,,0x00,0xFF
10.955075000000001,,0x00,0xFF
10.956234833333333,,0x00,0xFF
10.957394708333334,,0x00,0xFF
10.958554583333333,,0x00,0xFF
10.959714416666667,,0x00,0xFF
10.960874291666666,,0x00,0xFF
10.962034166666667,,0x00,0xFF
10.963194041666666,,0x00,0xFF
10.964353875000000,,0x00,0xFF
10.965513750000000,,0x00,0xFF
10.966673625000000,,0x00,0xFF
10.967833458333333,,0x00,0xFF
10.968993333333334,,0x00,0xFF
10.970153208333333,,0x00,0xFF
10.971313041666667,,0x00,0xFF
10.972472916666666,,0x00,0xFF
10.973632791666667,,0x00,0xFF
10.974792666666668,,0x00,0xFF
10.975952500000000,,0x00,0xFF
10.977112375000001,,0x00,0xFF
10.978272250000000,,0x00,0xFF
10.979432083333334,,0x00,0xFF
10.980591958333333,,0x00,0xFF
10.981751833333334,,0x00,0xFF
10.982911708333333,,0x00,0xFF
10.984071541666667,,0x00,0xFF
10.985231416666666,,0x00,0xFF
10.986391291666667,,0x00,0xFF
10.987551125000000,,0x00,0xFF
10.988711000000000,,0x00,0xFF
10.989870874999999,,0x00,0xFF
10.991030708333334,,0x00,0xFF
10.992190583333333,,0x00,0xFF
10.993350458333333,,0x00,0xFF
10.994510333333332,,0x00,0xFF
10.995670166666667,,0x00,0xFF
10.996830041666668,,0x00,0xFF
10.997989916666667,,0x00,0xFF
10.999149750000001,,0x00,0xFF
11.000309625000000,,0x00,0xFF
11.001469500000001,,0x00,0xFF
11.002629375000000,,0x00,0xFF
11.003789208333334,,0x00,0xFF
11.004949083333333,,0x00,0xFF
11.006108958333334,,0x00,0xFF
11.007268791666666,,0x00,0xFF
11.008428666666667,,0x00,0xFF
11.009588541666666,,0x00,0xFF
11.010748375000000,,0x00,0xFF
11.011908249999999,,0x00,0xFF
11.013068125000000,,0x00,0xFF
11.014227999999999,,0x00,0xFF
11.015387833333333,,0x00,0xFF
11.016547708333333,,0x00,0xFF
11.017707583333333,,0x00,0xFF
11.018867416666666,,0x00,0xFF
11.020027291666667,,0x00,0xFF
11.021187166666667,,0x00,0xFF
11.022347041666666,,0x00,0xFF
11.023506875000001,,0x00,0xFF
11.024666750000000,,0x00,0xFF
11.025826625000001,,0x00,0xFF
11.026986458333333,,0x00,0xFF
11.028146333333334,,0x00,0xFF
11.029306208333333,,0x00,0xFF
11.030466041666667,,0x00,0xFF
11.031686958333333,,0x00,0xFF
11.032846833333334,,0x00,0xFF
11.034006708333333,,0x00,0xFF
11.035166541666667,,0x00,0xFF
11.036326416666666,,0x00,0xFF
11.037486291666667,,0x00,0xFF
11.038646125000000,,0x00,0xFF
11.039806000000000,,0x00,0xFC
11.040965874999999,,0x00,0xFF
11.042125750000000,,0x00,0xFD
11.043285583333333,,0x00,0xFE
11.044445458333334,,0x00,0xFF
11.045605333333333,,0x00,0xFC
11.046765166666667,,0x00,0xFD
11.047925041666666,,0x00,0xFE
11.049084916666667,,0x00,0xFD
11.050244791666668,,0x00,0xFE
11.051404625000000,,0x00,0xFF
11.052564500000001,,0x00,0xFE
11.053724375000000,,0x00,0xFE
11.054884208333334,,0x00,0xFF
11.056044083333333,,0x00,0xFF
11.057203958333334,,0x00,0xFF
11.058363791666666,,0x00,0x57
11.059523666666667,,0x00,0xFF
11.060683541666666,,0x00,0xD3
11.061843416666667,,0x00,0x2F
11.063003250000000,,0x00,0x94
11.064163125000000,,0x00,0x41
11.065322999999999,,0x00,0xE0
11.066482833333334,,0x00,0x00
11.067642708333333,,0x00,0x55
11.068802583333333,,0x00,0x00
11.069962458333332,,0x00,0xE2
11.071122291666667,,0x00,0x00
11.072282166666668,,0x00,0x55
11.073442041666667,,0x00,0x00
11.074601875000001,,0x00,0xFE
11.075761750000000,,0x00,0x00
11.076921625000001,,0x00,0xF7
11.078081458333333,,0x00,0xFF
11.079241333333334,,0x00,0x7F
11.080401208333333,,0x00,0xFF
11.081561083333334,,0x00,0x5D
11.082720916666666,,0x00,0xFF
11.083880791666667,,0x00,0xCF
11.085040666666666,,0x00,0x3F
11.086200500000000,,0x00,0x4F
11.087360374999999,,0x00,0x17
11.088520250000000,,0x00,0xBB
11.089680124999999,,0x00,0x07
11.090839958333333,,0x00,0x59
11.091999833333333,,0x00,0x07
11.093159708333333,,0x00,0xF3
11.094319541666666,,0x00,0x0F
11.095479416666667,,0x00,0x77
11.096639291666667,,0x00,0xFF
11.097799125000000,,0x00,0xFF
11.098959000000001,,0x00,0xFF
11.100118875000000,,0x00,0xFF
11.101278750000001,,0x00,0xFF
11.102438583333333,,0x00,0xFF
11.103598458333334,,0x00,0xFF
11.104758333333333,,0x00,0xFF
11.105918166666667,,0x00,0xFF
11.107078041666666,,0x00,0xFF
11.108237916666667,,0x00,0xFF
11.109397791666666,,0x00,0xFF
11.110557625000000,,0x00,0xFF
11.111717499999999,,0x00,0xFF
11.112877375000000,,0x00,0xFF
11.114037208333333,,0x00,0xFF
11.115197083333333,,0x00,0xFF
11.116356958333334,,0x00,0xFF
11.117516833333333,,0x00,0xFF
11.118676666666667,,0x00,0xFF
11.119836541666666,,0x00,0xFF
11.120996416666667,,0x00,0xFF
11.122156250000000,,0x00,0xFF
11.123316125000001,,0x00,0xFF
11.124476000000000,,0x00,0xFF
11.125635833333334,,0x00,0xFF
11.126795708333333,,0x00,0xFF
11.127955583333334,,0x00,0xFF
11.129115458333333,,0x00,0xFF
11.130275291666667,,0x00,0xFF
11.131435166666666,,0x00,0xFF
11.132595041666667,,0x00,0xFF
11.133754874999999,,0x00,0xFF
11.134914750000000,,0x00,0xFF
11.136074624999999,,0x00,0xFF
11.137234500000000,,0x00,0xFF
11.138394333333334,,0x00,0xFF
11.139554208333333,,0x00,0xFF
11.140714083333334,,0x00,0xFF
11.141873916666666,,0x00,0xFF
11.143033791666667,,0x00,0xFF
11.144193666666666,,0x00,0xFF
11.145353500000001,,0x00,0xFF
11.146513375000000,,0x00,0xFF
11.147673250000000,,0x00,0xFF
11.148894166666667,,0x00,0xFF
11.150054000000001,,0x00,0xFF
11.151213875000000,,0x00,0xFF
11.152373750000001,,0x00,0xFF
11.153533583333333,,0x00,0xFF
11.154693458333334,,0x00,0xFF
11.155853333333333,,0x00,0xFF
11.157013208333334,,0x00,0xFF
11.158173041666666,,0x00,0xFF
11.159332916666667,,0x00,0xFF
11.160492791666666,,0x00,0xFF
11.161652625000000,,0x00,0xFF
11.162812499999999,,0x00,0xFF
11.163972375000000,,0x00,0xFF
11.165132249999999,,0x00,0xFF
11.166292083333333,,0x00,0xFF
11.167451958333332,,0x00,0xFF
11.168611833333333,,0x00,0xFF
11.169771666666668,,0x00,0xFF
11.170931541666667,,0x00,0xFF
11.172091416666667,,0x00,0xFF
11.173251250000000,,0x00,0xFF
11.174411125000001,,0x00,0xFF
11.175571000000000,,0x00,0xFF
11.176730875000001,,0x00,0xFF
11.177890708333333,,0x00,0xFF
11.179050583333334,,0x00,0xFF
11.180210458333333,,0x00,0xFF
11.181370291666667,,0x00,0xFF
11.182530166666666,,0x00,0xFF
11.183690041666667,,0x00,0xFF
11.184849916666666,,0x00,0xFF
11.186009750000000,,0x00,0xFF
11.187169624999999,,0x00,0xFF
11.188329500000000,,0x00,0xFF
11.189489333333333,,0x00,0xFF
11.190649208333333,,0x00,0xFF
11.191809083333334,,0x00,0xFF
11.192968916666667,,0x00,0xFF
11.194128791666667,,0x00,0xFF
11.195288666666666,,0x00,0xFF
11.196448541666667,,0x00,0xFF
11.197608375000000,,0x00,0xFF
11.198768250000001,,0x00,0xFF
11.199928125000000,,0x00,0xFF
11.201087958333334,,0x00,0xFF
11.202247833333333,,0x00,0xFF
11.203407708333334,,0x00,0xFF
11.204567583333333,,0x00,0xFF
11.205727416666667,,0x00,0xFF
11.206887291666666,,0x00,0xFF
11.208047166666667,,0x00,0xFF
11.209206999999999,,0x00,0xFF
11.210366875000000,,0x00,0xFF
11.211526750000001,,0x00,0xFF
11.212686583333333,,0x00,0xFF
11.213846458333334,,0x00,0xFF
11.215006333333333,,0x00,0xFF
11.216166208333334,,0x00,0xFF
11.217326041666666,,0x00,0xFF
11.218485916666667,,0x00,0xFF
11.219645791666666,,0x00,0xFF
11.220805625000001,,0x00,0xFF
11.221965500000000,,0x00,0xFF
11.223125375000000,,0x00,0xFF
11.224285249999999,,0x00,0xFF
11.225445083333334,,0x00,0xFF
11.226604958333333,,0x00,0xFF
11.227764833333334,,0x00,0xFF
11.228924666666666,,0x00,0xFF
11.230084541666667,,0x00,0xFF
11.231244416666666,,0x00,0xFF
11.232404250000000,,0x00,0xFF
11.233564124999999,,0x00,0xFF
11.234724000000000,,0x00,0xFF
11.235883875000001,,0x00,0xFF
11.237043708333333,,0x00,0xFF
11.238203583333334,,0x00,0xFF
11.239363458333333,,0x00,0xFF
11.240523291666667,,0x00,0xFF
11.241683166666666,,0x00,0xFF
11.242843041666667,,0x00,0xFF
11.244002916666666,,0x00,0xFF
11.245162750000000,,0x00,0xFF
11.246322624999999,,0x00,0xFF
11.247482500000000,,0x00,0xFF
11.248642333333333,,0x00,0xFF
11.249802208333334,,0x00,0xFF
11.250962083333333,,0x00,0xFF
11.252121958333333,,0x00,0xFF
11.253281791666666,,0x00,0xFF
11.254441666666667,,0x00,0xFF
11.255601541666667,,0x00,0xFF
11.256761375000000,,0x00,0xFF
11.257921250000001,,0x00,0xFF
11.259081125000000,,0x00,0xFF
11.260240958333334,,0x00,0xFF
11.261400833333333,,0x00,0xFF
11.262560708333334,,0x00,0xFF
11.263720583333333,,0x00,0xFF
11.264880416666667,,0x00,0xFF
11.266101333333333,,0x00,0xFF
11.267261208333334,,0x00,0xFF
11.268421041666667,,0x00,0xFF
11.269580916666667,,0x00,0xFF
11.270740791666666,,0x00,0xFF
11.271900666666667,,0x00,0xFF
11.273060500000000,,0x00,0xFF
11.274220375000001,,0x00,0xFF
11.275380250000000,,0x00,0xFF
11.276540083333334,,0x00,0xFF
11.277699958333333,,0x00,0xFF
11.278859833333334,,0x00,0xFF
11.280019708333333,,0x00,0xFF
11.281179541666667,,0x00,0xFF
11.282339416666666,,0x00,0xFF
11.283499291666667,,0x00,0xFF
11.284659124999999,,0x00,0xFF
11.285819000000000,,0x00,0xFF
11.286978875000001,,0x00,0xFF
11.288138708333333,,0x00,0xFF
11.289298583333334,,0x00,0xFF
11.290458458333333,,0x00,0xFF
11.291618333333334,,0x00,0xFF
11.292778166666666,,0x00,0xFF
11.293938041666667,,0x00,0xFF
11.295097916666666,,0x00,0xFF
11.296257750000001,,0x00,0xFF
11.297417625000000,,0x00,0xFF
11.298577500000000,,0x00,0xFF
11.299676291666668,,0x00,0xD6
11.300775124999999,,0x00,0x4D
11.301873958333333,,0x81,0x00
11.302972750000000,,0x00,0x00
11.333495458333333,,0x00,0x88
11.334594291666667,,0x00,0x33
11.335754124999999,,0x00,0x0F
11.336914000000000,,0x00,0x00
11.338073874999999,,0x00,0x00
11.339233750000000,,0x00,0x00
11.340393583333332,,0x00,0x0F
11.341553458333333,,0x00,0x00
11.342713333333334,,0x81,0x00
11.343873166666667,,0x00,0x00
11.353213125000000,,0x00,0x88
11.354311958333334,,0x00,0x33
11.355471791666666,,0x00,0x04
11.356631666666667,,0x00,0x00
11.357791541666666,,0x00,0x80
11.358951416666667,,0x00,0x02
11.360111249999999,,0x00,0xFF
11.361271125000000,,0x00,0xFF
11.362431000000001,,0x00,0xFF
11.363590833333333,,0x00,0xFF
11.364750708333334,,0x00,0xFF
11.365910583333333,,0x00,0xFF
11.367070458333334,,0x00,0xFF
11.368230291666666,,0x00,0xFF
11.369390166666667,,0x00,0xFF
11.370550041666666,,0x00,0xFF
11.371709875000001,,0x00,0xFF
11.372869750000000,,0x00,0xFF
11.374029625000000,,0x00,0xFF
11.375189499999999,,0x00,0xFF
11.376349333333334,,0x00,0xFF
11.377509208333333,,0x00,0xFF
11.378669083333333,,0x00,0xFF
11.379828916666666,,0x00,0xFF
11.380988791666667,,0x00,0xFF
11.382148666666666,,0x00,0xFF
11.383369583333334,,0x00,0xFF
11.384529416666666,,0x00,0xFF
11.385689291666667,,0x00,0xFF
11.386849166666666,,0x00,0xFF
11.388009000000000,,0x00,0xFF
11.389168874999999,,0x00,0xFF
11.390328750000000,,0x00,0xFF
11.391488583333333,,0x00,0xFF
11.392648458333333,,0x00,0xFF
11.393808333333334,,0x00,0xFF
11.394968208333333,,0x00,0xFF
11.396128041666667,,0x00,0xFF
11.397287916666667,,0x00,0xFF
11.398447791666667,,0x00,0xFF
11.399607625000000,,0x00,0xFF
11.400767500000001,,0x00,0xFF
11.401927375000000,,0x00,0xFF
11.403087250000000,,0x00,0xFF
11.404247083333333,,0x00,0xFF
11.405406958333334,,0x00,0xFF
11.406566833333333,,0x00,0xFF
11.407726666666667,,0x00,0xFF
11.408886541666666,,0x00,0xFF
11.410046416666667,,0x00,0xFF
11.411206249999999,,0x00,0xFF
11.412366125000000,,0x00,0xFF
11.413525999999999,,0x00,0xFF
11.414685875000000,,0x00,0xFF
11.415845708333332,,0x00,0xFF
11.417005583333333,,0x00,0xFF
11.418165458333334,,0x00,0xFF
11.419325291666667,,0x00,0xFF
11.420485166666667,,0x00,0xFF
11.421645041666666,,0x00,0xFF
11.422804916666667,,0x00,0xFF
11.423964750000000,,0x00,0xFF
11.425124625000000,,0x00,0xFF
11.426284500000000,,0x00,0xFF
11.427444333333334,,0x00,0xFF
11.428604208333333,,0x00,0xFF
11.429764083333334,,0x00,0xFF
11.430923916666666,,0x00,0xFF
11.432083791666667,,0x00,0xFF
11.433243666666666,,0x00,0xFF
11.434403541666667,,0x00,0xFF
11.435563374999999,,0x00,0xFF
11.436723250000000,,0x00,0xFF
11.437883125000001,,0x00,0xFF
11.439042958333333,,0x00,0xFF
11.440202833333334,,0x00,0xFF
11.441362708333333,,0x00,0xFF
11.442522583333334,,0x00,0xFF
11.443682416666666,,0x00,0xFF
11.444842291666667,,0x00,0xFF
11.446002166666666,,0x00,0xFF
11.447162000000001,,0x00,0xFF
11.448321875000000,,0x00,0xFF
11.449481750000000,,0x00,0xFF
11.450641583333333,,0x00,0xFF
11.451801458333334,,0x00,0xFF
11.452961333333333,,0x00,0xFF
11.454121208333333,,0x00,0xFF
11.455281041666666,,0x00,0xFF
11.456440916666667,,0x00,0xFF
11.457600791666666,,0x00,0xFF
11.458760625000000,,0x00,0xFF
11.459920500000001,,0x00,0xFF
11.461080375000000,,0x00,0xFF
11.462240250000001,,0x00,0xFF
11.463400083333333,,0x00,0xFF
11.464559958333334,,0x00,0xFF
11.465719833333333,,0x00,0xFF
11.466879666666667,,0x00,0xFF
11.468039541666666,,0x00,0xFF
11.469199416666667,,0x00,0xFF
11.470359291666666,,0x00,0xFF
11.471519125000000,,0x00,0xFF
11.472678999999999,,0x00,0xFF
11.473838875000000,,0x00,0xFF
11.474998708333333,,0x00,0xFF
11.476158583333333,,0x00,0xFF
11.477318458333333,,0x00,0xFF
11.478478291666667,,0x00,0xFF
11.479638166666666,,0x00,0xFF
11.480798041666667,,0x00,0xFF
11.481957916666667,,0x00,0xFF
11.483117750000000,,0x00,0xFF
11.484277625000001,,0x00,0xFF
11.485437500000000,,0x00,0xFF
11.486597333333334,,0x00,0xFF
11.487757208333333,,0x00,0xFF
11.488917083333334,,0x00,0xFF
11.490076916666666,,0x00,0x25
11.491236791666667,,0x00,0xD0
11.492396666666666,,0x00,0xE1
11.493556541666667,,0x00,0xFE
11.494716374999999,,0x00,0xF4
11.495876250000000,,0x00,0xFF
11.497036124999999,,0x00,0xFF
11.498195958333334,,0x00,0xFF
11.499355833333333,,0x00,0xFF
11.500576750000000,,0x00,0xFF
11.501736624999999,,0x00,0xCF
11.502896458333334,,0x00,0xFF
11.504056333333333,,0x00,0xD5
11.505216208333334,,0x00,0xFF
11.506376041666666,,0x00,0xC2
11.507535916666667,,0x00,0xFF
11.508695791666666,,0x00,0x67
11.509855666666667,,0x00,0x1F
11.511015499999999,,0x00,0xCF
11.512175375000000,,0x00,0x3F
11.513335250000001,,0x00,0x5F
11.514495083333333,,0x00,0xFF
11.515654958333334,,0x00,0xFF
11.516814833333333,,0x00,0xFF
11.517974708333334,,0x00,0xFF
11.519134541666666,,0x00,0xFF
11.520294416666667,,0x00,0xFF
11.521454291666666,,0x00,0xFF
11.522614125000000,,0x00,0xFF
11.523774000000000,,0x00,0xFF
11.524933875000000,,0x00,0x7F
11.526093708333333,,0x00,0xFF
11.527253583333334,,0x00,0xFF
11.528413458333333,,0x00,0xFF
11.529573333333333,,0x00,0xFF
11.530733166666666,,0x00,0xFF
11.531893041666667,,0x00,0xFF
11.533052916666668,,0x00,0xFF
11.534212750000000,,0x00,0xFF
11.535372625000001,,0x00,0xFF
11.536532500000000,,0x00,0xF1
11.537692375000001,,0x00,0xFF
11.538852208333333,,0x00,0xF4
11.540012083333334,,0x00,0xFB
11.541171958333333,,0x00,0xCE
11.542331791666667,,0x00,0xF1
11.543491666666666,,0x00,0xCE
11.544651541666667,,0x00,0xF1
11.545811375000000,,0x00,0x55
11.546971250000000,,0x00,0xFF
11.548131124999999,,0x00,0xF8
11.549291000000000,,0x00,0xFF
11.550450833333333,,0x00,0xFF
11.551610708333333,,0x00,0xFF
11.552770583333333,,0x00,0xFF
11.553930416666667,,0x00,0xFF
11.555090291666666,,0x00,0xF7
11.556250166666667,,0x00,0xFF
11.557410041666667,,0x00,0xFF
11.558569875000000,,0x00,0xFF
11.559729750000001,,0x00,0x55
11.560889625000000,,0x00,0xFF
11.562049458333334,,0x00,0x7E
11.563209333333333,,0x00,0xFF
11.564369208333334,,0x00,0x57
11.565529041666666,,0x00,0xFF
11.566688916666667,,0x00,0x3F
11.567848791666666,,0x00,0xFF
11.569008666666667,,0x00,0xFF
11.570168499999999,,0x00,0xFF
11.571328375000000,,0x00,0xFF
11.572488249999999,,0x00,0xFF
11.573648083333334,,0x00,0xFF
11.574807958333333,,0x00,0xFF
11.575967833333333,,0x00,0xFF
11.577127708333334,,0x00,0xFF
11.578287541666667,,0x00,0xDF
11.579447416666667,,0x00,0xFF
11.580607291666666,,0x00,0xFF
11.581767125000001,,0x00,0xFF
11.582927000000000,,0x00,0xFF
11.584086875000001,,0x00,0xFF
11.585246708333333,,0x00,0xFF
11.586406583333334,,0x00,0xFF
11.587566458333333,,0x00,0xFF
11.588726333333334,,0x00,0xFF
11.589886166666666,,0x00,0xCF
11.591046041666667,,0x00,0xFF
11.592205916666666,,0x00,0xBF
11.593365750000000,,0x00,0xDF
11.594525624999999,,0x00,0x8F
11.595685500000000,,0x00,0xFF
11.596845374999999,,0x00,0x9F
11.598005208333333,,0x00,0xFF
11.599165083333334,,0x00,0xCF
11.600324958333333,,0x00,0xFF
11.601484791666667,,0x00,0xF7
11.602644666666666,,0x00,0xFF
11.603804541666667,,0x00,0xFB
11.604964375000000,,0x00,0xFF
11.606124250000001,,0x00,0xFF
11.607284125000000,,0x00,0xFF
11.608444000000000,,0x00,0xFF
11.609603833333333,,0x00,0xFF
11.610763708333334,,0x00,0xF7
11.611923583333333,,0x00,0xFF
11.613083416666667,,0x00,0xFF
11.614243291666666,,0x00,0xFF
11.615403166666667,,0x00,0xFF
11.616563041666666,,0x00,0xFF
11.617783916666667,,0x00,0xFF
11.618943791666666,,0x00,0xFF
11.620103666666667,,0x00,0xFF
11.621263500000000,,0x00,0xFF
11.622423375000000,,0x00,0xFF
11.623583249999999,,0x00,0xFF
11.624743125000000,,0x00,0xFF
11.625902958333333,,0x00,0xFF
11.627062833333333,,0x00,0xFF
11.628222708333332,,0x00,0xFF
11.629382541666667,,0x00,0xFF
11.630542416666668,,0x00,0xFF
11.631702291666667,,0x00,0xFF
11.632862125000001,,0x00,0xFF
11.634022000000000,,0x00,0xFF
11.635181875000001,,0x00,0xFF
11.636341750000000,,0x00,0xFF
11.637501583333334,,0x00,0xFF
11.638661458333333,,0x00,0xFF
11.639821333333334,,0x00,0xFF
11.640981166666666,,0x00,0xFF
11.642141041666667,,0x00,0xFF
11.643300916666666,,0x00,0xFF
11.644460791666667,,0x00,0xFF
11.645620624999999,,0x00,0xFF
11.646780500000000,,0x00,0xFF
11.647940374999999,,0x00,0xFF
11.649100208333333,,0x00,0xFF
11.650260083333333,,0x00,0xFF
11.651419958333333,,0x00,0xFF
11.652579833333334,,0x00,0xFF
11.653739666666667,,0x00,0xFF
11.654899541666667,,0x00,0xFF
11.656059416666666,,0x00,0xFF
11.657219250000001,,0x00,0xFF
11.658379125000000,,0x00,0xFF
11.659539000000001,,0x00,0xFF
11.660698833333333,,0x00,0xFF
11.661858708333334,,0x00,0xFF
11.663018583333333,,0x00,0xFF
11.664178458333334,,0x00,0xFF
11.665338291666666,,0x00,0xFF
11.666498166666667,,0x00,0xFF
11.667658041666666,,0x00,0xFF
11.668817875000000,,0x00,0xFF
11.669977749999999,,0x00,0xFF
11.671137625000000,,0x00,0xFF
11.672297500000001,,0x00,0xFF
11.673457333333333,,0x00,0xFF
11.674617208333334,,0x00,0xFF
11.675777083333333,,0x00,0xFF
11.676936916666667,,0x00,0xFF
11.678096791666666,,0x00,0xFF
11.679256666666667,,0x00,0xFF
11.680416500000000,,0x00,0xFF
11.681576375000001,,0x00,0xFF
11.682736250000000,,0x00,0xFF
11.683896125000000,,0x00,0xFF
11.685055958333333,,0x00,0xFF
11.686215833333334,,0x00,0xFF
11.687375708333333,,0x00,0xFF
11.688535541666667,,0x00,0xFF
11.689695416666666,,0x00,0xFF
11.690855291666667,,0x00,0xFF
11.692015124999999,,0x00,0xFF
11.693175000000000,,0x00,0xFF
11.694334874999999,,0x00,0xFF
11.695494750000000,,0x00,0xFF
11.696654583333334,,0x00,0xFF
11.697814458333333,,0x00,0xFF
11.698974333333334,,0x00,0xFF
11.700134166666667,,0x00,0xFF
11.701294041666667,,0x00,0xFF
11.702453916666666,,0x00,0xFF
11.703613791666667,,0x00,0xFF
11.704773625000000,,0x00,0xFF
11.705933500000000,,0x00,0xFF
11.707093374999999,,0x00,0xFF
11.708253208333334,,0x00,0xFF
11.709413083333333,,0x00,0xFF
11.710572958333334,,0x00,0xFF
11.711732833333333,,0x00,0xFF
11.712892666666667,,0x00,0xFF
11.714052541666666,,0x00,0xFF
11.715212416666667,,0x00,0xFF
11.716372249999999,,0x00,0xFF
11.717532125000000,,0x00,0xFF
11.718692000000001,,0x00,0xFF
11.719851833333333,,0x00,0xFF
11.721011708333334,,0x00,0xFF
11.722171583333333,,0x00,0xFF
11.723331458333334,,0x00,0xFF
11.724491291666666,,0x00,0xFF
11.725651166666667,,0x00,0xFF
11.726811041666666,,0x00,0xFF
11.727970875000000,,0x00,0xFF
11.729130749999999,,0x00,0xFF
11.730290625000000,,0x00,0xFF
11.731450499999999,,0x00,0xFF
11.732610333333334,,0x00,0xFF
11.733770208333333,,0x00,0xFF
11.734991125000001,,0x00,0xFF
11.736150958333333,,0x00,0xFF
11.737310833333334,,0x00,0xFF
11.738470708333333,,0x00,0xFF
11.739630583333334,,0x00,0xFF
11.740790416666666,,0x00,0xFF
11.741950291666667,,0x00,0xFF
11.743110166666666,,0x00,0xFF
11.744270000000000,,0x00,0xFF
11.745429874999999,,0x00,0xFF
11.746589750000000,,0x00,0xFF
11.747749583333333,,0x00,0xFF
11.748909458333333,,0x00,0xFF
11.750069333333334,,0x00,0xFF
11.751229208333333,,0x00,0xFF
11.752389041666667,,0x00,0xFF
11.753548916666666,,0x00,0xFF
11.754708791666667,,0x00,0xFF
11.755868625000000,,0x00,0xFF
11.757028500000001,,0x00,0xFF
11.758188375000000,,0x00,0xFF
11.759348250000000,,0x00,0xFF
11.760508083333333,,0x00,0xFF
11.761667958333334,,0x00,0xFF
11.762827833333333,,0x00,0xFF
11.763987666666667,,0x00,0xFF
11.765147541666666,,0x00,0xFF
11.766307416666667,,0x00,0xFF
11.767467249999999,,0x00,0xFF
11.768627125000000,,0x00,0xFF
11.769787000000001,,0x00,0xFF
11.770946875000000,,0x00,0xFF
11.772106708333334,,0x00,0xFF
11.773266583333333,,0x00,0xFF
11.774426458333334,,0x00,0xFF
11.775586291666666,,0x00,0xFF
11.776746166666667,,0x00,0xFF
11.777906041666666,,0x00,0xFF
11.779065916666667,,0x00,0xFF
11.780225750000000,,0x00,0xFF
11.781385625000000,,0x00,0xFF
11.782545499999999,,0x00,0xFF
11.783705333333334,,0x00,0xFF
11.784865208333333,,0x00,0xFF
11.786025083333334,,0x00,0xFF
11.787184958333333,,0x00,0xFF
11.788344791666667,,0x00,0xFF
11.789504666666666,,0x00,0xFF
11.790664541666667,,0x00,0xFF
11.791824374999999,,0x00,0xFF
11.792984250000000,,0x00,0xFF
11.794144125000001,,0x00,0xFF
11.795303958333333,,0x00,0xFF
11.796463833333334,,0x00,0xFF
11.797623708333333,,0x00,0xFF
11.798783583333334,,0x00,0xFF
11.799943416666666,,0x00,0xFF
11.801103291666667,,0x00,0xFF
11.802263166666666,,0x00,0xFF
11.803423000000000,,0x00,0xFF
11.804582874999999,,0x00,0xFF
11.805742750000000,,0x00,0xFF
11.806902624999999,,0x00,0xFF
11.808062458333334,,0x00,0xFF
11.809222333333333,,0x00,0xFF
11.810382208333333,,0x00,0xFF
11.811542041666666,,0x00,0xFF
11.812701916666667,,0x00,0xFF
11.813861791666668,,0x00,0xFF
11.815021625000000,,0x00,0xFF
11.816181500000001,,0x00,0xFF
11.817341375000000,,0x00,0xFF
11.818501250000001,,0x00,0xFF
11.819661083333333,,0x00,0xFF
11.820820958333334,,0x00,0xFF
11.821980833333333,,0x00,0xFF
11.823140666666667,,0x00,0xFF
11.824300541666666,,0x00,0xFF
11.825460416666667,,0x00,0xFF
11.826620250000000,,0x00,0xFF
11.827780125000000,,0x00,0xFF
11.828939999999999,,0x00,0xFF
11.830099875000000,,0x00,0xFF
11.831259708333333,,0x00,0xFF
11.832419583333333,,0x00,0xFF
11.833579458333332,,0x00,0xFF
11.834739291666667,,0x00,0xFF
11.835899166666668,,0x00,0xFF
11.837059041666667,,0x00,0xFF
11.838218916666667,,0x00,0xFF
11.839378750000000,,0x00,0xFF
11.840538625000001,,0x00,0xFF
11.841698500000000,,0x00,0xFF
11.842858333333334,,0x00,0xFF
11.844018208333333,,0x00,0xFF
11.845178083333334,,0x00,0xFF
11.846337958333333,,0x00,0xFF
11.847497791666667,,0x00,0xFD
11.848657666666666,,0x00,0xFF
11.849817541666667,,0x00,0xFE
11.850977374999999,,0x00,0xFF
11.852198291666667,,0x00,0xFD
11.853358166666666,,0x00,0xFF
11.854518041666667,,0x00,0xFC
11.855677875000000,,0x00,0xFF
11.856837750000000,,0x00,0xFD
11.857997624999999,,0x00,0xFF
11.859157458333334,,0x00,0xFE
11.860317333333333,,0x00,0xFF
11.861477208333334,,0x00,0x51
11.862637041666666,,0x00,0xFF
11.863796916666667,,0x00,0x01
11.864956791666666,,0x00,0xFF
11.866116666666667,,0x00,0x11
11.867276499999999,,0x00,0xFF
11.868436375000000,,0x00,0x00
11.869596250000001,,0x00,0xFF
11.870756083333333,,0x00,0x08
11.871915958333334,,0x00,0xF7
11.873075833333333,,0x00,0x00
11.874235708333334,,0x00,0xFF
11.875395541666666,,0x00,0x0A
11.876555416666667,,0x00,0xF5
11.877715291666666,,0x00,0x00
11.878875125000000,,0x00,0xFF
11.880034999999999,,0x00,0x57
11.881194875000000,,0x00,0xFF
11.882354708333333,,0x00,0x3E
11.883514583333334,,0x00,0xFF
11.884674458333333,,0x00,0x55
11.885834333333333,,0x00,0xFF
11.886994166666666,,0x00,0x00
11.888154041666667,,0x00,0xFF
11.889313916666667,,0x00,0x90
11.890473750000000,,0x00,0x7F
11.891633625000001,,0x00,0x00
11.892793500000000,,0x00,0xFF
11.893953375000001,,0x00,0xAA
11.895113208333333,,0x00,0x55
11.896273083333334,,0x00,0x02
11.897432958333333,,0x00,0xFD
11.898592791666667,,0x00,0x4A
11.899752666666666,,0x00,0xF5
11.900912541666667,,0x00,0x31
11.902072374999999,,0x00,0xFF
11.903232250000000,,0x00,0x5F
11.904392124999999,,0x00,0xFF
11.905552000000000,,0x00,0x04
11.906711833333333,,0x00,0xFF
11.907871708333333,,0x00,0xAB
11.909031583333332,,0x00,0x55
11.910191416666667,,0x00,0x00
11.911351291666668,,0x00,0xFF
11.912511166666667,,0x00,0x8A
11.913671041666667,,0x00,0x75
11.914830875000000,,0x00,0x00
11.915990750000001,,0x00,0xFF
11.917150625000000,,0x00,0x55
11.918310458333334,,0x00,0xFF
11.919470333333333,,0x00,0xA3
11.920630208333334,,0x00,0xFF
11.921790041666666,,0x00,0x55
11.922949916666667,,0x00,0xFF
11.924109791666666,,0x00,0x02
11.925269666666667,,0x00,0xFF
11.926429499999999,,0x00,0xD5
11.927589375000000,,0x00,0x7F
11.928749249999999,,0x00,0x02
11.929909083333333,,0x00,0xFF
11.931068958333332,,0x00,0x15
11.932228833333333,,0x00,0xFF
11.933388666666668,,0x00,0x04
11.934548541666667,,0x00,0xFF
11.935708416666667,,0x00,0x57
11.936868291666666,,0x00,0xFF
11.938028125000001,,0x00,0xFF
11.939188000000000,,0x00,0xFF
11.940347875000000,,0x00,0x55
11.941507708333333,,0x00,0xFF
11.942667583333334,,0x00,0xFF
11.943827458333333,,0x00,0xFF
11.944987333333334,,0x00,0x55
11.946147166666666,,0x00,0xFF
11.947307041666667,,0x00,0xB2
11.948466916666666,,0x00,0xFF
11.949626750000000,,0x00,0x55
11.950786624999999,,0x00,0xFF
11.951946500000000,,0x00,0x8A
11.953106375000001,,0x00,0xFF
11.954266208333333,,0x00,0xFF
11.955426083333334,,0x00,0xFF
11.956585958333333,,0x00,0xFF
11.957745791666667,,0x00,0xFF
11.958905666666666,,0x00,0xDF
11.960065541666667,,0x00,0xFF
11.961225375000000,,0x00,0xFF
11.962385250000001,,0x00,0xFF
11.963545125000000,,0x00,0x5F
11.964705000000000,,0x00,0xFF
11.965864833333333,,0x00,0xFF
11.967024708333334,,0x00,0xFF
11.968184583333333,,0x00,0xDF
11.969466541666666,,0x00,0xFF
11.970626375000000,,0x00,0xFF
11.971786249999999,,0x00,0xFF
11.972946125000000,,0x00,0xFF
11.974105958333332,,0x00,0xFF
11.975265833333333,,0x00,0xFF
11.976425708333334,,0x00,0xFF
11.977585583333333,,0x00,0xFF
11.978745416666667,,0x00,0xFF
11.979905291666666,,0x00,0xFF
11.981065166666667,,0x00,0xFF
11.982225000000000,,0x00,0xFF
11.983384875000000,,0x00,0xFF
11.984544750000000,,0x00,0xFF
11.985704625000000,,0x00,0xFF
11.986864458333333,,0x00,0xFF
11.988024333333334,,0x00,0xFF
11.989184208333333,,0x00,0xFF
11.990344041666667,,0x00,0xFF
11.991503916666666,,0x00,0xFF
11.992663791666667,,0x00,0xFF
11.993823624999999,,0x00,0xFF
11.994983500000000,,0x00,0xFF
11.996143375000001,,0x00,0xFF
11.997303250000000,,0x00,0xFF
11.998463083333334,,0x00,0xFF
11.999622958333333,,0x00,0xFF
12.000782833333334,,0x00,0xFF
12.001942666666666,,0x00,0xFF
12.003102541666667,,0x00,0xFF
12.004262416666666,,0x00,0xFF
12.005422291666667,,0x00,0xFF
12.006582125000000,,0x00,0xFF
12.007742000000000,,0x00,0xFF
12.008901874999999,,0x00,0xFF
12.010061708333334,,0x00,0xFF
12.011221583333333,,0x00,0xFF
12.012381458333333,,0x00,0xFF
12.013541291666666,,0x00,0xFF
12.014701166666667,,0x00,0xFF
12.015861041666666,,0x00,0xFF
12.017020916666667,,0x00,0xFF
12.018180750000001,,0x00,0xFF
12.019340625000000,,0x00,0xFF
12.020500500000001,,0x00,0xFF
12.021660333333333,,0x00,0xFF
12.022820208333334,,0x00,0xFF
12.023980083333333,,0x00,0xFF
12.025139916666667,,0x00,0xFF
12.026299791666666,,0x00,0xFF
12.027459666666667,,0x00,0xFF
12.028619541666666,,0x00,0xFF
12.029779375000000,,0x00,0xFF
12.030939249999999,,0x00,0xFF
12.032099125000000,,0x00,0xFF
12.033258958333333,,0x00,0xFF
12.034418833333334,,0x00,0xFF
12.035578708333333,,0x00,0xFF
12.036738583333333,,0x00,0xFF
12.037898416666666,,0x00,0xFF
12.039058291666667,,0x00,0xFF
12.040218166666667,,0x00,0xFF
12.041378000000000,,0x00,0xFF
12.042537875000001,,0x00,0xFF
12.043697750000000,,0x00,0xFF
12.044857583333334,,0x00,0xFF
12.046017458333333,,0x00,0xFF
12.047177333333334,,0x00,0xFF
12.048337208333333,,0x00,0xFF
12.049497041666667,,0x00,0xFF
12.050656916666666,,0x00,0xFF
12.051816791666667,,0x00,0xFF
12.052976624999999,,0x00,0xFF
12.054136500000000,,0x00,0xFF
12.055296374999999,,0x00,0xFF
12.056456250000000,,0x00,0xFF
12.057616083333333,,0x00,0xFF
12.058775958333333,,0x00,0xFF
12.059935833333334,,0x00,0xFF
12.061095666666667,,0x00,0xFF
12.062255541666667,,0x00,0xFF
12.063415416666667,,0x00,0xFF
12.064575250000001,,0x00,0xFF
12.065735125000000,,0x00,0xFF
12.066895000000001,,0x00,0xFF
12.068054875000000,,0x00,0xFF
12.069214708333334,,0x00,0xFF
12.070374583333333,,0x00,0xFF
12.071534458333334,,0x00,0xFF
12.072694291666666,,0x00,0xFF
12.073854166666667,,0x00,0xFF
12.075014041666666,,0x00,0xFF
12.076173916666667,,0x00,0xFF
12.077333749999999,,0x00,0xFF
12.078493625000000,,0x00,0xFF
12.079653499999999,,0x00,0xFF
12.080813333333333,,0x00,0xFF
12.081973208333334,,0x00,0xFF
12.083133083333333,,0x00,0xFF
12.084292916666667,,0x00,0xFF
12.085452791666667,,0x00,0xFF
12.086673708333333,,0x00,0xFF
12.087833583333333,,0x00,0xFF
12.088993416666666,,0x00,0xFF
12.090153291666667,,0x00,0xFF
12.091313166666666,,0x00,0xFF
12.092473041666667,,0x00,0xFF
12.093632875000001,,0x00,0xFF
12.094792750000000,,0x00,0xFF
12.095952625000001,,0x00,0xFF
12.097112458333333,,0x00,0xFF
12.098272333333334,,0x00,0xFF
12.099432208333333,,0x00,0xFF
12.100592041666667,,0x00,0xFF
12.101751916666666,,0x00,0xFF
12.102850750000000,,0x00,0xC7
12.103949541666667,,0x00,0x52
12.105048375000001,,0x81,0x00
12.106147208333333,,0x00,0x00
12.157669500000001,,0x00,0x88
12.158768333333333,,0x00,0x33
12.159928208333334,,0x00,0x04
12.161088041666666,,0x00,0x00
12.162247916666667,,0x00,0x80
12.163407791666666,,0x00,0x02
12.164567666666667,,0x00,0xFF
12.165727499999999,,0x00,0xFF
12.166887375000000,,0x00,0xFF
12.168047250000001,,0x00,0xFF
12.169207083333333,,0x00,0xFF
12.170366958333334,,0x00,0xFF
12.171526833333333,,0x00,0xFF
12.172686708333334,,0x00,0xFF
12.173846541666666,,0x00,0xFF
12.175006416666667,,0x00,0xFF
12.176166291666666,,0x00,0xFF
12.177326125000000,,0x00,0xFF
12.178485999999999,,0x00,0xFF
12.179645875000000,,0x00,0xFF
12.180805708333333,,0x00,0xFF
12.181965583333334,,0x00,0xFF
12.183125458333333,,0x00,0xFF
12.184285333333333,,0x00,0xFF
12.185445166666666,,0x00,0xFF
12.186605041666667,,0x00,0xFF
12.187764916666668,,0x00,0xFF
12.188924750000000,,0x00,0xFF
12.190084625000001,,0x00,0xFF
12.191244500000000,,0x00,0xFF
12.192404375000001,,0x00,0xFF
12.193564208333333,,0x00,0xFF
12.194724083333334,,0x00,0xFF
12.195883958333333,,0x00,0xFF
12.197043791666667,,0x00,0xFF
12.198203666666666,,0x00,0xFF
12.199363541666667,,0x00,0xFF
12.200523375000000,,0x00,0xFF
12.201683250000000,,0x00,0xFF
12.202843124999999,,0x00,0xFF
12.204003000000000,,0x00,0xFF
12.205162833333333,,0x00,0xFF
12.206322708333333,,0x00,0xFF
12.207482583333332,,0x00,0xFF
12.208642416666667,,0x00,0xFF
12.209802291666668,,0x00,0xFF
12.210962166666667,,0x00,0xFF
12.212122041666667,,0x00,0xFF
12.213281875000000,,0x00,0xFF
12.214441750000001,,0x00,0xFF
12.215601625000000,,0x00,0xFF
12.216761458333334,,0x00,0xFF
12.217921333333333,,0x00,0xFF
12.219081208333334,,0x00,0xFF
12.220241041666666,,0x00,0xFF
12.221400916666667,,0x00,0xFF
12.222560791666666,,0x00,0xFF
12.223720666666667,,0x00,0xFF
12.224880499999999,,0x00,0xFF
12.226040375000000,,0x00,0xFF
12.227200249999999,,0x00,0xFF
12.228360083333333,,0x00,0xFF
12.229519958333332,,0x00,0xFF
12.230679833333333,,0x00,0xFF
12.231839708333334,,0x00,0xFF
12.232999541666667,,0x00,0xFF
12.234159416666667,,0x00,0xFF
12.235319291666666,,0x00,0xFF
12.236479125000001,,0x00,0xFF
12.237639000000000,,0x00,0xFF
12.238798875000001,,0x00,0xFF
12.239958708333333,,0x00,0xFF
12.241118583333334,,0x00,0xFF
12.242278458333333,,0x00,0xFF
12.243438333333334,,0x00,0xFF
12.244598166666666,,0x00,0xFF
12.245758041666667,,0x00,0xFF
12.246917916666666,,0x00,0xFF
12.248077750000000,,0x00,0xFF
12.249237624999999,,0x00,0xFF
12.250397500000000,,0x00,0xFF
12.251557375000001,,0x00,0xFF
12.252717208333333,,0x00,0xFF
12.253877083333334,,0x00,0xFF
12.255036958333333,,0x00,0xFF
12.256196791666667,,0x00,0xFF
12.257356666666666,,0x00,0xFF
12.258516541666667,,0x00,0xFF
12.259676375000000,,0x00,0xFF
12.260836250000001,,0x00,0xFF
12.261996125000000,,0x00,0xFF
12.263156000000000,,0x00,0xFF
12.264315833333333,,0x00,0xFF
12.265475708333334,,0x00,0xFF
12.266635583333333,,0x00,0xFF
12.267795416666667,,0x00,0xFF
12.268955291666666,,0x00,0xFF
12.270115166666667,,0x00,0xFF
12.271275041666666,,0x00,0xFF
12.272434875000000,,0x00,0xFF
12.273594750000001,,0x00,0xFF
12.274754625000000,,0x00,0xFF
12.275914458333334,,0x00,0xFF
12.277074333333333,,0x00,0xFF
12.278234208333334,,0x00,0xFF
12.279394041666666,,0x00,0xFF
12.280553916666667,,0x00,0xFF
12.281713791666666,,0x00,0xFF
12.282873666666667,,0x00,0xFE
12.284033500000000,,0x00,0xFF
12.285193375000000,,0x00,0xFC
12.286353249999999,,0x00,0xFE
12.287635208333333,,0x00,0xFC
12.288795041666667,,0x00,0xF8
12.289954916666666,,0x00,0xF9
12.291114791666667,,0x00,0xF1
12.292274624999999,,0x00,0xE3
12.293434500000000,,0x00,0xF3
12.294594375000001,,0x00,0xFF
12.295754250000000,,0x00,0xFF
12.296914083333334,,0x00,0xFF
12.298073958333333,,0x00,0xFF
12.299233833333334,,0x00,0xFF
12.300393666666666,,0x00,0xFF
12.301553541666667,,0x00,0x77
12.302713416666666,,0x00,0x8F
12.303873250000001,,0x00,0x0E
12.305033125000000,,0x00,0x07
12.306193000000000,,0x00,0x87
12.307352874999999,,0x00,0x7E
12.308512708333334,,0x00,0xFC
12.309672583333333,,0x00,0xFE
12.310832458333334,,0x00,0xFE
12.311992291666666,,0x00,0xFC
12.313152166666667,,0x00,0xFF
12.314312041666666,,0x00,0xFF
12.315471916666667,,0x00,0xFF
12.316631750000001,,0x00,0xFF
12.317791625000000,,0x00,0xFF
12.318951500000001,,0x00,0xFF
12.320111333333333,,0x00,0xBF
12.321271208333334,,0x00,0x7E
12.322431083333333,,0x00,0x3C
12.323590916666667,,0x00,0x3E
12.324750791666666,,0x00,0x1E
12.325910666666667,,0x00,0x3C
12.327070541666666,,0x00,0x18
12.328230375000000,,0x00,0x3C
12.329390249999999,,0x00,0x18
12.330550125000000,,0x00,0x3C
12.331709958333333,,0x00,0xFF
12.332869833333334,,0x00,0xFF
12.334029708333333,,0x00,0xFF
12.335189583333333,,0x00,0xFF
12.336349416666666,,0x00,0xFF
12.337509291666667,,0x00,0xFF
12.338669166666667,,0x00,0x77
12.339829000000000,,0x00,0xFB
12.340988875000001,,0x00,0xF1
12.342148750000000,,0x00,0x73
12.343308583333334,,0x00,0x61
12.344468458333333,,0x00,0x73
12.345628333333334,,0x00,0x21
12.346788208333333,,0x00,0x63
12.347948041666667,,0x00,0x20
12.349107916666666,,0x00,0x43
12.350267791666667,,0x00,0xFF
12.351427624999999,,0x00,0xFF
12.352587500000000,,0x00,0xFF
12.353747374999999,,0x00,0xFF
12.354907250000000,,0x00,0xFF
12.356067083333333,,0x00,0xFF
12.357226958333333,,0x00,0x7B
12.358386833333334,,0x00,0x87
12.359546666666667,,0x00,0x81
12.360706541666667,,0x00,0x03
12.361866416666667,,0x00,0x83
12.363026250000001,,0x00,0x3F
12.364186125000000,,0x00,0x3F
12.365346000000001,,0x00,0x3F
12.366505875000000,,0x00,0x37
12.367665708333334,,0x00,0x0F
12.368825583333333,,0x00,0xFF
12.369985458333334,,0x00,0xFF
12.371145291666666,,0x00,0xFF
12.372305166666667,,0x00,0xFF
12.373465041666666,,0x00,0xFF
12.374624916666667,,0x00,0xFF
12.375784749999999,,0x00,0xBB
12.376944625000000,,0x00,0xC7
12.378104499999999,,0x00,0xC3
12.379264333333333,,0x00,0x83
12.380424208333332,,0x00,0xD9
12.381584083333333,,0x00,0x83
12.382743916666668,,0x00,0xC1
12.383903791666667,,0x00,0x9B
12.385063666666667,,0x00,0x82
12.386223541666666,,0x00,0x83
12.387383375000001,,0x00,0xFF
12.388543250000000,,0x00,0xFF
12.389703125000000,,0x00,0xFF
12.390862958333333,,0x00,0xFF
12.392022833333334,,0x00,0xFF
12.393182708333333,,0x00,0xFF
12.394342583333334,,0x00,0xDE
12.395502416666666,,0x00,0xE3
12.396662291666667,,0x00,0xC3
12.397822166666666,,0x00,0x80
12.398982000000000,,0x00,0x25
12.400141874999999,,0x00,0x98
12.401301750000000,,0x00,0x19
12.402461583333332,,0x00,0x3C
12.403621458333333,,0x00,0x78
12.404842374999999,,0x00,0x3C
12.406002250000000,,0x00,0xFF
12.407162083333333,,0x00,0xFF
12.408321958333334,,0x00,0xFF
12.409481833333333,,0x00,0xFF
12.410641708333333,,0x00,0xFF
12.411801541666666,,0x00,0xFF
12.412961416666667,,0x00,0xBB
12.414121291666667,,0x00,0x7D
12.415281125000000,,0x00,0x71
12.416441000000001,,0x00,0x39
12.417600875000000,,0x00,0x03
12.418760708333334,,0x00,0x33
12.419920583333333,,0x00,0x23
12.421080458333334,,0x00,0x87
12.422240333333333,,0x00,0xCF
12.423400166666667,,0x00,0x87
12.424560041666666,,0x00,0xFF
12.425719916666667,,0x00,0xFF
12.426879749999999,,0x00,0xAF
12.428039625000000,,0x00,0xD5
12.429199499999999,,0x00,0xFB
12.430359375000000,,0x00,0xD5
12.431519208333333,,0x00,0xFB
12.432679083333333,,0x00,0xD5
12.433838958333334,,0x00,0xFF
12.434998791666667,,0x00,0xFF
12.436158666666667,,0x00,0xFF
12.437318541666667,,0x00,0xFF
12.438478375000001,,0x00,0xFF
12.439638250000000,,0x00,0xFF
12.440798125000001,,0x00,0xFF
12.441958000000000,,0x00,0xFF
12.443117833333334,,0x00,0xFF
12.444277708333333,,0x00,0xFF
12.445437583333334,,0x00,0xFF
12.446597416666666,,0x00,0xFF
12.447757291666667,,0x00,0xFF
12.448917166666666,,0x00,0xFF
12.450077041666667,,0x00,0xFF
12.451236874999999,,0x00,0xFF
12.452396750000000,,0x00,0xFF
12.453556624999999,,0x00,0xFF
12.454716458333333,,0x00,0xFF
12.455876333333334,,0x00,0xFF
12.457036208333333,,0x00,0xFF
12.458196041666667,,0x00,0xFF
12.459355916666667,,0x00,0xFF
12.460515791666667,,0x00,0xFF
12.461675666666666,,0x00,0xFF
12.462835500000001,,0x00,0xFF
12.463995375000000,,0x00,0xFF
12.465155250000000,,0x00,0xFF
12.466315083333333,,0x00,0xFF
12.467474958333334,,0x00,0xFF
12.468634833333333,,0x00,0xFF
12.469794666666667,,0x00,0xFF
12.470954541666666,,0x00,0xFF
12.472114416666667,,0x00,0xFF
12.473274291666666,,0x00,0xFF
12.474434125000000,,0x00,0xFF
12.475593999999999,,0x00,0xFF
12.476753875000000,,0x00,0xFF
12.477913708333332,,0x00,0xFF
12.479073583333333,,0x00,0xFF
12.480233458333334,,0x00,0xFF
12.481393333333333,,0x00,0xFF
12.482553166666667,,0x00,0xFF
12.483713041666666,,0x00,0xFF
12.484872916666667,,0x00,0xFF
12.486032750000000,,0x00,0xFF
12.487192625000000,,0x00,0xFF
12.488352500000000,,0x00,0xFF
12.489512375000000,,0x00,0xFF
12.490672208333333,,0x00,0xFF
12.491832083333334,,0x00,0xFF
12.492991958333333,,0x00,0xFF
12.494151791666667,,0x00,0xFF
12.495311666666666,,0x00,0xFF
12.496471541666667,,0x00,0xFF
12.497631374999999,,0x00,0xFF
12.498791250000000,,0x00,0xFF
12.499951125000001,,0x00,0xFF
12.501111000000000,,0x00,0xFF
12.502270833333334,,0x00,0xFF
12.503430708333333,,0x00,0xFF
12.504590583333334,,0x00,0xFF
12.505750416666666,,0x00,0xFF
12.506910291666667,,0x00,0xFF
12.508070166666666,,0x00,0xFF
12.509230041666667,,0x00,0xFF
12.510389875000000,,0x00,0xFF
12.511549750000000,,0x00,0xFF
12.512709624999999,,0x00,0xFF
12.513869458333334,,0x00,0xFF
12.515029333333333,,0x00,0xFF
12.516189208333333,,0x00,0xFF
12.517349041666666,,0x00,0xFF
12.518508916666667,,0x00,0xFF
12.519668791666666,,0x00,0xFF
12.520828666666667,,0x00,0xFF
12.522049541666666,,0x00,0xFF
12.523209416666667,,0x00,0xFF
12.524369291666666,,0x00,0xFF
12.525529166666667,,0x00,0xFF
12.526688999999999,,0x00,0xFF
12.527848875000000,,0x00,0xFF
12.529008749999999,,0x00,0xFF
12.530168583333333,,0x00,0xFF
12.531328458333334,,0x00,0xFF
12.532488333333333,,0x00,0xFF
12.533648166666667,,0x00,0xFF
12.534808041666667,,0x00,0xFF
12.535967916666667,,0x00,0xFF
12.537127791666666,,0x00,0xFF
12.538287625000001,,0x00,0xFF
12.539447500000000,,0x00,0xFF
12.540607375000000,,0x00,0xFF
12.541767208333333,,0x00,0xFF
12.542927083333334,,0x00,0xFF
12.544086958333333,,0x00,0xFF
12.545246791666667,,0x00,0xFF
12.546406666666666,,0x00,0xFF
12.547566541666667,,0x00,0xFF
12.548726416666666,,0x00,0xFF
12.549886250000000,,0x00,0xFF
12.551046124999999,,0x00,0xFF
12.552206000000000,,0x00,0xFF
12.553365833333332,,0x00,0xFF
12.554525708333333,,0x00,0xFF
12.555685583333334,,0x00,0xFF
12.556845458333333,,0x00,0xFF
12.558005291666667,,0x00,0xFF
12.559165166666666,,0x00,0xFF
12.560325041666667,,0x00,0xFF
12.561484875000000,,0x00,0xFF
12.562644750000000,,0x00,0xFF
12.563804625000000,,0x00,0xFF
12.564964458333334,,0x00,0xFF
12.566124333333333,,0x00,0xFF
12.567284208333334,,0x00,0xFF
12.568444083333333,,0x00,0xFF
12.569603916666667,,0x00,0xFF
12.570763791666666,,0x00,0xFF
12.571923666666667,,0x00,0xFF
12.573083499999999,,0x00,0xFF
12.574243375000000,,0x00,0xFF
12.575403250000001,,0x00,0xFF
12.576563125000000,,0x00,0xFF
12.577722958333334,,0x00,0xFF
12.578882833333333,,0x00,0xFF
12.580042708333334,,0x00,0xFF
12.581202541666666,,0x00,0xFF
12.582362416666667,,0x00,0xFF
12.583522291666666,,0x00,0xFF
12.584682125000000,,0x00,0xFF
12.585842000000000,,0x00,0xFF
12.587001875000000,,0x00,0xFF
12.588161749999999,,0x00,0xFF
12.589321583333334,,0x00,0xFF
12.590481458333333,,0x00,0xFF
12.591641333333333,,0x00,0xFF
12.592801166666666,,0x00,0xFF
12.593961041666667,,0x00,0xFF
12.595120916666668,,0x00,0xFF
12.596280791666667,,0x00,0xFF
12.597440625000001,,0x00,0xFF
12.598600500000000,,0x00,0xFF
12.599760375000001,,0x00,0xFF
12.600920208333333,,0x00,0xFF
12.602080083333334,,0x00,0xFF
12.603239958333333,,0x00,0xFF
12.604399791666667,,0x00,0xFF
12.605559666666666,,0x00,0xFF
12.606719541666667,,0x00,0xFF
12.607879416666666,,0x00,0xFF
12.609039250000000,,0x00,0xFF
12.610199124999999,,0x00,0xFF
12.611359000000000,,0x00,0xFF
12.612518833333333,,0x00,0xFF
12.613678708333333,,0x00,0xFF
12.614838583333333,,0x00,0xFF
12.615998458333333,,0x00,0xFF
12.617158291666666,,0x00,0xFF
12.618318166666667,,0x00,0xFF
12.619478041666667,,0x00,0xFF
12.620637875000000,,0x00,0xFF
12.621797750000001,,0x00,0xFF
12.622957625000000,,0x00,0xFF
12.624117500000001,,0x00,0xFF
12.625277333333333,,0x00,0xFF
12.626437208333334,,0x00,0xFF
12.627597083333333,,0x00,0xFF
12.628756916666667,,0x00,0xFF
12.629916791666666,,0x00,0xFF
12.631076666666667,,0x00,0xFF
12.632236499999999,,0x00,0xFF
12.633396375000000,,0x00,0xFF
12.634556249999999,,0x00,0xFF
12.635716125000000,,0x00,0xFF
12.636875958333333,,0x00,0xFF
12.638035833333333,,0x00,0xFF
12.639256749999999,,0x00,0xFF
12.640416583333334,,0x00,0xFF
12.641576458333333,,0x00,0xFF
12.642736333333334,,0x00,0xFF
12.643896208333333,,0x00,0xFF
12.645056041666667,,0x00,0xFF
12.646215916666666,,0x00,0xFF
12.647375791666667,,0x00,0xE3
12.648535624999999,,0x00,0xF3
12.649695500000000,,0x00,0xF7
12.650855375000001,,0x00,0xE3
12.652015250000000,,0x00,0xE3
12.653175083333334,,0x00,0xF3
12.654334958333333,,0x00,0xF0
12.655494833333334,,0x00,0xF3
12.656654666666666,,0x00,0xF0
12.657814541666667,,0x00,0xF8
12.658974416666666,,0x00,0xFA
12.660134250000000,,0x00,0xFC
12.661294125000000,,0x00,0xFF
12.662454000000000,,0x00,0xFF
12.663613874999999,,0x00,0xFF
12.664773708333334,,0x00,0xFF
12.665933583333333,,0x00,0xF9
12.667093458333333,,0x00,0xFC
12.668253291666666,,0x00,0x9C
12.669413166666667,,0x00,0x08
12.670573041666668,,0x00,0x88
12.671732916666667,,0x00,0x18
12.672892750000001,,0x00,0x5B
12.674052625000000,,0x00,0x91
12.675212500000001,,0x00,0x03
12.676372333333333,,0x00,0x13
12.677532208333334,,0x00,0x07
12.678692083333333,,0x00,0x33
12.679851916666667,,0x00,0xFF
12.681011791666666,,0x00,0xFF
12.682171666666667,,0x00,0xFF
12.683331541666666,,0x00,0xFF
12.684491375000000,,0x00,0x3D
12.685651249999999,,0x00,0x98
12.686811125000000,,0x00,0x3A
12.687970958333333,,0x00,0x19
12.689130833333333,,0x00,0x93
12.690290708333333,,0x00,0x19
12.691450583333333,,0x00,0xD1
12.692610416666666,,0x00,0x93
12.693770291666667,,0x00,0xC3
12.694930166666667,,0x00,0x93
12.696090000000000,,0x00,0xA7
12.697249875000001,,0x00,0xD3
12.698409750000000,,0x00,0xFF
12.699569583333334,,0x00,0xFF
12.700729458333333,,0x00,0xFF
12.701889333333334,,0x00,0xFF
12.703049208333333,,0x00,0x48
12.704209041666667,,0x00,0x03
12.705368916666666,,0x00,0x18
12.706528791666667,,0x00,0x0B
12.707688624999999,,0x00,0x80
12.708848500000000,,0x00,0x1B
12.710008374999999,,0x00,0xB3
12.711168250000000,,0x00,0x18
12.712328083333333,,0x00,0x33
12.713487958333333,,0x00,0xB8
12.714647833333334,,0x00,0xB1
12.715807666666667,,0x00,0xFA
12.716967541666667,,0x00,0xFF
12.718127416666666,,0x00,0xFF
12.719287250000001,,0x00,0xFF
12.720447125000000,,0x00,0xFF
12.721607000000001,,0x00,0x0F
12.722766875000000,,0x00,0x07
12.723926708333334,,0x00,0x37
12.725086583333333,,0x00,0x0F
12.726246458333334,,0x00,0x3F
12.727406291666666,,0x00,0x7F
12.728566166666667,,0x00,0x03
12.729726041666666,,0x00,0x7F
12.730885916666667,,0x00,0x01
12.732045749999999,,0x00,0x03
12.733205625000000,,0x00,0x07
12.734365499999999,,0x00,0x03
12.735525333333333,,0x00,0xFF
12.736685208333334,,0x00,0xFF
12.737845083333333,,0x00,0xFF
12.739004916666667,,0x00,0xFF
12.740164791666666,,0x00,0x83
12.741324666666667,,0x00,0x82
12.742484541666666,,0x00,0x38
12.743644375000001,,0x00,0x91
12.744804250000000,,0x00,0x3C
12.745964125000000,,0x00,0x99
12.747123958333333,,0x00,0xA8
12.748283833333334,,0x00,0x11
12.749443708333333,,0x00,0x01
12.750603583333334,,0x00,0x03
12.751763416666666,,0x00,0x8B
12.752923291666667,,0x00,0x07
12.754083166666666,,0x00,0xFF
12.755243000000000,,0x00,0xFF
12.756463916666666,,0x00,0xFF
12.757623791666667,,0x00,0xFF
12.758783666666666,,0x00,0x79
12.759943500000000,,0x00,0x3C
12.761103374999999,,0x00,0x7D
12.762263250000000,,0x00,0x38
12.763423083333333,,0x00,0x78
12.764582958333333,,0x00,0x39
12.765742833333332,,0x00,0x4B
12.766902666666667,,0x00,0x31
12.768062541666668,,0x00,0x81
12.769222416666667,,0x00,0x03
12.770382291666667,,0x00,0xCB
12.771542125000000,,0x00,0x87
12.772702000000001,,0x00,0xFF
12.773861875000000,,0x00,0xFF
12.775021708333334,,0x00,0xFF
12.776181583333333,,0x00,0xFF
12.777341458333334,,0x00,0x8F
12.778501333333333,,0x00,0xCF
12.779661166666667,,0x00,0x8F
12.780821041666666,,0x00,0xDF
12.781980916666667,,0x00,0xCF
12.783140749999999,,0x00,0x9F
12.784300625000000,,0x00,0xCF
12.785460499999999,,0x00,0x9F
12.786620333333333,,0x00,0xCF
12.787780208333333,,0x00,0x9F
12.788940083333333,,0x00,0xFF
12.790099958333334,,0x00,0x9F
12.791259791666667,,0x00,0xFF
12.792419666666667,,0x00,0xFF
12.793579541666666,,0x00,0xFF
12.794739375000001,,0x00,0xFF
12.795899250000000,,0x00,0xFF
12.797059125000001,,0x00,0xFF
12.798219000000000,,0x00,0xFF
12.799378833333334,,0x00,0xFF
12.800538708333333,,0x00,0xFF
12.801698583333334,,0x00,0xFF
12.802858416666666,,0x00,0xFF
12.804018291666667,,0x00,0xFF
12.805178166666666,,0x00,0xFF
12.806338041666667,,0x00,0xFF
12.807497874999999,,0x00,0xFF
12.808657750000000,,0x00,0xFF
12.809817625000001,,0x00,0xFF
12.810977458333333,,0x00,0xFF
12.812137333333334,,0x00,0xFF
12.813297208333333,,0x00,0xFF
12.814457041666667,,0x00,0xFF
12.815616916666666,,0x00,0xFF
12.816776791666667,,0x00,0xFF
12.817936666666666,,0x00,0xFF
12.819096500000001,,0x00,0xFF
12.820256375000000,,0x00,0xFF
12.821416250000000,,0x00,0xFF
12.822576083333333,,0x00,0xFF
12.823735958333334,,0x00,0xFF
12.824895833333333,,0x00,0xFF
12.826055708333334,,0x00,0xFF
12.827215541666666,,0x00,0xFF
12.828375416666667,,0x00,0xFF
12.829535291666666,,0x00,0xFF
12.830695125000000,,0x00,0xFF
12.831854999999999,,0x00,0xFF
12.833014875000000,,0x00,0xFF
12.834174708333334,,0x00,0xFF
12.835334583333333,,0x00,0xFF
12.836494458333334,,0x00,0xFF
12.837654333333333,,0x00,0xFF
12.838814166666667,,0x00,0xFF
12.839974041666666,,0x00,0xFF
12.841133916666667,,0x00,0xFF
12.842293750000000,,0x00,0xFF
12.843453625000000,,0x00,0xFF
12.844613499999999,,0x00,0xFF
12.845773375000000,,0x00,0xFF
12.846933208333333,,0x00,0xFF
12.848093083333334,,0x00,0xFF
12.849252958333333,,0x00,0xFF
12.850412791666667,,0x00,0xFF
12.851572666666666,,0x00,0xFF
12.852732541666667,,0x00,0xFF
12.853892374999999,,0x00,0xFF
12.855052250000000,,0x00,0xFF
12.856212125000001,,0x00,0xFF
12.857372000000000,,0x00,0xFF
12.858531833333334,,0x00,0xFF
12.859691708333333,,0x00,0xFF
12.860851583333334,,0x00,0xFF
12.862011416666666,,0x00,0xFF
12.863171291666667,,0x00,0xFF
12.864331166666666,,0x00,0xFF
12.865491000000000,,0x00,0xFF
12.866650874999999,,0x00,0xFF
12.867810750000000,,0x00,0xFF
12.868970624999999,,0x00,0xFF
12.870130458333334,,0x00,0xFF
12.871290333333333,,0x00,0xFF
12.872450208333333,,0x00,0xFF
12.873671125000000,,0x00,0xFF
12.874830958333334,,0x00,0xFF
12.875990833333333,,0x00,0xFF
12.877150708333334,,0x00,0xFF
12.878310541666666,,0x00,0xFF
12.879470416666667,,0x00,0xFF
12.880630291666666,,0x00,0xFF
12.881790125000000,,0x00,0xFF
12.882949999999999,,0x00,0xFF
12.884109875000000,,0x00,0xFF
12.885269750000001,,0x00,0xFF
12.886429583333333,,0x00,0xFF
12.887589458333334,,0x00,0xFF
12.888749333333333,,0x00,0xFF
12.889909166666667,,0x00,0xFF
12.891069041666666,,0x00,0xFF
12.892228916666667,,0x00,0xFF
12.893388791666666,,0x00,0xFF
12.894548625000001,,0x00,0xFF
12.895708500000000,,0x00,0xFF
12.896868375000000,,0x00,0xFF
12.898028208333333,,0x00,0xFF
12.899188083333334,,0x00,0xFF
12.900347958333333,,0x00,0xFF
12.901507791666667,,0x00,0xFF
12.902667666666666,,0x00,0xFF
12.903827541666667,,0x00,0xFF
12.904987416666666,,0x00,0xFF
12.906147250000000,,0x00,0xFF
12.907246083333334,,0x00,0x47
12.908344916666668,,0x00,0x24
12.909443708333333,,0x81,0x00
12.910542541666667,,0x00,0x00
12.912618083333333,,0x00,0x88
12.913716875000000,,0x00,0x33
12.914876749999999,,0x00,0x04
12.916036625000000,,0x00,0x00
12.917196499999999,,0x00,0x00
12.918356333333334,,0x00,0x00
12.919516208333333,,0x00,0x04
12.920676083333333,,0x00,0x00
12.921835916666666,,0x81,0x00
12.922995791666667,,0x00,0x00
12.944361708333334,,0x00,0x88
12.945460499999999,,0x00,0x33
12.946620375000000,,0x00,0x02
12.947780249999999,,0x00,0x00
12.948940083333333,,0x00,0x04
12.950099958333332,,0x00,0x00
12.951259833333333,,0x00,0x01
12.952419666666668,,0x00,0x13
12.953579541666667,,0x00,0xE4
12.954739416666667,,0x00,0x3F
12.955899250000000,,0x00,0x3D
12.957059125000001,,0x00,0x01
12.958219000000000,,0x81,0x00
12.959378875000001,,0x04,0x00
13.058272416666666,,0x00,0x88
13.059371250000000,,0x00,0x33
13.060531083333334,,0x00,0x0F
13.061690958333333,,0x00,0x00
13.062850833333334,,0x00,0x00
13.064010666666666,,0x00,0x00
13.065170541666667,,0x00,0x0F
13.066330416666666,,0x00,0x00
13.067490291666667,,0x81,0x00
13.068650125000000,,0x06,0x00
13.158753166666667,,0x00,0x88
13.159851958333334,,0x00,0x33
13.161011833333333,,0x00,0x0F
13.162171708333334,,0x00,0x00
13.163331541666667,,0x00,0x00
13.164491416666667,,0x00,0x00
13.165651291666666,,0x00,0x0F
13.166811166666667,,0x00,0x00
13.167971000000000,,0x81,0x00
13.169130875000000,,0x06,0x00
13.259233875000000,,0x00,0x88
13.260332708333333,,0x00,0x33
13.261492583333334,,0x00,0x0F
13.262652416666667,,0x00,0x00
13.263812291666667,,0x00,0x00
