Time [s],Packet ID,MOSI,MISO
1.707794083333333,0,0x00,0x88
1.708892875000000,0,0x00,0x33
1.710052750000000,0,0x00,0x01
1.711212583333333,0,0x00,0x00
1.712372458333333,0,0x00,0x00
1.713532333333333,0,0x00,0x00
1.714692208333333,0,0x00,0x01
1.715852041666667,0,0x00,0x00
1.717011916666667,0,0x81,0x00
1.718171791666667,0,0x00,0x00
1.775188166666667,0,0x00,0x88
1.776286958333333,0,0x00,0x33
1.777446791666667,0,0x00,0x04
1.778606708333333,0,0x00,0x00
1.779766541666667,0,0x00,0x80
1.780926416666667,0,0x00,0x02
1.782086291666667,0,0x00,0xFF
1.783246125000000,0,0x00,0xFF
1.784406000000000,0,0x00,0xFF
1.785565875000000,0,0x00,0xFF
1.786725708333333,0,0x00,0xFF
1.787885583333333,0,0x00,0xFF
1.789045458333333,0,0x00,0xFF
1.790205291666667,0,0x00,0xFF
1.791365166666667,0,0x00,0xFF
1.792525041666667,0,0x00,0xFF
1.793684875000000,0,0x00,0xFF
1.794844750000000,0,0x00,0xFF
1.796004625000000,0,0x00,0xFF
1.797164458333333,0,0x00,0xFF
1.798324333333333,0,0x00,0xFF
1.799484208333333,0,0x00,0xFF
1.800644041666667,0,0x00,0xFF
1.801803916666667,0,0x00,0xFF
1.802963791666667,0,0x00,0xFF
1.804123625000000,0,0x00,0xFF
1.805283500000000,0,0x00,0xFF
1.806443375000000,0,0x00,0xFF
1.807603208333333,0,0x00,0xFF
1.808763083333333,0,0x00,0xFF
1.809922958333333,0,0x00,0xFF
1.811082833333333,0,0x00,0xFF
1.812242666666667,0,0x00,0xFF
1.813402541666667,0,0x00,0xFF
1.814562416666667,0,0x00,0xFF
1.815722250000000,0,0x00,0xFF
1.816882125000000,0,0x00,0xFF
1.818042000000000,0,0x00,0xFF
1.819201833333333,0,0x00,0xFF
1.820361708333333,0,0x00,0xFF
1.821521583333333,0,0x00,0xFF
1.822681416666667,0,0x00,0xFF
1.823841291666667,0,0x00,0xFF
1.825001166666667,0,0x00,0xFF
1.826161000000000,0,0x00,0xFF
1.827320875000000,0,0x00,0xFF
1.828480750000000,0,0x00,0xFF
1.829640583333333,0,0x00,0xFF
1.830800458333333,0,0x00,0xFF
1.831960333333333,0,0x00,0xFF
1.833120166666667,0,0x00,0xFF
1.834280041666667,0,0x00,0xFF
1.835439916666667,0,0x00,0xFF
1.836599791666667,0,0x00,0xFF
1.837759625000000,0,0x00,0xFF
1.838919500000000,0,0x00,0xFF
1.840079375000000,0,0x00,0xFF
1.841239208333333,0,0x00,0xFF
1.842399083333333,0,0x00,0xFF
1.843558958333333,0,0x00,0xFF
1.844718791666667,0,0x00,0xFF
1.845878666666667,0,0x00,0xFF
1.847038541666667,0,0x00,0xFF
1.848198375000000,0,0x00,0xFF
1.849358250000000,0,0x00,0xFF
1.850518125000000,0,0x00,0xFF
1.851677958333333,0,0x00,0xFF
1.852837833333333,0,0x00,0xFF
1.853997708333333,0,0x00,0xFF
1.855157541666667,0,0x00,0xFF
1.856317416666667,0,0x00,0xFF
1.857477291666667,0,0x00,0xFF
1.858637125000000,0,0x00,0xFF
1.859797000000000,0,0x00,0xFF
1.860956875000000,0,0x00,0xFF
1.862116750000000,0,0x00,0xFF
1.863276583333333,0,0x00,0xFF
1.864436458333333,0,0x00,0xFF
1.865596333333333,0,0x00,0xFF
1.866756166666667,0,0x00,0xFF
1.867916041666667,0,0x00,0xFF
1.869075916666667,0,0x00,0xFF
1.870235750000000,0,0x00,0xFF
1.871395625000000,0,0x00,0xFF
1.872555500000000,0,0x00,0xFF
1.873715333333333,0,0x00,0xFF
1.874875208333333,0,0x00,0xFF
1.876035083333333,0,0x00,0xFF
1.877194916666667,0,0x00,0xFF
1.878354791666667,0,0x00,0xFF
1.879514666666667,0,0x00,0xFE
1.880674541666667,0,0x00,0xFF
1.881834375000000,0,0x00,0xFE
1.882994250000000,0,0x00,0xFE
1.884154125000000,0,0x00,0xFE
1.885313958333333,0,0x00,0xFE
1.886473833333333,0,0x00,0xFE
1.887633708333333,0,0x00,0xFE
1.888793583333333,0,0x00,0xFE
1.889953416666667,0,0x00,0xFE
1.891113291666667,0,0x00,0xFE
1.892273166666667,0,0x00,0xFE
1.893433000000000,0,0x00,0xFF
1.894592875000000,0,0x00,0xFF
1.895752708333333,0,0x00,0xFF
1.896912583333333,0,0x00,0xFF
1.898072416666667,0,0x00,0x1C
1.899232333333333,0,0x00,0xFF
1.900392166666667,0,0x00,0x3E
1.901552041666667,0,0x00,0x1C
1.902711875000000,0,0x00,0x0C
1.903871750000000,0,0x00,0x1C
1.905092666666667,0,0x00,0x04
1.906252541666667,0,0x00,0x0C
1.907412375000000,0,0x00,0x0C
1.908572250000000,0,0x00,0x04
1.909732125000000,0,0x00,0x24
1.910891958333333,0,0x00,0x04
1.912051833333333,0,0x00,0xFF
1.913211708333333,0,0x00,0xFF
1.914371541666667,0,0x00,0xFF
1.915531416666667,0,0x00,0xFF
1.916691250000000,0,0x00,0x63
1.917851125000000,0,0x00,0xFF
1.919011000000000,0,0x00,0x07
1.920170833333333,0,0x00,0x63
1.921330708333333,0,0x00,0x43
1.922490583333333,0,0x00,0x23
1.923650416666667,0,0x00,0x63
1.924810291666667,0,0x00,0x3F
1.925970166666667,0,0x00,0x02
1.927130041666667,0,0x00,0x62
1.928289875000000,0,0x00,0x02
1.929449750000000,0,0x00,0x62
1.930609625000000,0,0x00,0xFF
1.931769500000000,0,0x00,0xFF
1.932929333333333,0,0x00,0xFF
1.934089208333333,0,0x00,0xFF
1.935249083333333,0,0x00,0xFF
1.936408916666667,0,0x00,0xFF
1.937568791666667,0,0x00,0xFF
1.938728666666667,0,0x00,0xFF
1.939888500000000,0,0x00,0xFF
1.941048375000000,0,0x00,0xFF
1.942208250000000,0,0x00,0xF7
1.943368083333333,0,0x00,0xFE
1.944527958333333,0,0x00,0x03
1.945687791666667,0,0x00,0x01
1.946847666666667,0,0x00,0x11
1.948007541666667,0,0x00,0x00
1.949167416666667,0,0x00,0xFF
1.950327250000000,0,0x00,0xFF
1.951487125000000,0,0x00,0xFF
1.952647000000000,0,0x00,0xFF
1.953806833333333,0,0x00,0xFF
1.954966708333333,0,0x00,0xFF
1.956126583333333,0,0x00,0x8F
1.957286458333333,0,0x00,0xFF
1.958446291666667,0,0x00,0x47
1.959606166666667,0,0x00,0x8F
1.960766000000000,0,0x00,0x05
1.961925875000000,0,0x00,0x03
1.963085750000000,0,0x00,0x00
1.964245625000000,0,0x00,0x8E
1.965405500000000,0,0x00,0xC8
1.966565333333333,0,0x00,0x8C
1.967725208333333,0,0x00,0xFF
1.968885041666667,0,0x00,0xFF
1.970044916666667,0,0x00,0xFF
1.971204791666667,0,0x00,0xFF
1.972364625000000,0,0x00,0xFF
1.973524500000000,0,0x00,0xFF
1.974684375000000,0,0x00,0xFF
1.975844208333333,0,0x00,0xFF
1.977004083333333,0,0x00,0xFF
1.978163958333333,0,0x00,0xFF
1.979323791666667,0,0x00,0x7F
1.980483666666667,0,0x00,0x9F
1.981643541666667,0,0x00,0x0E
1.982803416666667,0,0x00,0x04
1.983963291666667,0,0x00,0xE0
1.985123125000000,0,0x00,0x46
1.986283000000000,0,0x00,0xFF
1.987442833333333,0,0x00,0xFF
1.988602708333333,0,0x00,0xFF
1.989762583333333,0,0x00,0xFF
1.990922416666667,0,0x00,0xFF
1.992082291666667,0,0x00,0xFF
1.993242166666667,0,0x00,0xFF
1.994402000000000,0,0x00,0xFF
1.995561875000000,0,0x00,0xFF
1.996721750000000,0,0x00,0xFF
1.997881583333333,0,0x00,0xE7
1.999041458333333,0,0x00,0xFF
2.000201291666666,0,0x00,0x41
2.001361166666667,0,0x00,0x03
2.002521041666667,0,0x00,0x21
2.003680875000000,0,0x00,0x01
2.004840750000000,0,0x00,0xFF
2.006000625000000,0,0x00,0xFF
2.007160500000000,0,0x00,0xFF
2.008320333333333,0,0x00,0xFF
2.009480208333333,0,0x00,0xF8
2.010640083333334,0,0x00,0xFF
2.011799958333333,0,0x00,0xF0
2.012959833333333,0,0x00,0xF8
2.014119666666667,0,0x00,0xF0
2.015279541666667,0,0x00,0xF8
2.016439416666667,0,0x00,0xE0
2.017599250000000,0,0x00,0xF8
2.018759125000000,0,0x00,0xC0
2.019919000000000,0,0x00,0x80
2.021078833333333,0,0x00,0x18
2.022360791666667,0,0x00,0x00
2.023520666666667,0,0x00,0xFF
2.024680500000000,0,0x00,0xFF
2.025840375000000,0,0x00,0xFF
2.027000250000000,0,0x00,0xFF
2.028160083333333,0,0x00,0xFF
2.029319958333333,0,0x00,0xFF
2.030479791666667,0,0x00,0x7F
2.031639666666667,0,0x00,0xFF
2.032799541666667,0,0x00,0x7E
2.033959416666667,0,0x00,0xFF
2.035119250000000,0,0x00,0x6D
2.036279125000000,0,0x00,0xF3
2.037438958333333,0,0x00,0x61
2.038598833333333,0,0x00,0xC0
2.039758708333333,0,0x00,0x44
2.040918583333333,0,0x00,0x8C
2.042078458333333,0,0x00,0xFF
2.043238291666666,0,0x00,0xFF
2.044398166666667,0,0x00,0xFF
2.045558000000000,0,0x00,0xFF
2.046717875000000,0,0x00,0xBF
2.047877750000000,0,0x00,0xFF
2.049037625000000,0,0x00,0xBF
2.050197458333333,0,0x00,0x1F
2.051357333333333,0,0x00,0x5F
2.052517166666667,0,0x00,0x0F
2.053677041666667,0,0x00,0x0F
2.054836916666666,0,0x00,0x1F
2.055996791666667,0,0x00,0x9F
2.057156625000000,0,0x00,0xFF
2.058316500000000,0,0x00,0x3F
2.059476333333333,0,0x00,0x7F
2.060636208333333,0,0x00,0xFF
2.061796083333333,0,0x00,0xFF
2.062955958333333,0,0x00,0xFF
2.064115791666667,0,0x00,0xFF
2.065275666666667,0,0x00,0xFF
2.066435541666667,0,0x00,0xFF
2.067595375000000,0,0x00,0xFF
2.068755250000000,0,0x00,0xFF
2.069915125000000,0,0x00,0xFF
2.071074958333333,0,0x00,0xFF
2.072234833333333,0,0x00,0xFF
2.073394708333333,0,0x00,0xFF
2.074554541666667,0,0x00,0xFF
2.075714416666667,0,0x00,0xFF
2.076874291666666,0,0x00,0xFF
2.078034166666667,0,0x00,0xFF
2.079194000000000,0,0x00,0xFF
2.080353875000000,0,0x00,0xFF
2.081513750000000,0,0x00,0xFF
2.082673583333333,0,0x00,0xFF
2.083833458333333,0,0x00,0xFF
2.084993333333333,0,0x00,0xFF
2.086153166666667,0,0x00,0xFF
2.087313041666667,0,0x00,0xFF
2.088472916666666,0,0x00,0xFF
2.089632750000000,0,0x00,0xFF
2.090792625000000,0,0x00,0xFF
2.091952500000000,0,0x00,0xFF
2.093112333333333,0,0x00,0xFF
2.094272208333333,0,0x00,0xFF
2.095432083333333,0,0x00,0xFF
2.096591916666667,0,0x00,0xFF
2.097751791666667,0,0x00,0xFF
2.098911666666667,0,0x00,0xFF
2.100071500000000,0,0x00,0xFF
2.101231375000000,0,0x00,0xFF
2.102391250000000,0,0x00,0xFF
2.103551125000000,0,0x00,0xFF
2.104710958333333,0,0x00,0xFF
2.105870833333333,0,0x00,0xFF
2.107030708333333,0,0x00,0xFF
2.108190541666667,0,0x00,0xFF
2.109350416666667,0,0x00,0xFF
2.110510291666666,0,0x00,0xFF
2.111670125000000,0,0x00,0xFF
2.112830000000000,0,0x00,0xFF
2.113989875000000,0,0x00,0xFF
2.115149708333333,0,0x00,0xFF
2.116309583333333,0,0x00,0xFF
2.117469458333333,0,0x00,0xFF
2.118629291666667,0,0x00,0xFF
2.119789166666667,0,0x00,0xFF
2.120949041666667,0,0x00,0xFF
2.122108875000000,0,0x00,0xFF
2.123268750000000,0,0x00,0xFF
2.124428625000000,0,0x00,0xFF
2.125588458333334,0,0x00,0xFF
2.126748333333333,0,0x00,0xFF
2.127908208333333,0,0x00,0xFF
2.129068083333333,0,0x00,0xFF
2.130227916666667,0,0x00,0xFF
2.131387791666667,0,0x00,0xFF
2.132547666666667,0,0x00,0xFF
2.133707500000000,0,0x00,0xFF
2.134867375000000,0,0x00,0xFF
2.136027250000000,0,0x00,0xFF
2.137187083333334,0,0x00,0xFF
2.138346958333333,0,0x00,0xFF
2.139567875000000,0,0x00,0xFF
2.140727708333333,0,0x00,0xFF
2.141887583333333,0,0x00,0xFF
2.143047458333333,0,0x00,0xFF
2.144207291666667,0,0x00,0xFF
2.145367166666666,0,0x00,0xFF
2.146527041666667,0,0x00,0xFF
2.147686916666667,0,0x00,0xFF
2.148846750000000,0,0x00,0xFF
2.150006625000000,0,0x00,0xFF
2.151166500000000,0,0x00,0xFF
2.152326333333333,0,0x00,0xFF
2.153486208333333,0,0x00,0xFF
2.154646083333333,0,0x00,0xFF
2.155805916666667,0,0x00,0xFF
2.156965791666666,0,0x00,0xFF
2.158125666666667,0,0x00,0xFF
2.159285500000000,0,0x00,0xFF
2.160445375000000,0,0x00,0xFF
2.161605250000000,0,0x00,0xFF
2.162765083333333,0,0x00,0xFF
2.163924958333333,0,0x00,0xFF
2.165084833333333,0,0x00,0xFF
2.166244666666667,0,0x00,0xFF
2.167404541666667,0,0x00,0xFF
2.168564416666667,0,0x00,0xFF
2.169724250000000,0,0x00,0xFF
2.170884125000000,0,0x00,0xFF
2.172044000000000,0,0x00,0xFF
2.173203875000000,0,0x00,0xFF
2.174363708333333,0,0x00,0xFF
2.175523583333333,0,0x00,0xFF
2.176683458333333,0,0x00,0xFF
2.177843291666667,0,0x00,0xFF
2.179003166666666,0,0x00,0xFF
2.180163041666667,0,0x00,0xFF
2.181322875000000,0,0x00,0xFF
2.182482750000000,0,0x00,0xFF
2.183642625000000,0,0x00,0xFF
2.184802458333333,0,0x00,0xFF
2.185962333333333,0,0x00,0xFF
2.187122208333333,0,0x00,0xFF
2.188282041666667,0,0x00,0xFF
2.189441916666667,0,0x00,0xFF
2.190601791666666,0,0x00,0xFF
2.191761625000000,0,0x00,0xFF
2.192921500000000,0,0x00,0xFF
2.194081375000000,0,0x00,0xFF
2.195241208333333,0,0x00,0xFF
2.196401083333333,0,0x00,0xFF
2.197560958333333,0,0x00,0xFF
2.198720833333333,0,0x00,0xFF
2.199880666666667,0,0x00,0xFF
2.201040541666667,0,0x00,0xFF
2.202200416666667,0,0x00,0xFF
2.203360250000000,0,0x00,0xFF
2.204520125000000,0,0x00,0xFF
2.205680000000000,0,0x00,0xFF
2.206839833333333,0,0x00,0xFF
2.207999708333333,0,0x00,0xFF
2.209159583333333,0,0x00,0xFF
2.210319416666667,0,0x00,0xFF
2.211479291666667,0,0x00,0xFF
2.212639166666666,0,0x00,0xFF
2.213799000000000,0,0x00,0xFF
2.214958875000000,0,0x00,0xFF
2.216118750000000,0,0x00,0xFF
2.217278583333333,0,0x00,0xFF
2.218438458333333,0,0x00,0xFF
2.219598333333333,0,0x00,0xFF
2.220758166666667,0,0x00,0xFF
2.221918041666667,0,0x00,0xFF
2.223077916666667,0,0x00,0xFF
2.224237791666666,0,0x00,0xFF
2.225397625000000,0,0x00,0xFF
2.226557500000000,0,0x00,0xFF
2.227717375000000,0,0x00,0xFF
2.228877208333333,0,0x00,0xFF
2.230037083333333,0,0x00,0xFF
2.231196958333333,0,0x00,0xFF
2.232356791666667,0,0x00,0xFF
2.233516666666667,0,0x00,0xFF
2.234676541666667,0,0x00,0xFF
2.235836375000000,0,0x00,0xFF
2.236996250000000,0,0x00,0xFF
2.238156125000000,0,0x00,0xFF
2.239315958333334,0,0x00,0xFF
2.240475833333333,0,0x00,0xFF
2.241635708333333,0,0x00,0xFF
2.242795541666667,0,0x00,0xFF
2.243955416666667,0,0x00,0xFF
2.245115291666667,0,0x00,0xFF
2.246275125000000,0,0x00,0xFE
2.247435000000000,0,0x00,0xFE
2.248594875000000,0,0x00,0xFE
2.249754750000000,0,0x00,0xFE
2.250914625000000,0,0x00,0xFE
2.252074458333333,0,0x00,0xFE
2.253234333333333,0,0x00,0xFE
2.254394208333333,0,0x00,0xFE
2.255554041666667,0,0x00,0xFE
2.256774958333333,0,0x00,0xFE
2.257934833333333,0,0x00,0xFF
2.259094666666666,0,0x00,0xFF
2.260254541666667,0,0x00,0xFF
2.261414375000000,0,0x00,0xFF
2.262574250000000,0,0x00,0xFF
2.263734125000000,0,0x00,0xFF
2.264893958333333,0,0x00,0x24
2.266053833333333,0,0x00,0x10
2.267213708333333,0,0x00,0x30
2.268373583333333,0,0x00,0x10
2.269533416666667,0,0x00,0x30
2.270693291666666,0,0x00,0x18
2.271853166666667,0,0x00,0x3C
2.273013000000000,0,0x00,0x18
2.274172875000000,0,0x00,0x18
2.275332750000000,0,0x00,0x3C
2.276492625000000,0,0x00,0xFF
2.277652458333333,0,0x00,0xFF
2.278812333333333,0,0x00,0xFF
2.279972166666667,0,0x00,0xFF
2.281132041666666,0,0x00,0xFF
2.282291916666667,0,0x00,0xFF
2.283451750000000,0,0x00,0x02
2.284611625000000,0,0x00,0x62
2.285771500000000,0,0x00,0x02
2.286931333333333,0,0x00,0x62
2.288091208333333,0,0x00,0x02
2.289251083333333,0,0x00,0x62
2.290410916666667,0,0x00,0x42
2.291570791666667,0,0x00,0x22
2.292730666666666,0,0x00,0x02
2.293890500000000,0,0x00,0x62
2.295050375000000,0,0x00,0xFF
2.296210250000000,0,0x00,0xFF
2.297370125000000,0,0x00,0xFF
2.298529958333333,0,0x00,0xFF
2.299689833333333,0,0x00,0xFF
2.300849708333333,0,0x00,0xFF
2.302009541666667,0,0x00,0x19
2.303169416666667,0,0x00,0x30
2.304329291666666,0,0x00,0x19
2.305489125000000,0,0x00,0x30
2.306649000000000,0,0x00,0x19
2.307808833333334,0,0x00,0x30
2.308968708333333,0,0x00,0x19
2.310128583333333,0,0x00,0x30
2.311288458333333,0,0x00,0x11
2.312448291666667,0,0x00,0x38
2.313608166666667,0,0x00,0xFF
2.314768041666666,0,0x00,0xFF
2.315927875000000,0,0x00,0xFF
2.317087750000000,0,0x00,0xFF
2.318247625000000,0,0x00,0xFF
2.319407458333334,0,0x00,0xFF
2.320567333333333,0,0x00,0x4C
2.321727208333333,0,0x00,0x88
2.322887083333333,0,0x00,0x4C
2.324046958333333,0,0x00,0x88
2.325206791666667,0,0x00,0x4C
2.326366666666666,0,0x00,0x88
2.327526500000000,0,0x00,0x48
2.328686375000000,0,0x00,0x8C
2.329846250000000,0,0x00,0xCC
2.331006125000000,0,0x00,0x8E
2.332165958333333,0,0x00,0xFF
2.333325833333333,0,0x00,0xFF
2.334485666666667,0,0x00,0xFF
2.335645541666667,0,0x00,0xFF
2.336805416666667,0,0x00,0xFF
2.337965250000000,0,0x00,0xFF
2.339125125000000,0,0x00,0x06
2.340285000000000,0,0x00,0x00
2.341444875000000,0,0x00,0xFA
2.342604708333333,0,0x00,0x04
2.343764583333333,0,0x00,0x7A
2.344924458333333,0,0x00,0xE4
2.346084291666667,0,0x00,0xA2
2.347244166666667,0,0x00,0x44
2.348404041666666,0,0x00,0x06
2.349563875000000,0,0x00,0x0C
2.350723750000000,0,0x00,0xFF
2.351883625000000,0,0x00,0xFF
2.353043458333334,0,0x00,0xFF
2.354203333333333,0,0x00,0xFF
2.355363208333333,0,0x00,0xFF
2.356523041666667,0,0x00,0xFF
2.357682916666667,0,0x00,0x20
2.358842791666667,0,0x00,0x31
2.360002625000000,0,0x00,0x21
2.361162500000000,0,0x00,0x30
2.362322375000000,0,0x00,0x20
2.363482208333333,0,0x00,0x31
2.364642083333333,0,0x00,0x21
2.365801916666667,0,0x00,0x31
2.366961791666667,0,0x00,0x61
2.368121666666667,0,0x00,0x31
2.369281541666667,0,0x00,0xFF
2.370441375000000,0,0x00,0xFF
2.371601250000000,0,0x00,0xFF
2.372761125000000,0,0x00,0xFF
2.373982041666667,0,0x00,0xFF
2.375141875000000,0,0x00,0xFF
2.376301750000000,0,0x00,0x00
2.377461625000000,0,0x00,0x18
2.378621458333333,0,0x00,0x00
2.379781333333333,0,0x00,0x18
2.380941208333333,0,0x00,0x00
2.382101041666667,0,0x00,0x18
2.383260916666667,0,0x00,0x98
2.384420791666667,0,0x00,0x00
2.385580666666667,0,0x00,0xC0
2.386740500000000,0,0x00,0x80
2.387900375000000,0,0x00,0xFF
2.389060208333333,0,0x00,0xFF
2.390220083333333,0,0x00,0xFF
2.391379958333333,0,0x00,0xFF
2.392539833333333,0,0x00,0xFF
2.393699666666667,0,0x00,0xFF
2.394859541666666,0,0x00,0x04
2.396019416666667,0,0x00,0x8C
2.397179291666667,0,0x00,0x84
2.398339125000000,0,0x00,0x0C
2.399499000000000,0,0x00,0x04
2.400658875000000,0,0x00,0x8C
2.401818708333333,0,0x00,0x48
2.402978583333333,0,0x00,0x84
2.404138416666667,0,0x00,0x61
2.405298291666667,0,0x00,0xC0
2.406458166666666,0,0x00,0xFF
2.407618000000000,0,0x00,0xFF
2.408777875000000,0,0x00,0xFF
2.409937750000000,0,0x00,0xFF
2.411097583333333,0,0x00,0xFF
2.412257458333333,0,0x00,0xFF
2.413417291666667,0,0x00,0x7F
2.414577166666667,0,0x00,0x3F
2.415737041666667,0,0x00,0x7F
2.416896916666667,0,0x00,0x3F
2.418056750000000,0,0x00,0x7F
2.419216625000000,0,0x00,0x3F
2.420376500000000,0,0x00,0x3F
2.421536333333334,0,0x00,0x7F
2.422696208333333,0,0x00,0x7F
2.423856083333333,0,0x00,0xFF
2.425015958333333,0,0x00,0xFF
2.426175791666667,0,0x00,0xFF
2.427335666666667,0,0x00,0xFF
2.428495541666666,0,0x00,0xFF
2.429655375000000,0,0x00,0xFF
2.430815250000000,0,0x00,0xFF
2.431975125000000,0,0x00,0xFF
2.433134958333333,0,0x00,0xFF
2.434294833333333,0,0x00,0xFF
2.435454708333333,0,0x00,0xFF
2.436614541666667,0,0x00,0xFF
2.437774416666667,0,0x00,0xFF
2.438934291666667,0,0x00,0xFF
2.440094125000000,0,0x00,0xFF
2.441254000000000,0,0x00,0xFF
2.442413875000000,0,0x00,0xFF
2.443573708333334,0,0x00,0xFF
2.444733583333333,0,0x00,0xFF
2.445893458333333,0,0x00,0xFF
2.447053333333333,0,0x00,0xFF
2.448213166666667,0,0x00,0xFF
2.449373041666667,0,0x00,0xFF
2.450532916666667,0,0x00,0xFF
2.451692750000000,0,0x00,0xFF
2.452852625000000,0,0x00,0xFF
2.454012500000000,0,0x00,0xFF
2.455172333333334,0,0x00,0xFF
2.456332208333333,0,0x00,0xFF
2.457492083333333,0,0x00,0xFF
2.458651916666667,0,0x00,0xFF
2.459811791666667,0,0x00,0xFF
2.460971666666667,0,0x00,0xFF
2.462131500000000,0,0x00,0xFF
2.463291375000000,0,0x00,0xFF
2.464451250000000,0,0x00,0xFF
2.465611083333333,0,0x00,0xFF
2.466770958333333,0,0x00,0xFF
2.467930833333333,0,0x00,0xFF
2.469090666666667,0,0x00,0xFF
2.470250541666667,0,0x00,0xFF
2.471410416666667,0,0x00,0xFF
2.472570291666667,0,0x00,0xFF
2.473730125000000,0,0x00,0xFF
2.474890000000000,0,0x00,0xFF
2.476049875000000,0,0x00,0xFF
2.477209708333334,0,0x00,0xFF
2.478369583333333,0,0x00,0xFF
2.479529458333333,0,0x00,0xFF
2.480689291666667,0,0x00,0xFF
2.481849166666667,0,0x00,0xFF
2.483009041666667,0,0x00,0xFF
2.484168875000000,0,0x00,0xFF
2.485328750000000,0,0x00,0xFF
2.486488625000000,0,0x00,0xFF
2.487648458333333,0,0x00,0xFF
2.488808333333334,0,0x00,0xFF
2.489968208333333,0,0x00,0xFF
2.491189083333333,0,0x00,0xFF
2.492348958333333,0,0x00,0xFF
2.493508833333333,0,0x00,0xFF
2.494668708333333,0,0x00,0xFF
2.495828541666667,0,0x00,0xFF
2.496988416666666,0,0x00,0xFF
2.498148291666667,0,0x00,0xFF
2.499308125000000,0,0x00,0xFF
2.500468000000000,0,0x00,0xFF
2.501627875000000,0,0x00,0xFF
2.502787708333333,0,0x00,0xFF
2.503947583333333,0,0x00,0xFF
2.505107458333333,0,0x00,0xFF
2.506267291666667,0,0x00,0xFF
2.507427166666667,0,0x00,0xFF
2.508587041666666,0,0x00,0xFF
2.509746875000000,0,0x00,0xFF
2.510906750000000,0,0x00,0xFF
2.512066625000000,0,0x00,0xFF
2.513226458333333,0,0x00,0xFF
2.514386333333333,0,0x00,0xFF
2.515546208333333,0,0x00,0xFF
2.516706041666667,0,0x00,0xFF
2.517865916666667,0,0x00,0xFF
2.519025791666667,0,0x00,0xFF
2.520185666666667,0,0x00,0xFF
2.521345500000000,0,0x00,0xFF
2.522505375000000,0,0x00,0xFF
2.523665250000000,0,0x00,0xFF
2.524764041666667,0,0x00,0xC6
2.525862875000000,0,0x00,0x0C
2.526961666666667,0,0x81,0x00
2.528060500000000,0,0x00,0x00
2.575309625000000,0,0x00,0x88
2.576408416666667,0,0x00,0x33
2.577568250000000,0,0x00,0x0F
2.578728125000000,0,0x00,0x00
2.579888000000000,0,0x00,0x00
2.581047875000000,0,0x00,0x00
2.582207708333333,0,0x00,0x0F
2.583367583333333,0,0x00,0x00
2.584527458333334,0,0x81,0x00
2.585687291666667,0,0x00,0x00
2.595210416666667,0,0x00,0x88
2.596309208333333,0,0x00,0x33
2.597469041666667,0,0x00,0x04
2.598628916666667,0,0x00,0x00
2.599788791666667,0,0x00,0x80
2.600948666666667,0,0x00,0x02
2.602108541666666,0,0x00,0xFF
2.603268375000000,0,0x00,0xFF
2.604428250000000,0,0x00,0xFF
2.605588083333333,0,0x00,0xFF
2.606747958333334,0,0x00,0xFF
2.607907833333333,0,0x00,0xFF
2.609067666666667,0,0x00,0xFF
2.610227541666667,0,0x00,0xFF
2.611387416666667,0,0x00,0xFF
2.612547250000000,0,0x00,0xFF
2.613707125000000,0,0x00,0xFF
2.614867000000000,0,0x00,0xFF
2.616026833333333,0,0x00,0xFF
2.617186708333333,0,0x00,0xFF
2.618346583333333,0,0x00,0xFF
2.619506458333333,0,0x00,0xFF
2.620666291666667,0,0x00,0xFF
2.621826166666667,0,0x00,0xFF
2.622986041666667,0,0x00,0xFF
2.624145875000000,0,0x00,0xFF
2.625305750000000,0,0x00,0xFF
2.626465625000000,0,0x00,0xFF
2.627625458333333,0,0x00,0xFF
2.628785333333334,0,0x00,0xFF
2.629945208333333,0,0x00,0xFF
2.631105041666667,0,0x00,0xFF
2.632264916666667,0,0x00,0xFF
2.633424791666667,0,0x00,0xFF
2.634584625000000,0,0x00,0xFF
2.635744500000000,0,0x00,0xFF
2.636904375000000,0,0x00,0xFF
2.638064208333333,0,0x00,0xFF
2.639224083333333,0,0x00,0xFF
2.640383958333334,0,0x00,0xFF
2.641543791666667,0,0x00,0xFF
2.642703666666667,0,0x00,0xFF
2.643863541666667,0,0x00,0xFF
2.645023416666667,0,0x00,0xFF
2.646183250000000,0,0x00,0xFF
2.647343125000000,0,0x00,0xFF
2.648503000000000,0,0x00,0xFF
2.649662833333333,0,0x00,0xFF
2.650822708333334,0,0x00,0xFF
2.651982583333333,0,0x00,0xFF
2.653142416666667,0,0x00,0xFF
2.654302291666667,0,0x00,0xFF
2.655462166666667,0,0x00,0xFF
2.656622000000000,0,0x00,0xFF
2.657781875000000,0,0x00,0xFF
2.658941750000000,0,0x00,0xFF
2.660101583333333,0,0x00,0xFF
2.661261458333333,0,0x00,0xFF
2.662421333333334,0,0x00,0xFF
2.663581166666667,0,0x00,0xFF
2.664741041666667,0,0x00,0xFF
2.665900916666667,0,0x00,0xFF
2.667060750000000,0,0x00,0xFF
2.668220625000000,0,0x00,0xFF
2.669380500000000,0,0x00,0xFF
2.670540375000000,0,0x00,0xFF
2.671700208333333,0,0x00,0xFF
2.672860083333333,0,0x00,0xFF
2.674019958333334,0,0x00,0xFF
2.675179791666667,0,0x00,0xFF
2.676339666666667,0,0x00,0xFF
2.677499541666667,0,0x00,0xFF
2.678659375000000,0,0x00,0xFF
2.679819250000000,0,0x00,0xFF
2.680979125000000,0,0x00,0xFF
2.682138958333333,0,0x00,0xFF
2.683298833333333,0,0x00,0xFF
2.684458708333334,0,0x00,0xFF
2.685618541666666,0,0x00,0xFF
2.686778416666667,0,0x00,0xFF
2.687938291666667,0,0x00,0xFF
2.689098125000000,0,0x00,0xFF
2.690258000000000,0,0x00,0xFF
2.691417875000000,0,0x00,0xFF
2.692577708333333,0,0x00,0xFF
2.693737583333333,0,0x00,0xFF
2.694897458333333,0,0x00,0xFF
2.696057291666667,0,0x00,0xFF
2.697217166666667,0,0x00,0xFF
2.698377041666667,0,0x00,0xFF
2.699536916666667,0,0x00,0xFF
2.700696750000000,0,0x00,0xFF
2.701856625000000,0,0x00,0xFF
2.703016500000000,0,0x00,0xFF
2.704176333333333,0,0x00,0xFF
2.705336208333333,0,0x00,0xFF
2.706496083333333,0,0x00,0xFF
2.707655916666666,0,0x00,0xFF
2.708876833333334,0,0x00,0xFF
2.710036708333333,0,0x00,0xFF
2.711196541666667,0,0x00,0xFF
2.712356416666667,0,0x00,0xFF
2.713516291666667,0,0x00,0xFF
2.714676125000000,0,0x00,0xFF
2.715836000000000,0,0x00,0xFF
2.716995875000000,0,0x00,0xFF
2.718155750000000,0,0x00,0xFF
2.719315583333333,0,0x00,0xFF
2.720475458333333,0,0x00,0xFF
2.721635333333333,0,0x00,0xFF
2.722795166666667,0,0x00,0xFF
2.723955041666667,0,0x00,0xFF
2.725114916666667,0,0x00,0xFF
2.726274750000000,0,0x00,0xFF
2.727434625000000,0,0x00,0xFF
2.728594500000000,0,0x00,0xFF
2.729754333333333,0,0x00,0xFF
2.730914208333334,0,0x00,0xFF
2.732074083333333,0,0x00,0xFF
2.733233916666667,0,0x00,0xFF
2.734393791666667,0,0x00,0xFF
2.735553666666667,0,0x00,0xFF
2.736713500000000,0,0x00,0xFF
2.737873375000000,0,0x00,0xFF
2.739033250000000,0,0x00,0xFF
2.740193083333333,0,0x00,0xFF
2.741352958333333,0,0x00,0xFF
2.742512833333334,0,0x00,0xFF
2.743672708333333,0,0x00,0xFF
2.744832541666667,0,0x00,0xFF
2.745992416666667,0,0x00,0xFF
2.747152291666667,0,0x00,0xFF
2.748312125000000,0,0x00,0xFF
2.749472000000000,0,0x00,0xFF
2.750631875000000,0,0x00,0xF5
2.751791708333333,0,0x00,0xFF
2.752951583333333,0,0x00,0xF2
2.754111458333333,0,0x00,0xFF
2.755271291666667,0,0x00,0xD5
2.756431166666667,0,0x00,0xFF
2.757591041666667,0,0x00,0xCA
2.758750916666667,0,0x00,0xFF
2.759910750000000,0,0x00,0xD5
2.761070625000000,0,0x00,0xFF
2.762230458333333,0,0x00,0xA0
2.763390333333333,0,0x00,0xFF
2.764550208333334,0,0x00,0xD5
2.765710041666666,0,0x00,0xFF
2.766869916666667,0,0x00,0xBF
2.768029791666667,0,0x00,0xFF
2.769189625000000,0,0x00,0x42
2.770349541666667,0,0x00,0xFD
2.771509375000000,0,0x00,0x00
2.772669250000000,0,0x00,0xFF
2.773829083333333,0,0x00,0x68
2.774988958333333,0,0x00,0xD7
2.776148791666667,0,0x00,0x02
2.777308708333333,0,0x00,0xFC
2.778468541666667,0,0x00,0x29
2.779628416666667,0,0x00,0xD4
2.780788250000000,0,0x00,0x02
2.781948125000000,0,0x00,0xF8
2.783108000000000,0,0x00,0x15
2.784267833333333,0,0x00,0xF0
2.785427708333333,0,0x00,0x0A
2.786587583333333,0,0x00,0xF0
2.787747416666666,0,0x00,0x17
2.788907291666667,0,0x00,0xC0
2.790067166666667,0,0x00,0xBF
2.791227000000000,0,0x00,0x00
2.792386875000000,0,0x00,0x55
2.793546750000000,0,0x00,0x00
2.794706625000000,0,0x00,0xFF
2.795866458333333,0,0x00,0x00
2.797026333333333,0,0x00,0x55
2.798186166666667,0,0x00,0x00
2.799346083333333,0,0x00,0xBB
2.800505916666667,0,0x00,0x00
2.801665791666667,0,0x00,0x55
2.802825625000000,0,0x00,0x00
2.803985500000000,0,0x00,0xAA
2.805145375000000,0,0x00,0x00
2.806305208333333,0,0x00,0x76
2.807465083333333,0,0x00,0x01
2.808624958333333,0,0x00,0xFF
2.809784791666667,0,0x00,0x00
2.810944666666667,0,0x00,0x55
2.812104500000000,0,0x00,0x00
2.813264416666667,0,0x00,0xFF
2.814424250000000,0,0x00,0x00
2.815584125000000,0,0x00,0x75
2.816743958333333,0,0x00,0x00
2.817903833333333,0,0x00,0xBF
2.819063708333333,0,0x00,0x00
2.820223583333333,0,0x00,0x55
2.821383416666666,0,0x00,0x00
2.822543291666667,0,0x00,0xFF
2.823703125000000,0,0x00,0x00
2.824863041666667,0,0x00,0xBF
2.826144958333333,0,0x00,0x7F
2.827304791666667,0,0x00,0x3F
2.828464666666667,0,0x00,0xFF
2.829624541666667,0,0x00,0xD5
2.830784375000000,0,0x00,0x7F
2.831944291666667,0,0x00,0xFE
2.833104125000000,0,0x00,0x3F
2.834264000000000,0,0x00,0x75
2.835423833333333,0,0x00,0x1F
2.836583708333333,0,0x00,0xFF
2.837743583333333,0,0x00,0x0F
2.838903416666667,0,0x00,0x57
2.840063291666667,0,0x00,0x0C
2.841223166666667,0,0x00,0xEC
2.842383041666667,0,0x00,0x00
2.843542916666667,0,0x00,0xFF
2.844702750000000,0,0x00,0xFF
2.845862625000000,0,0x00,0xFF
2.847022458333333,0,0x00,0xFF
2.848182333333333,0,0x00,0x57
2.849342208333333,0,0x00,0xFC
2.850502083333333,0,0x00,0xA8
2.851661916666667,0,0x00,0xF0
2.852821791666666,0,0x00,0x71
2.853981625000000,0,0x00,0xC0
2.855141500000000,0,0x00,0x00
2.856301375000000,0,0x00,0x80
2.857461208333334,0,0x00,0x15
2.858621083333333,0,0x00,0x00
2.859780958333333,0,0x00,0x0A
2.860940833333333,0,0x00,0x00
2.862100708333333,0,0x00,0xF5
2.863260541666667,0,0x00,0xFF
2.864420416666666,0,0x00,0xFB
2.865580250000000,0,0x00,0x80
2.866740125000000,0,0x00,0x45
2.867899958333334,0,0x00,0x00
2.869059833333333,0,0x00,0x0A
2.870219708333333,0,0x00,0x00
2.871379583333333,0,0x00,0x55
2.872539416666667,0,0x00,0x00
2.873699291666667,0,0x00,0x3B
2.874859125000000,0,0x00,0x00
2.876019000000000,0,0x00,0x55
2.877178875000000,0,0x00,0x00
2.878338750000000,0,0x00,0xAF
2.879498583333334,0,0x00,0x00
2.880658458333333,0,0x00,0xFD
2.881818333333333,0,0x00,0xFF
2.882978166666667,0,0x00,0x7F
2.884138041666667,0,0x00,0xFF
2.885297916666667,0,0x00,0xBD
2.886457750000000,0,0x00,0x7F
2.887617625000000,0,0x00,0xDE
2.888777500000000,0,0x00,0x3F
2.889937333333333,0,0x00,0x6F
2.891097208333334,0,0x00,0x1F
2.892257083333333,0,0x00,0xFE
2.893416958333333,0,0x00,0x0F
2.894576791666667,0,0x00,0x5D
2.895736666666667,0,0x00,0x0F
2.896896541666667,0,0x00,0xFE
2.898056375000000,0,0x00,0x0F
2.899216250000000,0,0x00,0x57
2.900376125000000,0,0x00,0xFF
2.901535958333334,0,0x00,0x3B
2.902695833333333,0,0x00,0xFF
2.903855666666667,0,0x00,0x55
2.905015541666667,0,0x00,0xFF
2.906175416666667,0,0x00,0xAE
2.907335291666667,0,0x00,0xFF
2.908495125000000,0,0x00,0x75
2.909655000000000,0,0x00,0xFF
2.910814875000000,0,0x00,0xEA
2.911974750000000,0,0x00,0xFF
2.913134583333334,0,0x00,0x55
2.914294458333333,0,0x00,0xFF
2.915454333333333,0,0x00,0xEA
2.916614208333333,0,0x00,0xFF
2.917774041666667,0,0x00,0xD5
2.918933916666667,0,0x00,0xFF
2.920093750000000,0,0x00,0xFF
2.921253625000000,0,0x00,0xFF
2.922413500000000,0,0x00,0xD5
2.923573333333333,0,0x00,0xFF
2.924733208333334,0,0x00,0xEF
2.925893083333333,0,0x00,0xFF
2.927052916666667,0,0x00,0x55
2.928212791666667,0,0x00,0xFF
2.929372666666667,0,0x00,0xBF
2.930532500000000,0,0x00,0xFF
2.931692375000000,0,0x00,0x55
2.932852250000000,0,0x00,0xFF
2.934012083333333,0,0x00,0xFF
2.935171958333334,0,0x00,0xFF
2.936331833333333,0,0x00,0xFF
2.937491708333333,0,0x00,0xFF
2.938651541666667,0,0x00,0xFF
2.939811416666667,0,0x00,0xFF
2.940971291666667,0,0x00,0xFF
2.942131125000000,0,0x00,0xFF
2.943352041666667,0,0x00,0xFF
2.944511916666666,0,0x00,0xFF
2.945671750000000,0,0x00,0xFF
2.946831625000000,0,0x00,0xFF
2.947991500000000,0,0x00,0xFF
2.949151333333333,0,0x00,0xFF
2.950311208333333,0,0x00,0xFF
2.951471083333333,0,0x00,0xFF
2.952630916666667,0,0x00,0xFF
2.953790791666667,0,0x00,0xFF
2.954950666666667,0,0x00,0xFF
2.956110500000000,0,0x00,0xFF
2.957270375000000,0,0x00,0xFF
2.958430250000000,0,0x00,0xFF
2.959590125000000,0,0x00,0xFF
2.960749958333333,0,0x00,0xFF
2.961909833333333,0,0x00,0xFF
2.963069708333333,0,0x00,0xFF
2.964229541666667,0,0x00,0xFF
2.965389416666667,0,0x00,0xFF
2.966549291666666,0,0x00,0xFF
2.967709125000000,0,0x00,0xFF
2.968869000000000,0,0x00,0xFF
2.970028875000000,0,0x00,0xFF
2.971188708333333,0,0x00,0xFF
2.972348583333333,0,0x00,0xFF
2.973508458333333,0,0x00,0xFF
2.974668291666667,0,0x00,0xFF
2.975828166666667,0,0x00,0xFF
2.976988041666667,0,0x00,0xFF
2.978147875000000,0,0x00,0xFF
2.979307750000000,0,0x00,0xFF
2.980467625000000,0,0x00,0xFF
2.981627458333334,0,0x00,0xFF
2.982787333333333,0,0x00,0xFF
2.983947208333333,0,0x00,0xFF
2.985107083333333,0,0x00,0xFF
2.986266916666667,0,0x00,0xFF
2.987426791666667,0,0x00,0xFF
2.988586666666667,0,0x00,0xFF
2.989746500000000,0,0x00,0xFF
2.990906375000000,0,0x00,0xFF
2.992066250000000,0,0x00,0xFF
2.993226083333334,0,0x00,0xFF
2.994385958333333,0,0x00,0xFF
2.995545833333333,0,0x00,0xFF
2.996705666666667,0,0x00,0xFF
2.997865541666667,0,0x00,0xFF
2.999025416666667,0,0x00,0xFF
3.000185250000000,0,0x00,0xFF
3.001345125000000,0,0x00,0xFF
3.002505000000000,0,0x00,0xFF
3.003664833333333,0,0x00,0xFF
3.004824708333333,0,0x00,0xFF
3.005984583333333,0,0x00,0xFF
3.007144416666667,0,0x00,0xFF
3.008304291666667,0,0x00,0xFF
3.009464166666667,0,0x00,0xFF
3.010624041666667,0,0x00,0xFF
3.011783875000000,0,0x00,0xFF
3.012943750000000,0,0x00,0xFF
3.014103625000000,0,0x00,0xFF
3.015263458333334,0,0x00,0xFF
3.016423333333333,0,0x00,0xFF
3.017583208333333,0,0x00,0xFF
3.018743041666667,0,0x00,0xFF
3.019902916666667,0,0x00,0xFF
3.021062791666667,0,0x00,0xFF
3.022222625000000,0,0x00,0xFF
3.023382500000000,0,0x00,0xFF
3.024542375000000,0,0x00,0xFF
3.025702208333333,0,0x00,0xFF
3.026862083333334,0,0x00,0xFF
3.028021958333333,0,0x00,0xFF
3.029181791666667,0,0x00,0xFF
3.030341666666667,0,0x00,0xFF
3.031501541666667,0,0x00,0xFF
3.032661375000000,0,0x00,0xFF
3.033821250000000,0,0x00,0xFF
3.034981125000000,0,0x00,0xFF
3.036141000000000,0,0x00,0xFF
3.037300833333333,0,0x00,0xFF
3.038460708333333,0,0x00,0xFF
3.039620583333333,0,0x00,0xFF
3.040780416666667,0,0x00,0xFF
3.041940291666667,0,0x00,0xFF
3.043100166666667,0,0x00,0xFF
3.044260000000000,0,0x00,0xFF
3.045419875000000,0,0x00,0xFF
3.046579750000000,0,0x00,0xFF
3.047739583333333,0,0x00,0xFF
3.048899458333334,0,0x00,0xFF
3.050059333333333,0,0x00,0xFF
3.051219166666667,0,0x00,0xFF
3.052379041666667,0,0x00,0xFF
3.053538916666667,0,0x00,0xFF
3.054698750000000,0,0x00,0xFD
3.055858625000000,0,0x00,0xFE
3.057018500000000,0,0x00,0xFD
3.058178333333333,0,0x00,0xF8
3.059338208333333,0,0x00,0xF2
3.060559125000000,0,0x00,0xF0
3.061719000000000,0,0x00,0xF5
3.062878833333333,0,0x00,0xE0
3.064038708333333,0,0x00,0xCA
3.065198583333333,0,0x00,0xE0
3.066358458333333,0,0x00,0xFF
3.067518291666667,0,0x00,0xFF
3.068678166666666,0,0x00,0xFF
3.069838000000000,0,0x00,0xFF
3.070997875000000,0,0x00,0xDF
3.072157750000000,0,0x00,0xFF
3.073317583333333,0,0x00,0xAF
3.074477458333333,0,0x00,0x00
3.075637333333333,0,0x00,0x55
3.076797166666667,0,0x00,0x00
3.077957041666667,0,0x00,0x22
3.079116916666667,0,0x00,0x00
3.080276791666666,0,0x00,0x55
3.081436625000000,0,0x00,0x00
3.082596500000000,0,0x00,0xAF
3.083756333333334,0,0x00,0x00
3.084916250000000,0,0x00,0xFF
3.086076083333333,0,0x00,0xFF
3.087235958333333,0,0x00,0xFF
3.088395791666667,0,0x00,0xFF
3.089555666666667,0,0x00,0xFF
3.090715541666667,0,0x00,0xFF
3.091875375000000,0,0x00,0x7F
3.093035250000000,0,0x00,0xFF
3.094195083333333,0,0x00,0x6F
3.095354958333334,0,0x00,0x17
3.096514833333333,0,0x00,0x0B
3.097674666666667,0,0x00,0x00
3.098834541666667,0,0x00,0x55
3.099994416666667,0,0x00,0x00
3.101154291666667,0,0x00,0xE8
3.102314125000000,0,0x00,0x00
3.103474000000000,0,0x00,0xFF
3.104633875000000,0,0x00,0xFF
3.105793708333333,0,0x00,0xFF
3.106953583333333,0,0x00,0xFF
3.108113458333333,0,0x00,0xFF
3.109273333333333,0,0x00,0xFF
3.110433166666667,0,0x00,0xFF
3.111593041666667,0,0x00,0xFF
3.112752916666667,0,0x00,0xFF
3.113912750000000,0,0x00,0xFF
3.115072625000000,0,0x00,0x3F
3.116232500000000,0,0x00,0xFF
3.117392333333334,0,0x00,0x77
3.118552208333333,0,0x00,0x0F
3.119712041666667,0,0x00,0x3F
3.120871916666667,0,0x00,0x00
3.122031791666667,0,0x00,0xD1
3.123191666666667,0,0x00,0xFF
3.124351500000000,0,0x00,0xB0
3.125511375000000,0,0x00,0xFF
3.126671250000000,0,0x00,0xD8
3.127831125000000,0,0x00,0xF7
3.128990958333334,0,0x00,0x80
3.130150833333333,0,0x00,0xFF
3.131310666666667,0,0x00,0x09
3.132470541666667,0,0x00,0xF7
3.133630416666667,0,0x00,0x01
3.134790291666667,0,0x00,0xFF
3.135950125000000,0,0x00,0x82
3.137110000000000,0,0x00,0xFD
3.138269875000000,0,0x00,0xFE
3.139429708333333,0,0x00,0x00
3.140589583333333,0,0x00,0x15
3.141749458333333,0,0x00,0xE0
3.142909291666667,0,0x00,0x13
3.144069166666667,0,0x00,0xE0
3.145229041666667,0,0x00,0x55
3.146388875000000,0,0x00,0xC0
3.147548750000000,0,0x00,0x6E
3.148708625000000,0,0x00,0xC0
3.149868458333333,0,0x00,0x55
3.151028333333334,0,0x00,0x80
3.152188208333333,0,0x00,0xBA
3.153348083333333,0,0x00,0x80
3.154507916666667,0,0x00,0x55
3.155667750000000,0,0x00,0x00
3.156827666666667,0,0x00,0xAA
3.157987500000000,0,0x00,0x00
3.159147375000000,0,0x00,0x55
3.160307208333333,0,0x00,0x00
3.161467125000000,0,0x00,0xA3
3.162626958333334,0,0x00,0x00
3.163786833333333,0,0x00,0x55
3.164946666666667,0,0x00,0x00
3.166106541666667,0,0x00,0xAF
3.167266375000000,0,0x00,0x01
3.168426250000000,0,0x00,0x57
3.169586125000000,0,0x00,0x03
3.170746000000000,0,0x00,0xAF
3.171905833333333,0,0x00,0x07
3.173065708333333,0,0x00,0x5F
3.174225541666666,0,0x00,0x04
3.175385458333333,0,0x00,0xAC
3.176545291666667,0,0x00,0x0C
3.177766208333333,0,0x00,0x55
3.178926041666667,0,0x00,0x00
3.180085958333333,0,0x00,0xFF
3.181245791666667,0,0x00,0x00
3.182405666666666,0,0x00,0xA5
3.183565500000000,0,0x00,0x50
3.184725375000000,0,0x00,0xFA
3.185885250000000,0,0x00,0xFC
3.187045125000000,0,0x00,0xA5
3.188204958333333,0,0x00,0xDE
3.189364833333333,0,0x00,0x01
3.190524666666667,0,0x00,0x02
3.191684541666667,0,0x00,0x55
3.192844375000000,0,0x00,0x00
3.194004250000000,0,0x00,0x0E
3.195164125000000,0,0x00,0x00
3.196324000000000,0,0x00,0x55
3.197483833333334,0,0x00,0x00
3.198643708333333,0,0x00,0xAE
3.199803583333333,0,0x00,0x00
3.200963416666667,0,0x00,0x55
3.202123291666667,0,0x00,0x00
3.203283166666667,0,0x00,0xEF
3.204443000000000,0,0x00,0x00
3.205602875000000,0,0x00,0x57
3.206762750000000,0,0x00,0x00
3.207922625000000,0,0x00,0xBF
3.209082458333333,0,0x00,0x00
3.210242333333333,0,0x00,0x7F
3.211402166666667,0,0x00,0x00
3.212562083333333,0,0x00,0xFF
3.213721916666667,0,0x00,0x00
3.214881791666667,0,0x00,0x55
3.216041625000000,0,0x00,0x00
3.217201500000000,0,0x00,0xA3
3.218361333333333,0,0x00,0x00
3.219521208333334,0,0x00,0x55
3.220681083333333,0,0x00,0x00
3.221840958333333,0,0x00,0xFE
3.223000791666667,0,0x00,0x00
3.224160666666667,0,0x00,0x77
3.225320500000000,0,0x00,0x00
3.226480416666667,0,0x00,0xFF
3.227640250000000,0,0x00,0x00
3.228800125000000,0,0x00,0xFB
3.229959958333333,0,0x00,0x04
3.231119833333334,0,0x00,0xFF
3.232279708333333,0,0x00,0x00
3.233439583333333,0,0x00,0x55
3.234599416666667,0,0x00,0x00
3.235759291666667,0,0x00,0xBB
3.236919125000000,0,0x00,0x00
3.238079000000000,0,0x00,0x55
3.239238875000000,0,0x00,0x00
3.240398750000000,0,0x00,0xAF
3.241558583333333,0,0x00,0x00
3.242718458333333,0,0x00,0x55
3.243878291666667,0,0x00,0x00
3.245038208333333,0,0x00,0x82
3.246198041666667,0,0x00,0x00
3.247357916666667,0,0x00,0x85
3.248517750000000,0,0x00,0x40
3.249677625000000,0,0x00,0xDF
3.250837458333333,0,0x00,0x20
3.251997333333333,0,0x00,0x75
3.253157208333334,0,0x00,0x0F
3.254317083333333,0,0x00,0xF6
3.255476916666667,0,0x00,0x0F
3.256636791666667,0,0x00,0x5D
3.257796666666667,0,0x00,0x07
3.258956541666667,0,0x00,0xFA
3.260116375000000,0,0x00,0x07
3.261276250000000,0,0x00,0x53
3.262436083333333,0,0x00,0x07
3.263595958333333,0,0x00,0x2F
3.264755833333334,0,0x00,0x03
3.265915666666667,0,0x00,0x5E
3.267075541666667,0,0x00,0x01
3.268235416666667,0,0x00,0xFF
3.269395250000000,0,0x00,0x00
3.270555125000000,0,0x00,0x55
3.271715000000000,0,0x00,0xFF
3.272874875000000,0,0x00,0xBA
3.274034750000000,0,0x00,0xFF
3.275194583333333,0,0x00,0x55
3.276354458333333,0,0x00,0xFF
3.277514291666667,0,0x00,0xFE
3.278674166666667,0,0x00,0xFF
3.279834000000000,0,0x00,0x55
3.280993875000000,0,0x00,0xFF
3.282153750000000,0,0x00,0xAB
3.283313625000000,0,0x00,0xFF
3.284473458333333,0,0x00,0x57
3.285633333333333,0,0x00,0xFF
3.286793208333334,0,0x00,0xEE
3.287953083333333,0,0x00,0x3F
3.289112916666667,0,0x00,0x55
3.290272791666667,0,0x00,0xFF
3.291432666666667,0,0x00,0xBB
3.292592500000000,0,0x00,0xFF
3.293752375000000,0,0x00,0x55
3.294973291666667,0,0x00,0xFF
3.296133125000000,0,0x00,0xAE
3.297293000000000,0,0x00,0xFF
3.298452833333333,0,0x00,0x77
3.299612708333334,0,0x00,0xFF
3.300772583333333,0,0x00,0xAF
3.301932458333333,0,0x00,0xFF
3.303092291666667,0,0x00,0x55
3.304252166666667,0,0x00,0xFF
3.305412041666667,0,0x00,0xAE
3.306571916666666,0,0x00,0xFF
3.307731750000000,0,0x00,0xFF
3.308891625000000,0,0x00,0xFF
3.310051500000000,0,0x00,0xFF
3.311211333333334,0,0x00,0xFF
3.312371208333333,0,0x00,0xFF
3.313531083333333,0,0x00,0xFF
3.314690916666667,0,0x00,0xFF
3.315850791666667,0,0x00,0xFF
3.317010666666667,0,0x00,0xFF
3.318170500000000,0,0x00,0xFF
3.319330375000000,0,0x00,0xFF
3.320490250000000,0,0x00,0xFF
3.321650083333333,0,0x00,0xFF
3.322809958333333,0,0x00,0xFF
3.323969833333333,0,0x00,0xFF
3.325129666666667,0,0x00,0xFF
3.326289541666667,0,0x00,0xFF
3.327449416666667,0,0x00,0xFF
3.328609250000000,0,0x00,0xFF
3.329769125000000,0,0x00,0xFF
3.330929000000000,0,0x00,0xFF
3.332088875000000,0,0x00,0xFF
3.333248708333334,0,0x00,0xFF
3.334408583333333,0,0x00,0xFF
3.335568458333333,0,0x00,0xFF
3.336728291666667,0,0x00,0xFF
3.337888166666667,0,0x00,0xFF
3.339048041666667,0,0x00,0xFF
3.340207875000000,0,0x00,0xFF
3.341367750000000,0,0x00,0xFF
3.342527625000000,0,0x00,0xFF
3.343687458333333,0,0x00,0xFF
3.344786291666667,0,0x00,0x6F
3.345885125000000,0,0x00,0xCF
3.346983875000000,0,0x81,0x00
3.348082750000000,0,0x00,0x00
3.399482958333333,0,0x00,0x88
3.400581750000000,0,0x00,0x33
3.401741583333334,0,0x00,0x04
3.402901458333333,0,0x00,0x00
3.404061333333333,0,0x00,0x80
3.405221208333333,0,0x00,0x02
3.406381083333333,0,0x00,0xFF
3.407540916666667,0,0x00,0xFF
3.408700791666667,0,0x00,0xFF
3.409860625000000,0,0x00,0xFF
3.411020500000000,0,0x00,0xFF
3.412241416666667,0,0x00,0xFF
3.413401250000000,0,0x00,0xFF
3.414561125000000,0,0x00,0xFF
3.415721000000000,0,0x00,0xFF
3.416880833333333,0,0x00,0xFF
3.418040708333333,0,0x00,0xFF
3.419200583333333,0,0x00,0xFF
3.420360416666667,0,0x00,0xFF
3.421520291666666,0,0x00,0xFF
3.422680166666667,0,0x00,0xFF
3.423840041666667,0,0x00,0xFF
3.424999875000000,0,0x00,0xFF
3.426159750000000,0,0x00,0xFF
3.427319625000000,0,0x00,0xFF
3.428479458333333,0,0x00,0xFF
3.429639333333333,0,0x00,0xFF
3.430799208333333,0,0x00,0xFF
3.431959041666667,0,0x00,0xFF
3.433118916666666,0,0x00,0xFF
3.434278791666667,0,0x00,0xFF
3.435438625000000,0,0x00,0xFF
3.436598500000000,0,0x00,0xFF
3.437758375000000,0,0x00,0xFF
3.438918208333333,0,0x00,0xFF
3.440078083333333,0,0x00,0xFF
3.441237958333333,0,0x00,0xFF
3.442397791666667,0,0x00,0xFF
3.443557666666667,0,0x00,0xFF
3.444717541666667,0,0x00,0xFF
3.445877375000000,0,0x00,0xFF
3.447037250000000,0,0x00,0xFF
3.448197125000000,0,0x00,0xFF
3.449357000000000,0,0x00,0xFF
3.450516833333333,0,0x00,0xFF
3.451676708333333,0,0x00,0xFF
3.452836583333333,0,0x00,0xFF
3.453996416666667,0,0x00,0xFF
3.455156291666666,0,0x00,0xFF
3.456316166666667,0,0x00,0xFF
3.457476000000000,0,0x00,0xFF
3.458635875000000,0,0x00,0xFF
3.459795750000000,0,0x00,0xFF
3.460955583333333,0,0x00,0xFF
3.462115458333333,0,0x00,0xFF
3.463275333333333,0,0x00,0xFF
3.464435166666667,0,0x00,0xFF
3.465595041666667,0,0x00,0xFF
3.466754916666666,0,0x00,0xFF
3.467914750000000,0,0x00,0xFF
3.469074625000000,0,0x00,0xFF
3.470234500000000,0,0x00,0xFF
3.471394333333333,0,0x00,0xFF
3.472554208333333,0,0x00,0xFF
3.473714083333333,0,0x00,0xFF
3.474873958333333,0,0x00,0xFF
3.476033791666667,0,0x00,0xFF
3.477193666666667,0,0x00,0xFF
3.478353541666667,0,0x00,0xFF
3.479513375000000,0,0x00,0xFF
3.480673250000000,0,0x00,0xD5
3.481833125000000,0,0x00,0xC0
3.482993000000000,0,0x00,0xFB
3.484152833333333,0,0x00,0xC0
3.485312708333333,0,0x00,0xD5
3.486472541666667,0,0x00,0xC0
3.487632416666667,0,0x00,0xBF
3.488792291666666,0,0x00,0xC0
3.489952166666667,0,0x00,0x97
3.491112000000000,0,0x00,0xC0
3.492271875000000,0,0x00,0xBF
3.493431708333333,0,0x00,0xC0
3.494591583333333,0,0x00,0xBD
3.495751458333333,0,0x00,0xC0
3.496911333333333,0,0x00,0xBF
3.498071166666667,0,0x00,0xC0
3.499231041666667,0,0x00,0x55
3.500390875000000,0,0x00,0x00
3.501550791666667,0,0x00,0xFF
3.502710625000000,0,0x00,0x00
3.503870500000000,0,0x00,0x55
3.505030333333333,0,0x00,0x00
3.506190208333333,0,0x00,0xFF
3.507350041666667,0,0x00,0x00
3.508509916666667,0,0x00,0x75
3.509669791666667,0,0x00,0x00
3.510829666666667,0,0x00,0xFF
3.511989500000000,0,0x00,0x00
3.513149375000000,0,0x00,0xD5
3.514309208333333,0,0x00,0x00
3.515469125000000,0,0x00,0xFF
3.516628958333333,0,0x00,0x00
3.517788833333333,0,0x00,0x55
3.518948666666667,0,0x00,0x00
3.520108541666667,0,0x00,0xBB
3.521268375000000,0,0x00,0x00
3.522428250000000,0,0x00,0x55
3.523588125000000,0,0x00,0x00
3.524748000000000,0,0x00,0xFF
3.525907833333333,0,0x00,0x00
3.527067708333333,0,0x00,0x55
3.528227583333333,0,0x00,0x00
3.529448500000000,0,0x00,0xBA
3.530608333333333,0,0x00,0x00
3.531768208333333,0,0x00,0x55
3.532928041666667,0,0x00,0x00
3.534087958333333,0,0x00,0xA8
3.535247791666666,0,0x00,0x00
3.536407666666667,0,0x00,0x55
3.537567500000000,0,0x00,0x00
3.538727375000000,0,0x00,0xA2
3.539887250000000,0,0x00,0x00
3.541047083333333,0,0x00,0x54
3.542206958333333,0,0x00,0x00
3.543366833333333,0,0x00,0xE0
3.544526666666667,0,0x00,0x00
3.545686541666667,0,0x00,0x50
3.546846416666666,0,0x00,0x00
3.548006291666667,0,0x00,0x00
3.549166125000000,0,0x00,0x00
3.550326000000000,0,0x00,0x00
3.551485875000000,0,0x00,0x00
3.552645708333333,0,0x00,0x00
3.553805583333333,0,0x00,0x00
3.554965458333333,0,0x00,0x55
3.556125291666667,0,0x00,0x00
3.557285166666666,0,0x00,0x00
3.558445041666667,0,0x00,0x00
3.559604875000000,0,0x00,0x40
3.560764750000000,0,0x00,0x00
3.561924625000000,0,0x00,0x00
3.563084458333333,0,0x00,0x00
3.564244333333333,0,0x00,0x00
3.565404208333333,0,0x00,0x00
3.566564041666667,0,0x00,0x00
3.567723916666667,0,0x00,0x00
3.568883791666666,0,0x00,0x00
3.570043666666667,0,0x00,0x00
3.571203500000000,0,0x00,0x00
3.572363375000000,0,0x00,0x00
3.573523250000000,0,0x00,0x55
3.574683083333333,0,0x00,0x00
3.575842958333333,0,0x00,0x22
3.577002833333333,0,0x00,0x00
3.578162666666667,0,0x00,0x54
3.579322541666667,0,0x00,0x00
3.580482416666666,0,0x00,0x88
3.581642250000000,0,0x00,0x00
3.582802125000000,0,0x00,0x55
3.583961958333334,0,0x00,0x00
3.585121875000000,0,0x00,0xA2
3.586281708333333,0,0x00,0x00
3.587441583333333,0,0x00,0x55
3.588601416666667,0,0x00,0x00
3.589761291666667,0,0x00,0x8A
3.590921166666666,0,0x00,0x00
3.592081000000000,0,0x00,0x51
3.593240875000000,0,0x00,0x0C
3.594400750000000,0,0x00,0x3C
3.595560625000000,0,0x00,0x08
3.596720458333333,0,0x00,0x59
3.597880333333333,0,0x00,0x04
3.599040208333333,0,0x00,0xA8
3.600200041666667,0,0x00,0x04
3.601359916666667,0,0x00,0x56
3.602519791666666,0,0x00,0x00
3.603679625000000,0,0x00,0x03
3.604839500000000,0,0x00,0x00
3.605999375000000,0,0x00,0x55
3.607159208333333,0,0x00,0x00
3.608319083333333,0,0x00,0x0A
3.609478958333333,0,0x00,0x00
3.610638791666667,0,0x00,0x55
3.611798666666667,0,0x00,0x00
3.612958541666667,0,0x00,0x2B
3.614118375000000,0,0x00,0x00
3.615278250000000,0,0x00,0x5D
3.616438083333333,0,0x00,0x00
3.617598000000000,0,0x00,0x8B
3.618757833333333,0,0x00,0x00
3.619917708333333,0,0x00,0x55
3.621077541666667,0,0x00,0x00
3.622237416666667,0,0x00,0x0B
3.623397291666667,0,0x00,0x00
3.624557166666666,0,0x00,0x5D
3.625717000000000,0,0x00,0x00
3.626876875000000,0,0x00,0x26
3.628036750000000,0,0x00,0x08
3.629196625000000,0,0x00,0xF7
3.630356458333333,0,0x00,0x00
3.631516333333333,0,0x00,0xFF
3.632676166666667,0,0x00,0x00
3.633836041666667,0,0x00,0xD7
3.634995875000000,0,0x00,0x00
3.636155791666666,0,0x00,0xFF
3.637315625000000,0,0x00,0x00
3.638475500000000,0,0x00,0x56
3.639635333333333,0,0x00,0x01
3.640795208333333,0,0x00,0xBF
3.641955041666667,0,0x00,0x00
3.643114916666667,0,0x00,0x5E
3.644274791666667,0,0x00,0x01
3.645434666666667,0,0x00,0xFF
3.646655541666667,0,0x00,0x00
3.647815416666667,0,0x00,0x7F
3.648975291666666,0,0x00,0x00
3.650135166666667,0,0x00,0xFF
3.651295000000000,0,0x00,0x00
3.652454875000000,0,0x00,0xFF
3.653614708333333,0,0x00,0x00
3.654774625000000,0,0x00,0xFF
3.655934458333333,0,0x00,0x00
3.657094333333333,0,0x00,0xF7
3.658254166666667,0,0x00,0x00
3.659414041666667,0,0x00,0xFF
3.660573875000000,0,0x00,0x00
3.661733791666667,0,0x00,0xF5
3.662893625000000,0,0x00,0x00
3.664053500000000,0,0x00,0xFF
3.665213333333333,0,0x00,0x00
3.666373208333333,0,0x00,0xF7
3.667533083333333,0,0x00,0x10
3.668692958333333,0,0x00,0xF7
3.669852791666667,0,0x00,0x08
3.671012666666666,0,0x00,0xE3
3.672172500000000,0,0x00,0x1C
3.673332416666667,0,0x00,0xFF
3.674492250000000,0,0x00,0x08
3.675652125000000,0,0x00,0x72
3.676811958333333,0,0x00,0x0D
3.677971833333333,0,0x00,0xF6
3.679131708333333,0,0x00,0x0F
3.680291541666667,0,0x00,0xF7
3.681451416666667,0,0x00,0x0F
3.682611291666666,0,0x00,0xFB
3.683771125000000,0,0x00,0x0C
3.684931000000000,0,0x00,0xEF
3.686090833333334,0,0x00,0x10
3.687250750000000,0,0x00,0xFF
3.688410583333333,0,0x00,0x00
3.689570458333333,0,0x00,0xFF
3.690730291666667,0,0x00,0x00
3.691890166666667,0,0x00,0xFF
3.693050041666667,0,0x00,0x00
3.694209916666667,0,0x00,0xF7
3.695369750000000,0,0x00,0x00
3.696529625000000,0,0x00,0xFF
3.697689458333334,0,0x00,0x00
3.698849333333333,0,0x00,0x15
3.700009208333333,0,0x00,0xC0
3.701169083333333,0,0x00,0xFF
3.702328916666667,0,0x00,0xC0
3.703488791666667,0,0x00,0xF7
3.704648625000000,0,0x00,0x1F
3.705808500000000,0,0x00,0xFF
3.706968375000000,0,0x00,0x0F
3.708128250000000,0,0x00,0xF5
3.709288083333333,0,0x00,0x0F
3.710447958333333,0,0x00,0xF6
3.711607833333333,0,0x00,0x0F
3.712767666666667,0,0x00,0x6B
3.713927541666667,0,0x00,0x17
3.715087416666667,0,0x00,0xFF
3.716247250000000,0,0x00,0x03
3.717407125000000,0,0x00,0xEB
3.718567000000000,0,0x00,0x17
3.719726833333334,0,0x00,0xF3
3.720886708333333,0,0x00,0x0F
3.722046583333333,0,0x00,0xD5
3.723206458333333,0,0x00,0xFF
3.724366291666667,0,0x00,0xFB
3.725526166666667,0,0x00,0xFF
3.726686041666667,0,0x00,0xDD
3.727845875000000,0,0x00,0xFF
3.729005750000000,0,0x00,0xEF
3.730165625000000,0,0x00,0xFF
3.731325458333334,0,0x00,0x55
3.732485333333333,0,0x00,0xFF
3.733645208333333,0,0x00,0xFA
3.734805083333333,0,0x00,0xFF
3.735964916666667,0,0x00,0xF7
3.737124791666667,0,0x00,0xFF
3.738284625000000,0,0x00,0xFF
3.739444500000000,0,0x00,0xFF
3.740604375000000,0,0x00,0xFF
3.741764208333333,0,0x00,0xFF
3.742924083333333,0,0x00,0xFF
3.744083958333333,0,0x00,0xFF
3.745243791666667,0,0x00,0xFF
3.746403666666667,0,0x00,0xFF
3.747563541666667,0,0x00,0xFF
3.748723416666667,0,0x00,0xFF
3.749883250000000,0,0x00,0xFF
3.751043125000000,0,0x00,0xFF
3.752203000000000,0,0x00,0xFF
3.753362833333334,0,0x00,0xFF
3.754522708333333,0,0x00,0xFF
3.755682583333333,0,0x00,0xFF
3.756842416666667,0,0x00,0xFF
3.758002291666667,0,0x00,0xFF
3.759162166666667,0,0x00,0xFF
3.760322000000000,0,0x00,0xFF
3.761481875000000,0,0x00,0xFF
3.762641750000000,0,0x00,0xFF
3.763862625000000,0,0x00,0xFF
3.765022500000000,0,0x00,0xFF
3.766182375000000,0,0x00,0xFF
3.767342250000000,0,0x00,0xFF
3.768502083333333,0,0x00,0xFF
3.769661958333333,0,0x00,0xFF
3.770821833333333,0,0x00,0xFF
3.771981666666667,0,0x00,0xFF
3.773141541666666,0,0x00,0xFF
3.774301416666667,0,0x00,0xFF
3.775461250000000,0,0x00,0xFF
3.776621125000000,0,0x00,0xFF
3.777781000000000,0,0x00,0xFF
3.778940833333333,0,0x00,0xFF
3.780100708333333,0,0x00,0xFF
3.781260583333333,0,0x00,0xFF
3.782420416666667,0,0x00,0xFF
3.783580291666667,0,0x00,0xFF
3.784740166666666,0,0x00,0xFF
3.785900000000000,0,0x00,0xFF
3.787059875000000,0,0x00,0xFF
3.788219750000000,0,0x00,0xFF
3.789379583333333,0,0x00,0xFF
3.790539458333333,0,0x00,0xFF
3.791699333333333,0,0x00,0xFF
3.792859208333333,0,0x00,0xFF
3.794019041666667,0,0x00,0xFF
3.795178916666667,0,0x00,0xFF
3.796338791666667,0,0x00,0xFF
3.797498625000000,0,0x00,0xFF
3.798658500000000,0,0x00,0xFF
3.799818375000000,0,0x00,0xFF
3.800978208333333,0,0x00,0xFF
3.802138083333333,0,0x00,0xFF
3.803297958333333,0,0x00,0xFF
3.804457791666667,0,0x00,0xFF
3.805617666666667,0,0x00,0xFF
3.806777541666666,0,0x00,0xFF
3.807937375000000,0,0x00,0xFF
3.809097250000000,0,0x00,0xFF
3.810257125000000,0,0x00,0xFF
3.811416958333333,0,0x00,0xFF
3.812576833333333,0,0x00,0xFF
3.813736708333333,0,0x00,0xFF
3.814896541666667,0,0x00,0xFF
3.816056416666667,0,0x00,0xFF
3.817216291666667,0,0x00,0xFF
3.818376125000000,0,0x00,0xFF
3.819536000000000,0,0x00,0xFF
3.820695875000000,0,0x00,0xFF
3.821855750000000,0,0x00,0xFF
3.823015583333333,0,0x00,0xFF
3.824175458333333,0,0x00,0xFF
3.825335333333333,0,0x00,0xFF
3.826495166666667,0,0x00,0xFF
3.827655041666667,0,0x00,0xFF
3.828814916666667,0,0x00,0xFF
3.829974750000000,0,0x00,0xFF
3.831134625000000,0,0x00,0xFF
3.832294500000000,0,0x00,0xFF
3.833454333333334,0,0x00,0xFF
3.834614208333333,0,0x00,0xFF
3.835774083333333,0,0x00,0xFF
3.836933916666667,0,0x00,0xFF
3.838093791666667,0,0x00,0xFF
3.839253666666667,0,0x00,0xFF
3.840413500000000,0,0x00,0xFF
3.841573375000000,0,0x00,0xFF
3.842733250000000,0,0x00,0xFF
3.843893083333333,0,0x00,0xFF
3.845052958333333,0,0x00,0xFF
3.846212833333333,0,0x00,0xFF
3.847372708333333,0,0x00,0xFF
3.848532541666667,0,0x00,0xFF
3.849692416666667,0,0x00,0xFF
3.850852291666667,0,0x00,0xFF
3.852012125000000,0,0x00,0xB7
3.853172000000000,0,0x00,0xC0
3.854331875000000,0,0x00,0xBF
3.855491708333334,0,0x00,0xC0
3.856651583333333,0,0x00,0xEF
3.857811458333333,0,0x00,0xD0
3.858971333333333,0,0x00,0xDF
3.860131166666667,0,0x00,0xE0
3.861291041666667,0,0x00,0xEF
3.862450875000000,0,0x00,0xD0
3.863610750000000,0,0x00,0xDF
3.864770625000000,0,0x00,0xE0
3.865930500000000,0,0x00,0xCB
3.867090333333334,0,0x00,0xF4
3.868250208333333,0,0x00,0xC7
3.869410041666667,0,0x00,0xF8
3.870569916666667,0,0x00,0x55
3.871729791666667,0,0x00,0x00
3.872889666666667,0,0x00,0xFF
3.874049500000000,0,0x00,0x00
3.875209375000000,0,0x00,0xD5
3.876369208333333,0,0x00,0x00
3.877529125000000,0,0x00,0xFE
3.878688958333333,0,0x00,0x00
3.879848833333333,0,0x00,0x54
3.881069708333333,0,0x00,0x00
3.882229583333333,0,0x00,0xF0
3.883389458333333,0,0x00,0x00
3.884549291666667,0,0x00,0x50
3.885709166666667,0,0x00,0x00
3.886869041666666,0,0x00,0xE0
3.888028875000000,0,0x00,0x00
3.889188750000000,0,0x00,0x50
3.890348625000000,0,0x00,0x00
3.891508500000000,0,0x00,0x80
3.892668333333333,0,0x00,0x00
3.893828208333333,0,0x00,0x00
3.894988083333333,0,0x00,0x00
3.896147916666667,0,0x00,0x00
3.897307791666667,0,0x00,0x00
3.898467666666667,0,0x00,0x00
3.899627500000000,0,0x00,0x00
3.900787375000000,0,0x00,0x00
3.901947250000000,0,0x00,0x00
3.903107083333333,0,0x00,0x00
3.904266958333333,0,0x00,0x00
3.905426833333333,0,0x00,0x00
3.906586666666667,0,0x00,0x00
3.907746541666667,0,0x00,0x00
3.908906416666666,0,0x00,0x00
3.910066250000000,0,0x00,0x00
3.911226125000000,0,0x00,0x00
3.912386000000000,0,0x00,0x00
3.913545833333334,0,0x00,0x00
3.914705708333333,0,0x00,0x00
3.915865583333333,0,0x00,0x00
3.917025458333333,0,0x00,0x00
3.918185291666667,0,0x00,0x00
3.919345166666667,0,0x00,0x00
3.920505041666666,0,0x00,0x00
3.921664875000000,0,0x00,0x00
3.922824750000000,0,0x00,0x00
3.923984625000000,0,0x00,0x00
3.925144458333333,0,0x00,0x00
3.926304333333333,0,0x00,0x00
3.927464208333333,0,0x00,0x00
3.928624041666667,0,0x00,0x00
3.929783916666667,0,0x00,0x00
3.930943791666667,0,0x00,0x00
3.932103625000000,0,0x00,0x00
3.933263500000000,0,0x00,0x00
3.934423375000000,0,0x00,0x00
3.935583208333334,0,0x00,0x00
3.936743083333333,0,0x00,0x00
3.937902958333333,0,0x00,0x00
3.939062791666667,0,0x00,0x00
3.940222666666667,0,0x00,0x00
3.941382541666667,0,0x00,0x00
3.942542375000000,0,0x00,0x00
3.943702250000000,0,0x00,0x00
3.944862125000000,0,0x00,0x55
3.946021958333333,0,0x00,0x00
3.947181833333334,0,0x00,0x22
3.948341708333333,0,0x00,0x00
3.949501583333333,0,0x00,0x55
3.950661416666667,0,0x00,0x00
3.951821291666667,0,0x00,0x68
3.952981166666667,0,0x00,0x00
3.954141000000000,0,0x00,0x75
3.955300875000000,0,0x00,0x00
3.956460750000000,0,0x00,0x00
3.957620583333334,0,0x00,0x20
3.958780458333333,0,0x00,0x15
3.959940291666667,0,0x00,0x10
3.961100166666667,0,0x00,0x1A
3.962260041666667,0,0x00,0x0C
3.963419916666667,0,0x00,0x15
3.964579750000000,0,0x00,0x00
3.965739625000000,0,0x00,0x02
3.966899500000000,0,0x00,0x00
3.968059333333333,0,0x00,0x55
3.969219208333334,0,0x00,0x00
3.970379083333333,0,0x00,0x00
3.971538958333333,0,0x00,0x00
3.972698791666667,0,0x00,0x11
3.973858666666667,0,0x00,0x00
3.975018541666667,0,0x00,0x00
3.976178375000000,0,0x00,0x00
3.977338250000000,0,0x00,0x05
3.978498083333333,0,0x00,0x00
3.979658000000000,0,0x00,0x82
3.980817833333333,0,0x00,0x00
3.981977708333333,0,0x00,0x5D
3.983137541666667,0,0x00,0x00
3.984297416666667,0,0x00,0x2B
3.985457250000000,0,0x00,0x04
3.986617125000000,0,0x00,0x53
3.987777000000000,0,0x00,0x04
3.988936875000000,0,0x00,0x83
3.990096708333333,0,0x00,0x02
3.991256583333334,0,0x00,0x51
3.992416416666666,0,0x00,0x01
3.993576291666667,0,0x00,0x21
3.994736166666667,0,0x00,0x00
3.995896041666667,0,0x00,0x51
3.997055875000000,0,0x00,0x07
3.998337833333333,0,0x00,0xCE
3.999497708333333,0,0x00,0x3F
4.000657541666667,0,0x00,0x6A
4.001817416666666,0,0x00,0x15
4.002977291666666,0,0x00,0xFF
4.004137125000000,0,0x00,0x00
4.005297000000000,0,0x00,0x7D
4.006456875000000,0,0x00,0x00
4.007616750000000,0,0x00,0xFF
4.008776583333334,0,0x00,0x00
4.009936458333334,0,0x00,0x55
4.011096333333334,0,0x00,0x00
4.012256208333334,0,0x00,0xBB
4.013416041666667,0,0x00,0xC0
4.014575916666667,0,0x00,0xC5
4.015735791666667,0,0x00,0xF0
4.016895666666667,0,0x00,0x8C
4.018055500000000,0,0x00,0xFF
4.019215375000000,0,0x00,0xF7
4.020375208333333,0,0x00,0x00
4.021535083333333,0,0x00,0xFF
4.022694916666667,0,0x00,0x00
4.023854791666666,0,0x00,0x55
4.025014666666666,0,0x00,0x00
4.026174541666666,0,0x00,0xFF
4.027334375000000,0,0x00,0x00
4.028494250000000,0,0x00,0x57
4.029654083333333,0,0x00,0x00
4.030814000000000,0,0x00,0xBE
4.031973833333334,0,0x00,0x01
4.033133708333334,0,0x00,0x5B
4.034293541666667,0,0x00,0x07
4.035453416666667,0,0x00,0x1F
4.036613291666667,0,0x00,0xFF
4.037773125000000,0,0x00,0x6A
4.038933000000000,0,0x00,0x1D
4.040092875000000,0,0x00,0xE8
4.041252750000000,0,0x00,0x1F
4.042412583333333,0,0x00,0xFA
4.043572458333333,0,0x00,0x1D
4.044732333333333,0,0x00,0xF7
4.045892166666667,0,0x00,0x38
4.047052041666666,0,0x00,0xFA
4.048211916666666,0,0x00,0x75
4.049371750000000,0,0x00,0xEF
4.050531625000000,0,0x00,0xF0
4.051691500000000,0,0x00,0xEF
4.052851333333333,0,0x00,0xD0
4.054011208333334,0,0x00,0x7F
4.055171083333334,0,0x00,0x80
4.056330916666667,0,0x00,0x77
4.057490791666667,0,0x00,0x40
4.058650666666667,0,0x00,0xDF
4.059810500000000,0,0x00,0x20
4.060970416666667,0,0x00,0xFF
4.062130250000000,0,0x00,0x00
4.063290125000000,0,0x00,0xFF
4.064449958333333,0,0x00,0x00
4.065609833333333,0,0x00,0x76
4.066769708333333,0,0x00,0x01
4.067929541666667,0,0x00,0xFF
4.069089416666666,0,0x00,0x00
4.070249291666666,0,0x00,0xFB
4.071409125000000,0,0x00,0x04
4.072569000000000,0,0x00,0xFF
4.073728833333333,0,0x00,0x00
4.074888708333333,0,0x00,0x6B
4.076048583333334,0,0x00,0x17
4.077208458333334,0,0x00,0xDF
4.078368291666667,0,0x00,0x23
4.079528166666667,0,0x00,0xEB
4.080688000000000,0,0x00,0x17
4.081847875000000,0,0x00,0xFB
4.083007750000000,0,0x00,0x07
4.084167625000000,0,0x00,0xEB
4.085327458333333,0,0x00,0x17
4.086487333333333,0,0x00,0xFB
4.087647208333333,0,0x00,0x07
4.088807083333333,0,0x00,0xFF
4.089966916666667,0,0x00,0x07
4.091126791666666,0,0x00,0xF7
4.092286625000000,0,0x00,0x0F
4.093446500000000,0,0x00,0xFF
4.094606375000000,0,0x00,0xFF
4.095766250000000,0,0x00,0xFF
4.096926083333333,0,0x00,0xFF
4.098085958333333,0,0x00,0xFF
4.099245833333334,0,0x00,0xFF
4.100405666666667,0,0x00,0xFF
4.101565541666667,0,0x00,0xFF
4.102725416666667,0,0x00,0xF7
4.103885250000000,0,0x00,0xFF
4.105045125000000,0,0x00,0xFF
4.106205000000000,0,0x00,0xFF
4.107364833333333,0,0x00,0xFF
4.108524708333333,0,0x00,0xFF
4.109684583333333,0,0x00,0xFF
4.110844416666667,0,0x00,0xFF
4.112004291666667,0,0x00,0xFF
4.113164166666667,0,0x00,0xFF
4.114324041666666,0,0x00,0xFF
4.115544916666667,0,0x00,0xFF
4.116704791666667,0,0x00,0xFF
4.117864666666667,0,0x00,0xFF
4.119024500000000,0,0x00,0xFF
4.120184375000000,0,0x00,0xFF
4.121344250000000,0,0x00,0xFF
4.122504083333333,0,0x00,0xFF
4.123663958333333,0,0x00,0xFF
4.124823833333333,0,0x00,0xFF
4.125983666666666,0,0x00,0xFF
4.127143541666666,0,0x00,0xFF
4.128303416666666,0,0x00,0xFF
4.129463250000000,0,0x00,0xFF
4.130623125000000,0,0x00,0xFF
4.131783000000000,0,0x00,0xFF
4.132942875000000,0,0x00,0xFF
4.134102708333334,0,0x00,0xFF
4.135262583333334,0,0x00,0xFF
4.136422458333334,0,0x00,0xFF
4.137582291666667,0,0x00,0xFF
4.138742166666667,0,0x00,0xFF
4.139902041666667,0,0x00,0xFF
4.141061875000000,0,0x00,0xFF
4.142221750000000,0,0x00,0xFF
4.143381625000000,0,0x00,0xFF
4.144541458333333,0,0x00,0xFF
4.145701333333333,0,0x00,0xFF
4.146861208333333,0,0x00,0xFF
4.148021041666667,0,0x00,0xFF
4.149119875000000,0,0x00,0x46
4.150218708333333,0,0x00,0x66
4.151317500000000,0,0x81,0x00
4.152416333333333,0,0x00,0x00
4.182877958333333,0,0x00,0x88
4.183976750000000,0,0x00,0x33
4.185136625000000,0,0x00,0x0F
4.186296500000000,0,0x00,0x00
4.187456375000000,0,0x00,0x00
4.188616208333333,0,0x00,0x00
4.189776083333333,0,0x00,0x0F
4.190935916666667,0,0x00,0x00
4.192095791666667,0,0x81,0x00
4.193255666666666,0,0x00,0x00
4.202778750000000,0,0x00,0x88
4.203877541666666,0,0x00,0x33
4.205037416666666,0,0x00,0x04
4.206197291666666,0,0x00,0x00
4.207357166666666,0,0x00,0x80
4.208517000000000,0,0x00,0x02
4.209676875000000,0,0x00,0xFF
4.210836708333333,0,0x00,0xFF
4.211996583333334,0,0x00,0xFF
4.213156458333334,0,0x00,0xFF
4.214316291666667,0,0x00,0xFF
4.215476166666667,0,0x00,0xFF
4.216636041666667,0,0x00,0xFF
4.217795916666667,0,0x00,0xFF
4.218955750000000,0,0x00,0xFF
4.220115625000000,0,0x00,0xFF
4.221275500000000,0,0x00,0xFF
4.222435333333333,0,0x00,0xFF
4.223595208333333,0,0x00,0xFF
4.224755083333333,0,0x00,0xFF
4.225914916666667,0,0x00,0xFF
4.227074791666666,0,0x00,0xFF
4.228234666666666,0,0x00,0xFF
4.229394500000000,0,0x00,0xFF
4.230554375000000,0,0x00,0xFF
4.231714250000000,0,0x00,0xFF
4.232874083333333,0,0x00,0xFF
4.234033958333334,0,0x00,0xFF
4.235193833333334,0,0x00,0xFF
4.236353666666667,0,0x00,0xFF
4.237513541666667,0,0x00,0xFF
4.238673416666667,0,0x00,0xFF
4.239833250000000,0,0x00,0xFF
4.240993125000000,0,0x00,0xFF
4.242153000000000,0,0x00,0xFF
4.243312875000000,0,0x00,0xFF
4.244472708333333,0,0x00,0xFF
4.245632583333333,0,0x00,0xFF
4.246792458333333,0,0x00,0xFF
4.247952291666667,0,0x00,0xFF
4.249112166666666,0,0x00,0xFF
4.250272041666666,0,0x00,0xFF
4.251431875000000,0,0x00,0xFF
4.252591750000000,0,0x00,0xFF
4.253751625000000,0,0x00,0xFF
4.254911458333333,0,0x00,0xFF
4.256071333333334,0,0x00,0xFF
4.257231208333334,0,0x00,0xFF
4.258391041666667,0,0x00,0xFF
4.259550916666667,0,0x00,0xFF
4.260710791666667,0,0x00,0xFF
4.261870625000000,0,0x00,0xFF
4.263030500000000,0,0x00,0xFF
4.264190375000000,0,0x00,0xFF
4.265350208333333,0,0x00,0xFF
4.266510083333333,0,0x00,0xFF
4.267669958333333,0,0x00,0xFF
4.268829791666667,0,0x00,0xFF
4.269989666666667,0,0x00,0xFF
4.271149541666666,0,0x00,0xFF
4.272309416666666,0,0x00,0xFF
4.273469250000000,0,0x00,0xFF
4.274629125000000,0,0x00,0xFF
4.275789000000000,0,0x00,0xFF
4.276948833333333,0,0x00,0xFF
4.278108708333333,0,0x00,0xFF
4.279268583333334,0,0x00,0xFF
4.280428416666667,0,0x00,0xFF
4.281588291666667,0,0x00,0xFF
4.282748166666667,0,0x00,0xFF
4.283908000000000,0,0x00,0xEB
4.285067875000000,0,0x00,0xF4
4.286227750000000,0,0x00,0xEF
4.287387583333333,0,0x00,0xF0
4.288547458333333,0,0x00,0xFF
4.289707333333333,0,0x00,0xF0
4.290867208333333,0,0x00,0xF6
4.292027041666667,0,0x00,0xF8
4.293186916666667,0,0x00,0xF9
4.294346750000000,0,0x00,0xF4
4.295506625000000,0,0x00,0xF6
4.296666500000000,0,0x00,0xF8
4.297826375000000,0,0x00,0xF9
4.298986208333333,0,0x00,0xFC
4.300146083333333,0,0x00,0xFE
4.301305958333334,0,0x00,0xF8
4.302465791666667,0,0x00,0x40
4.303625666666667,0,0x00,0x00
4.304785541666667,0,0x00,0x80
4.305945375000000,0,0x00,0x00
4.307105250000000,0,0x00,0x00
4.308265125000000,0,0x00,0x00
4.309424958333333,0,0x00,0x00
4.310584833333333,0,0x00,0x00
4.311744708333333,0,0x00,0x00
4.312904541666667,0,0x00,0x00
4.314064416666667,0,0x00,0x00
4.315224291666667,0,0x00,0x00
4.316445208333334,0,0x00,0x00
4.317605041666667,0,0x00,0x00
4.318764916666667,0,0x00,0x00
4.319924791666667,0,0x00,0x00
4.321084625000000,0,0x00,0x00
4.322244500000000,0,0x00,0x00
4.323404375000000,0,0x00,0x00
4.324564208333333,0,0x00,0x00
4.325724083333333,0,0x00,0x00
4.326883958333333,0,0x00,0x00
4.328043791666667,0,0x00,0x00
4.329203666666666,0,0x00,0x00
4.330363541666666,0,0x00,0x00
4.331523375000000,0,0x00,0x00
4.332683250000000,0,0x00,0x00
4.333843125000000,0,0x00,0x00
4.335002958333333,0,0x00,0x00
4.336162833333334,0,0x00,0x00
4.337322708333334,0,0x00,0x00
4.338482541666667,0,0x00,0x00
4.339642416666667,0,0x00,0x00
4.340802291666667,0,0x00,0x00
4.341962166666667,0,0x00,0x00
4.343122000000000,0,0x00,0x00
4.344281875000000,0,0x00,0x00
4.345441750000000,0,0x00,0x00
4.346601583333333,0,0x00,0x00
4.347761458333333,0,0x00,0x00
4.348921333333333,0,0x00,0x00
4.350081166666667,0,0x00,0x00
4.351241041666666,0,0x00,0x00
4.352400916666666,0,0x00,0x00
4.353560750000000,0,0x00,0x00
4.354720625000000,0,0x00,0x00
4.355880500000000,0,0x00,0x00
4.357040333333333,0,0x00,0x00
4.358200208333334,0,0x00,0x00
4.359360083333334,0,0x00,0x00
4.360519916666667,0,0x00,0x00
4.361679791666667,0,0x00,0x00
4.362839666666667,0,0x00,0x00
4.363999500000000,0,0x00,0x00
4.365159375000000,0,0x00,0x00
4.366319250000000,0,0x00,0x00
4.367479083333333,0,0x00,0x00
4.368638958333333,0,0x00,0x00
4.369798833333333,0,0x00,0x00
4.370958708333333,0,0x00,0x00
4.372118541666667,0,0x00,0x00
4.373278416666667,0,0x00,0x00
4.374438291666666,0,0x00,0x00
4.375598125000000,0,0x00,0x00
4.376758000000000,0,0x00,0x0B
4.377917833333333,0,0x00,0x07
4.379077708333333,0,0x00,0x07
4.380237583333333,0,0x00,0x03
4.381397416666666,0,0x00,0x00
4.382557291666667,0,0x00,0x00
4.383717166666667,0,0x00,0x00
4.384877041666667,0,0x00,0x00
4.386036875000000,0,0x00,0x00
4.387196750000000,0,0x00,0x00
4.388356625000000,0,0x00,0x00
4.389516458333333,0,0x00,0x00
4.390676333333333,0,0x00,0x00
4.391836208333333,0,0x00,0x00
4.392996083333333,0,0x00,0x00
4.394155916666667,0,0x00,0x00
4.395315791666667,0,0x00,0x0D
4.396475666666666,0,0x00,0xF7
4.397635500000000,0,0x00,0xFF
4.398795375000000,0,0x00,0xFF
4.399955208333333,0,0x00,0x54
4.401115083333333,0,0x00,0x00
4.402274958333333,0,0x00,0x00
4.403434833333334,0,0x00,0x00
4.404594666666667,0,0x00,0x00
4.405754541666667,0,0x00,0x00
4.406914416666667,0,0x00,0x00
4.408074250000000,0,0x00,0x00
4.409234125000000,0,0x00,0x00
4.410394000000000,0,0x00,0x00
4.411553833333334,0,0x00,0x00
4.412713708333333,0,0x00,0x00
4.413873583333333,0,0x00,0x57
4.415033416666667,0,0x00,0xFF
4.416193291666667,0,0x00,0x98
4.417353166666667,0,0x00,0xE0
4.418513041666666,0,0x00,0x00
4.419672875000000,0,0x00,0x00
4.420832750000000,0,0x00,0x00
4.421992625000000,0,0x00,0x00
4.423152458333333,0,0x00,0x00
4.424312333333333,0,0x00,0x00
4.425472208333334,0,0x00,0x00
4.426632041666666,0,0x00,0x00
4.427791916666667,0,0x00,0x00
4.428951791666667,0,0x00,0x00
4.430111625000000,0,0x00,0x00
4.431271500000000,0,0x00,0x00
4.432431375000000,0,0x00,0x97
4.433713291666667,0,0x00,0x7F
4.434873166666667,0,0x00,0x3F
4.436033041666667,0,0x00,0x0F
4.437192875000000,0,0x00,0x16
4.438352750000000,0,0x00,0x01
4.439512625000000,0,0x00,0x00
4.440672500000000,0,0x00,0x00
4.441832333333333,0,0x00,0x00
4.442992208333333,0,0x00,0x00
4.444152083333333,0,0x00,0x00
4.445311916666666,0,0x00,0x00
4.446471791666666,0,0x00,0x00
4.447631666666667,0,0x00,0x00
4.448791500000000,0,0x00,0x00
4.449951375000000,0,0x00,0x00
4.451111250000000,0,0x00,0xFF
4.452271083333334,0,0x00,0xFC
4.453430958333334,0,0x00,0xFB
4.454590833333333,0,0x00,0xE0
4.455750666666667,0,0x00,0x45
4.456910541666667,0,0x00,0xF0
4.458070416666667,0,0x00,0x87
4.459230250000000,0,0x00,0x38
4.460390125000000,0,0x00,0x17
4.461550000000000,0,0x00,0x0C
4.462709875000000,0,0x00,0x09
4.463869708333333,0,0x00,0x06
4.465029583333333,0,0x00,0x07
4.466189416666666,0,0x00,0x03
4.467349291666666,0,0x00,0x01
4.468509166666666,0,0x00,0x01
4.469669000000000,0,0x00,0x77
4.470828875000000,0,0x00,0x00
4.471988750000000,0,0x00,0xFF
4.473148583333334,0,0x00,0x00
4.474308500000000,0,0x00,0xFB
4.475468333333334,0,0x00,0x04
4.476628208333334,0,0x00,0xFF
4.477788041666667,0,0x00,0x00
4.478947916666667,0,0x00,0x77
4.480107750000000,0,0x00,0x00
4.481267666666667,0,0x00,0xFF
4.482427500000000,0,0x00,0x00
4.483587375000000,0,0x00,0xFF
4.484747208333333,0,0x00,0x00
4.485907125000000,0,0x00,0xBF
4.487066958333333,0,0x00,0xC0
4.488226833333333,0,0x00,0xEE
4.489386666666666,0,0x00,0x11
4.490546541666666,0,0x00,0xFF
4.491706375000000,0,0x00,0x00
4.492866291666667,0,0x00,0xFF
4.494026125000000,0,0x00,0x00
4.495186000000000,0,0x00,0xFF
4.496345833333334,0,0x00,0x00
4.497505708333334,0,0x00,0xFE
4.498665583333334,0,0x00,0x01
4.499825416666667,0,0x00,0xFD
4.500985291666667,0,0x00,0x02
4.502145166666667,0,0x00,0xDA
4.503305000000000,0,0x00,0x05
4.504464875000000,0,0x00,0xF5
4.505624708333333,0,0x00,0x0B
4.506784583333333,0,0x00,0xE7
4.507944458333333,0,0x00,0x1F
4.509104333333333,0,0x00,0xCF
4.510264166666667,0,0x00,0x3F
4.511424041666666,0,0x00,0xAF
4.512583916666666,0,0x00,0x5F
4.513743750000000,0,0x00,0x5F
4.514903625000000,0,0x00,0xBF
4.516063500000000,0,0x00,0xBF
4.517223333333333,0,0x00,0x7F
4.518383208333334,0,0x00,0x7F
4.519543083333334,0,0x00,0xFF
4.520702958333334,0,0x00,0xFF
4.521862791666667,0,0x00,0xFF
4.523022666666667,0,0x00,0xFF
4.524182541666667,0,0x00,0xFF
4.525342375000000,0,0x00,0xFD
4.526502250000000,0,0x00,0xFF
4.527662125000000,0,0x00,0xFF
4.528821958333333,0,0x00,0xFF
4.529981833333333,0,0x00,0xFD
4.531141708333333,0,0x00,0xFF
4.532301541666667,0,0x00,0xFF
4.533461416666666,0,0x00,0xFF
4.534621291666666,0,0x00,0xFF
4.535781125000000,0,0x00,0xFF
4.536941000000000,0,0x00,0xFF
4.538100875000000,0,0x00,0xFF
4.539260750000000,0,0x00,0xFF
4.540420583333334,0,0x00,0xFF
4.541580458333334,0,0x00,0xFF
4.542740333333334,0,0x00,0xFF
4.543900166666667,0,0x00,0xFF
4.545060041666667,0,0x00,0xFF
4.546219916666667,0,0x00,0xFF
4.547379750000000,0,0x00,0xFF
4.548539625000000,0,0x00,0xFF
4.549699500000000,0,0x00,0xFF
4.550920375000000,0,0x00,0xFF
4.552080250000000,0,0x00,0xFF
4.553240125000000,0,0x00,0xFF
4.554399958333334,0,0x00,0xFF
4.555559833333334,0,0x00,0xFF
4.556719708333334,0,0x00,0xFF
4.557879583333333,0,0x00,0xFF
4.559039416666667,0,0x00,0xFF
4.560199291666667,0,0x00,0xFF
4.561359166666667,0,0x00,0xFF
4.562519000000000,0,0x00,0xFF
4.563678875000000,0,0x00,0xFF
4.564838750000000,0,0x00,0xFF
4.565998583333333,0,0x00,0xFF
4.567158458333333,0,0x00,0xFF
4.568318333333333,0,0x00,0xFF
4.569478166666666,0,0x00,0xFF
4.570638041666666,0,0x00,0xFF
4.571797916666666,0,0x00,0xFF
4.572957750000000,0,0x00,0xFF
4.574117625000000,0,0x00,0xFF
4.575277500000000,0,0x00,0xFF
4.576437333333334,0,0x00,0xFF
4.577597208333334,0,0x00,0xFF
4.578757083333334,0,0x00,0xFF
4.579916916666667,0,0x00,0xFF
4.581076791666667,0,0x00,0xFF
4.582236666666667,0,0x00,0xFF
4.583396541666667,0,0x00,0xFF
4.584556375000000,0,0x00,0xFF
4.585716250000000,0,0x00,0xFF
4.586876125000000,0,0x00,0xFF
4.588035958333333,0,0x00,0xFF
4.589195833333333,0,0x00,0xFF
4.590355708333333,0,0x00,0xFF
4.591515541666666,0,0x00,0xFF
4.592675416666666,0,0x00,0xFF
4.593835291666666,0,0x00,0xFF
4.594995125000000,0,0x00,0xFF
4.596155000000000,0,0x00,0xFF
4.597314875000000,0,0x00,0xFF
4.598474708333334,0,0x00,0xFF
4.599634583333334,0,0x00,0xFF
4.600794458333334,0,0x00,0xFF
4.601954291666667,0,0x00,0xFF
4.603114166666667,0,0x00,0xFF
4.604274041666667,0,0x00,0xFF
4.605433875000000,0,0x00,0xFF
4.606593750000000,0,0x00,0xFF
4.607753625000000,0,0x00,0xFF
4.608913458333333,0,0x00,0xFF
4.610073333333333,0,0x00,0xFF
4.611233208333333,0,0x00,0xFF
4.612393083333333,0,0x00,0xFF
4.613552916666666,0,0x00,0xFF
4.614712791666666,0,0x00,0xFF
4.615872666666666,0,0x00,0xFF
4.617032500000000,0,0x00,0xFF
4.618192375000000,0,0x00,0xFF
4.619352250000000,0,0x00,0xFF
4.620512083333334,0,0x00,0xFF
4.621671958333334,0,0x00,0xFF
4.622831833333334,0,0x00,0xFF
4.623991666666667,0,0x00,0xFF
4.625151541666667,0,0x00,0xFF
4.626311416666667,0,0x00,0xFF
4.627471250000000,0,0x00,0xFF
4.628631125000000,0,0x00,0xFF
4.629791000000000,0,0x00,0xFF
4.630950833333333,0,0x00,0xFF
4.632110708333333,0,0x00,0xFF
4.633270583333333,0,0x00,0xFF
4.634430416666667,0,0x00,0xFF
4.635590291666666,0,0x00,0xFF
4.636750166666666,0,0x00,0xFF
4.637910041666666,0,0x00,0xFF
4.639069875000000,0,0x00,0xFF
4.640229750000000,0,0x00,0xFF
4.641389625000000,0,0x00,0xFF
4.642549458333334,0,0x00,0xFF
4.643709333333334,0,0x00,0xFF
4.644869208333334,0,0x00,0xFF
4.646029041666667,0,0x00,0xFF
4.647188916666667,0,0x00,0xFF
4.648348791666667,0,0x00,0xFF
4.649508625000000,0,0x00,0xFF
4.650668500000000,0,0x00,0xFF
4.651828375000000,0,0x00,0xFF
4.652988208333333,0,0x00,0xFF
4.654148083333333,0,0x00,0xFF
4.655307958333333,0,0x00,0xFD
4.656467791666667,0,0x00,0xF8
4.657627666666666,0,0x00,0xFA
4.658787541666666,0,0x00,0xFC
4.659947416666666,0,0x00,0xFD
4.661107250000000,0,0x00,0xFC
4.662267125000000,0,0x00,0xFC
4.663427000000000,0,0x00,0xF8
4.664586875000000,0,0x00,0xFD
4.665746708333334,0,0x00,0xF8
4.666906583333334,0,0x00,0xFE
4.668127500000000,0,0x00,0xF8
4.669287333333333,0,0x00,0xFD
4.670447208333333,0,0x00,0xF8
4.671607083333333,0,0x00,0xF4
4.672766916666666,0,0x00,0xF8
4.673926791666666,0,0x00,0x00
4.675086625000000,0,0x00,0x00
4.676246500000000,0,0x00,0x00
4.677406375000000,0,0x00,0x00
4.678566208333334,0,0x00,0x00
4.679726083333334,0,0x00,0x00
4.680885958333334,0,0x00,0x00
4.682045833333333,0,0x00,0x00
4.683205666666667,0,0x00,0x00
4.684365541666667,0,0x00,0x00
4.685525416666667,0,0x00,0x00
4.686685250000000,0,0x00,0x00
4.687845125000000,0,0x00,0x00
4.689005000000000,0,0x00,0x00
4.690164833333333,0,0x00,0x00
4.691324708333333,0,0x00,0x00
4.692484583333333,0,0x00,0x00
4.693644416666666,0,0x00,0x00
4.694804291666666,0,0x00,0x00
4.695964166666666,0,0x00,0x00
4.697124000000000,0,0x00,0x00
4.698283875000000,0,0x00,0x00
4.699443750000000,0,0x00,0x00
4.700603583333334,0,0x00,0x00
4.701763458333334,0,0x00,0x00
4.702923333333334,0,0x00,0x00
4.704083166666667,0,0x00,0x00
4.705243041666667,0,0x00,0x00
4.706402916666667,0,0x00,0x00
4.707562791666667,0,0x00,0x00
4.708722625000000,0,0x00,0x00
4.709882500000000,0,0x00,0x00
4.711042375000000,0,0x00,0x00
4.712202208333333,0,0x00,0x00
4.713362083333333,0,0x00,0x00
4.714521958333333,0,0x00,0x00
4.715681791666666,0,0x00,0x00
4.716841666666666,0,0x00,0x00
4.718001541666666,0,0x00,0x00
4.719161375000000,0,0x00,0x00
4.720321250000000,0,0x00,0x00
4.721481125000000,0,0x00,0x00
4.722640958333334,0,0x00,0x00
4.723800833333334,0,0x00,0x00
4.724960708333334,0,0x00,0x00
4.726120541666667,0,0x00,0x00
4.727280416666667,0,0x00,0x00
4.728440291666667,0,0x00,0x00
4.729600125000000,0,0x00,0x00
4.730760000000000,0,0x00,0x00
4.731919875000000,0,0x00,0x00
4.733079708333333,0,0x00,0x00
4.734239583333333,0,0x00,0x00
4.735399458333333,0,0x00,0x00
4.736559333333333,0,0x00,0x00
4.737719166666666,0,0x00,0x00
4.738879041666666,0,0x00,0x00
4.740038916666666,0,0x00,0x00
4.741198750000000,0,0x00,0x00
4.742358625000000,0,0x00,0x00
4.743518500000000,0,0x00,0x00
4.744678333333334,0,0x00,0x00
4.745838208333334,0,0x00,0x00
4.746998083333334,0,0x00,0x00
4.748157916666667,0,0x00,0x00
4.749317791666667,0,0x00,0x00
4.750477666666667,0,0x00,0x00
4.751637500000000,0,0x00,0x00
4.752797375000000,0,0x00,0x00
4.753957250000000,0,0x00,0x00
4.755117083333333,0,0x00,0x00
4.756276958333333,0,0x00,0x00
4.757436833333333,0,0x00,0x00
4.758596666666667,0,0x00,0x00
4.759756541666667,0,0x00,0x00
4.760916416666666,0,0x00,0x00
4.762076291666666,0,0x00,0x00
4.763236125000000,0,0x00,0x00
4.764396000000000,0,0x00,0x00
4.765555875000000,0,0x00,0x00
4.766715708333333,0,0x00,0x00
4.767875583333334,0,0x00,0x00
4.769035458333334,0,0x00,0x00
4.770195291666667,0,0x00,0x00
4.771355166666667,0,0x00,0x00
4.772515041666667,0,0x00,0x00
4.773674875000000,0,0x00,0x00
4.774834750000000,0,0x00,0x00
4.775994625000000,0,0x00,0x00
4.777154458333333,0,0x00,0x00
4.778314333333333,0,0x00,0x00
4.779474208333333,0,0x00,0x00
4.780634041666667,0,0x00,0x00
4.781793916666667,0,0x00,0x00
4.782953791666666,0,0x00,0x00
4.784113625000000,0,0x00,0x00
4.785334541666667,0,0x00,0x00
4.786494416666667,0,0x00,0x00
4.787654291666667,0,0x00,0x00
4.788814125000000,0,0x00,0x00
4.789974000000000,0,0x00,0x00
4.791133875000000,0,0x00,0x00
4.792293708333333,0,0x00,0x00
4.793453583333333,0,0x00,0x00
4.794613458333333,0,0x00,0x00
4.795773291666666,0,0x00,0x00
4.796933166666666,0,0x00,0x00
4.798093041666666,0,0x00,0x00
4.799252875000000,0,0x00,0x00
4.800412750000000,0,0x00,0x00
4.801572625000000,0,0x00,0x00
4.802732458333334,0,0x00,0x00
4.803892333333334,0,0x00,0x00
4.805052208333334,0,0x00,0x00
4.806212083333333,0,0x00,0x00
4.807371916666667,0,0x00,0x00
4.808531791666667,0,0x00,0x00
4.809691666666667,0,0x00,0x00
4.810851500000000,0,0x00,0x00
4.812011375000000,0,0x00,0x00
4.813171250000000,0,0x00,0x00
4.814331083333333,0,0x00,0x00
4.815490958333333,0,0x00,0x00
4.816650833333333,0,0x00,0x00
4.817810666666666,0,0x00,0x00
4.818970541666666,0,0x00,0x00
4.820130416666666,0,0x00,0x00
4.821290250000000,0,0x00,0x00
4.822450125000000,0,0x00,0x00
4.823610000000000,0,0x00,0x00
4.824769833333334,0,0x00,0x00
4.825929708333334,0,0x00,0x00
4.827089583333334,0,0x00,0x00
4.828249416666667,0,0x00,0x00
4.829409291666667,0,0x00,0x00
4.830569166666667,0,0x00,0x00
4.831729041666667,0,0x00,0x00
4.832888875000000,0,0x00,0x00
4.834048750000000,0,0x00,0x00
4.835208625000000,0,0x00,0x00
4.836368458333333,0,0x00,0x00
4.837528333333333,0,0x00,0x00
4.838688208333333,0,0x00,0x00
4.839848041666666,0,0x00,0x00
4.841007916666666,0,0x00,0x6F
4.842167791666666,0,0x00,0xF0
4.843327625000000,0,0x00,0x3C
4.844487500000000,0,0x00,0x3F
4.845647333333333,0,0x00,0x1F
4.846807208333333,0,0x00,0x0F
4.847967083333334,0,0x00,0x0F
4.849126916666667,0,0x00,0x03
4.850286791666667,0,0x00,0x11
4.851446666666667,0,0x00,0x00
4.852606541666667,0,0x00,0x02
4.853766375000000,0,0x00,0x00
4.854926250000000,0,0x00,0x15
4.856086125000000,0,0x00,0x00
4.857246000000000,0,0x00,0x02
4.858405833333333,0,0x00,0x00
4.859565708333333,0,0x00,0x6F
4.860725541666667,0,0x00,0x17
4.861885416666667,0,0x00,0x3F
4.863045291666666,0,0x00,0xFF
4.864205166666666,0,0x00,0xFF
4.865365000000000,0,0x00,0xFF
4.866524875000000,0,0x00,0xFF
4.867684750000000,0,0x00,0xFF
4.868844583333333,0,0x00,0x7F
4.870004458333334,0,0x00,0xFF
4.871164333333334,0,0x00,0xF2
4.872324166666667,0,0x00,0x0F
4.873484041666667,0,0x00,0x59
4.874643875000000,0,0x00,0x07
4.875803750000000,0,0x00,0xBC
4.876963625000000,0,0x00,0x03
4.878123500000000,0,0x00,0xFF
4.879283333333333,0,0x00,0xFF
4.880443208333333,0,0x00,0xFF
4.881603083333333,0,0x00,0xFF
4.882762916666667,0,0x00,0xFF
4.883922791666667,0,0x00,0xFF
4.885082666666666,0,0x00,0xFF
4.886242541666666,0,0x00,0xFF
4.887402375000000,0,0x00,0xFF
4.888562250000000,0,0x00,0xFF
4.889722125000000,0,0x00,0xBF
4.890881958333333,0,0x00,0xFF
4.892041833333334,0,0x00,0x7F
4.893201708333334,0,0x00,0xFF
4.894361541666667,0,0x00,0xFF
4.895521416666667,0,0x00,0xFF
4.896681291666667,0,0x00,0xFF
4.897841125000000,0,0x00,0xFF
4.899001000000000,0,0x00,0xFF
4.900160875000000,0,0x00,0xFF
4.901320708333333,0,0x00,0xFF
4.902541625000000,0,0x00,0xFF
4.903701500000000,0,0x00,0xFF
4.904861375000000,0,0x00,0xFF
4.906021208333334,0,0x00,0xFF
4.907181083333334,0,0x00,0xFF
4.908340958333334,0,0x00,0xFF
4.909500791666667,0,0x00,0xFF
4.910660666666667,0,0x00,0xFF
4.911820541666667,0,0x00,0xFF
4.912980375000000,0,0x00,0xFF
4.914140250000000,0,0x00,0xFF
4.915300125000000,0,0x00,0xFF
4.916459958333333,0,0x00,0xFF
4.917619833333333,0,0x00,0xFF
4.918779708333333,0,0x00,0xFF
4.919939541666666,0,0x00,0xFF
4.921099416666666,0,0x00,0xFF
4.922259291666666,0,0x00,0xFF
4.923419125000000,0,0x00,0xFF
4.924579000000000,0,0x00,0xFF
4.925738875000000,0,0x00,0xFF
4.926898708333334,0,0x00,0xFF
4.928058583333334,0,0x00,0xFF
4.929218458333334,0,0x00,0xFF
4.930378291666667,0,0x00,0xFF
4.931538166666667,0,0x00,0xFF
4.932698041666667,0,0x00,0xFF
4.933857916666667,0,0x00,0xFF
4.935017750000000,0,0x00,0xFF
4.936177625000000,0,0x00,0xFF
4.937337500000000,0,0x00,0xFF
4.938497333333333,0,0x00,0xFF
4.939657208333333,0,0x00,0xFF
4.940817083333333,0,0x00,0xFF
4.941976916666666,0,0x00,0xFF
4.943136791666666,0,0x00,0xFF
4.944296666666666,0,0x00,0xFF
4.945456500000000,0,0x00,0xFF
4.946616375000000,0,0x00,0xFF
4.947776250000000,0,0x00,0xFF
4.948936083333333,0,0x00,0xFF
4.950095958333334,0,0x00,0xFF
4.951255833333334,0,0x00,0xFF
4.952354625000000,0,0x00,0x35
4.953453458333334,0,0x00,0x42
4.954552250000000,0,0x81,0x00
4.955651083333334,0,0x00,0x00
5.007051291666667,0,0x00,0x88
5.008150083333334,0,0x00,0x33
5.009309958333334,0,0x00,0x04
5.010469833333334,0,0x00,0x00
5.011629708333333,0,0x00,0x80
5.012789541666667,0,0x00,0x02
5.013949416666667,0,0x00,0xFF
5.015109250000000,0,0x00,0xFF
5.016269125000000,0,0x00,0xFF
5.017429000000000,0,0x00,0xFF
5.018588833333333,0,0x00,0xFF
5.019809750000000,0,0x00,0xFF
5.020969625000000,0,0x00,0xFF
5.022129500000000,0,0x00,0xFF
5.023289333333333,0,0x00,0xFF
5.024449208333333,0,0x00,0xFF
5.025609083333333,0,0x00,0xFF
5.026768916666667,0,0x00,0xFF
5.027928791666667,0,0x00,0xFF
5.029088666666667,0,0x00,0xFF
5.030248500000000,0,0x00,0xFF
5.031408375000000,0,0x00,0xFF
5.032568250000000,0,0x00,0xFF
5.033728083333333,0,0x00,0xFF
5.034887958333333,0,0x00,0xFF
5.036047833333333,0,0x00,0xFF
5.037207666666666,0,0x00,0xFF
5.038367541666666,0,0x00,0xFF
5.039527416666667,0,0x00,0xFF
5.040687250000000,0,0x00,0xFF
5.041847125000000,0,0x00,0xFF
5.043007000000000,0,0x00,0xFF
5.044166833333334,0,0x00,0xFF
5.045326708333334,0,0x00,0xFF
5.046486583333333,0,0x00,0xFF
5.047646458333333,0,0x00,0xFF
5.048806291666667,0,0x00,0xFF
5.049966166666667,0,0x00,0xFF
5.051126041666667,0,0x00,0xFF
5.052285875000000,0,0x00,0xFF
5.053445750000000,0,0x00,0xFF
5.054605625000000,0,0x00,0xFF
5.055765458333333,0,0x00,0xFF
5.056925333333333,0,0x00,0xFF
5.058085208333333,0,0x00,0xFF
5.059245041666666,0,0x00,0xFF
5.060404916666666,0,0x00,0xFF
5.061564791666667,0,0x00,0xFF
5.062724625000000,0,0x00,0xFF
5.063884500000000,0,0x00,0xFF
5.065044375000000,0,0x00,0xFF
5.066204208333334,0,0x00,0xFF
5.067364083333334,0,0x00,0xFF
5.068523958333333,0,0x00,0xFF
5.069683791666667,0,0x00,0xFF
5.070843666666667,0,0x00,0xFF
5.072003541666667,0,0x00,0xFF
5.073163375000000,0,0x00,0xFF
5.074323250000000,0,0x00,0xFF
5.075483125000000,0,0x00,0xFF
5.076643000000000,0,0x00,0xFF
5.077802833333333,0,0x00,0xFF
5.078962708333333,0,0x00,0xFF
5.080122583333333,0,0x00,0xFF
5.081282416666666,0,0x00,0xFF
5.082442291666666,0,0x00,0xFF
5.083602166666667,0,0x00,0xFF
5.084762000000000,0,0x00,0xFF
5.085921875000000,0,0x00,0xFF
5.087081750000000,0,0x00,0xFF
5.088241583333334,0,0x00,0xFD
5.089401458333334,0,0x00,0xF0
5.090561333333333,0,0x00,0xFA
5.091721208333333,0,0x00,0xF0
5.092881041666667,0,0x00,0xFD
5.094040916666667,0,0x00,0xF0
5.095200791666667,0,0x00,0xFC
5.096360625000000,0,0x00,0xF0
5.097520500000000,0,0x00,0xF5
5.098680333333333,0,0x00,0xF0
5.099840208333333,0,0x00,0xFA
5.101000083333333,0,0x00,0xF0
5.102159958333333,0,0x00,0xF5
5.103319791666666,0,0x00,0xF0
5.104479666666666,0,0x00,0xFE
5.105639541666666,0,0x00,0xF0
5.106799375000000,0,0x00,0x00
5.107959250000000,0,0x00,0x00
5.109119125000000,0,0x00,0x00
5.110278958333334,0,0x00,0x00
5.111438833333334,0,0x00,0x00
5.112598708333334,0,0x00,0x00
5.113758541666667,0,0x00,0x00
5.114918416666667,0,0x00,0x00
5.116078291666667,0,0x00,0x10
5.117238125000000,0,0x00,0x00
5.118398000000000,0,0x00,0x00
5.119557875000000,0,0x00,0x00
5.120717708333333,0,0x00,0x54
5.121877583333333,0,0x00,0x00
5.123037458333333,0,0x00,0x00
5.124197291666666,0,0x00,0x00
5.125357166666666,0,0x00,0x00
5.126517041666666,0,0x00,0x00
5.127676916666666,0,0x00,0x00
5.128836750000000,0,0x00,0x00
5.129996625000000,0,0x00,0x00
5.131156500000000,0,0x00,0x00
5.132316333333334,0,0x00,0x00
5.133476208333334,0,0x00,0x00
5.134636083333334,0,0x00,0x00
5.135795916666667,0,0x00,0x00
5.137016833333333,0,0x00,0x00
5.138176708333333,0,0x00,0x00
5.139336541666666,0,0x00,0x00
5.140496416666666,0,0x00,0x00
5.141656291666667,0,0x00,0x00
5.142816125000000,0,0x00,0x00
5.143976000000000,0,0x00,0x00
5.145135875000000,0,0x00,0x00
5.146295750000000,0,0x00,0x00
5.147455583333334,0,0x00,0x00
5.148615458333333,0,0x00,0x00
5.149775333333333,0,0x00,0x00
5.150935166666667,0,0x00,0x00
5.152095041666667,0,0x00,0x00
5.153254916666667,0,0x00,0x00
5.154414750000000,0,0x00,0x00
5.155574625000000,0,0x00,0x00
5.156734500000000,0,0x00,0x00
5.157894333333333,0,0x00,0x00
5.159054208333333,0,0x00,0x00
5.160214083333333,0,0x00,0x00
5.161373916666666,0,0x00,0x00
5.162533791666666,0,0x00,0x00
5.163693666666667,0,0x00,0x00
5.164853500000000,0,0x00,0x00
5.166013375000000,0,0x00,0x00
5.167173250000000,0,0x00,0x00
5.168333083333334,0,0x00,0x00
5.169492958333334,0,0x00,0x00
5.170652833333333,0,0x00,0x00
5.171812708333333,0,0x00,0x00
5.172972541666667,0,0x00,0x00
5.174132416666667,0,0x00,0x00
5.175292291666667,0,0x00,0x00
5.176452125000000,0,0x00,0x00
5.177612000000000,0,0x00,0x00
5.178771875000000,0,0x00,0x00
5.179931708333333,0,0x00,0x00
5.181091583333333,0,0x00,0x00
5.182251458333333,0,0x00,0x00
5.183411291666666,0,0x00,0x00
5.184571166666666,0,0x00,0x00
5.185731041666667,0,0x00,0x00
5.186890875000000,0,0x00,0x00
5.188050750000000,0,0x00,0x00
5.189210625000000,0,0x00,0x00
5.190370458333334,0,0x00,0x00
5.191530333333334,0,0x00,0x00
5.192690208333334,0,0x00,0x00
5.193850041666667,0,0x00,0x00
5.195009916666667,0,0x00,0x00
5.196169791666667,0,0x00,0x00
5.197329625000000,0,0x00,0x00
5.198489500000000,0,0x00,0x00
5.199649375000000,0,0x00,0x00
5.200809250000000,0,0x00,0x00
5.201969083333333,0,0x00,0x00
5.203128958333333,0,0x00,0x00
5.204288833333333,0,0x00,0x00
5.205448666666666,0,0x00,0x00
5.206608541666666,0,0x00,0x00
5.207768416666666,0,0x00,0x00
5.208928250000000,0,0x00,0x00
5.210088125000000,0,0x00,0x00
5.211248000000000,0,0x00,0x00
5.212407833333334,0,0x00,0x00
5.213567708333334,0,0x00,0x00
5.214727583333334,0,0x00,0x00
5.215887416666667,0,0x00,0x00
5.217047291666667,0,0x00,0x00
5.218207166666667,0,0x00,0x00
5.219367000000000,0,0x00,0x00
5.220526875000000,0,0x00,0x00
5.221686750000000,0,0x00,0x00
5.222846583333333,0,0x00,0x00
5.224006458333333,0,0x00,0x00
5.225166333333333,0,0x00,0x00
5.226326208333333,0,0x00,0x00
5.227486041666666,0,0x00,0x00
5.228645916666666,0,0x00,0x00
5.229805791666666,0,0x00,0x00
5.230965625000000,0,0x00,0x00
5.232125500000000,0,0x00,0x00
5.233285375000000,0,0x00,0x00
5.234445208333334,0,0x00,0x00
5.235605083333334,0,0x00,0x00
5.236764958333334,0,0x00,0x00
5.237924791666667,0,0x00,0x00
5.239084666666667,0,0x00,0x00
5.240244541666667,0,0x00,0x00
5.241404375000000,0,0x00,0x00
5.242564250000000,0,0x00,0x00
5.243724125000000,0,0x00,0x00
5.244883958333333,0,0x00,0x00
5.246043833333333,0,0x00,0x00
5.247203708333333,0,0x00,0x00
5.248363541666667,0,0x00,0x00
5.249523416666666,0,0x00,0x00
5.250683291666666,0,0x00,0x00
5.251843166666666,0,0x00,0x00
5.253003000000000,0,0x00,0x00
5.254223916666667,0,0x00,0x00
5.255383791666667,0,0x00,0x01
5.256543625000000,0,0x00,0x00
5.257703500000000,0,0x00,0x00
5.258863375000000,0,0x00,0x00
5.260023208333333,0,0x00,0x00
5.261183083333333,0,0x00,0x00
5.262342958333333,0,0x00,0x00
5.263502791666666,0,0x00,0x00
5.264662666666666,0,0x00,0x00
5.265822541666667,0,0x00,0x00
5.266982375000000,0,0x00,0x00
5.268142250000000,0,0x00,0x00
5.269302125000000,0,0x00,0x00
5.270462000000000,0,0x00,0x00
5.271621833333334,0,0x00,0x00
5.272781708333333,0,0x00,0x00
5.273941583333333,0,0x00,0x15
5.275101416666667,0,0x00,0x00
5.276261291666667,0,0x00,0x02
5.277421166666667,0,0x00,0x00
5.278581000000000,0,0x00,0x55
5.279740875000000,0,0x00,0x00
5.280900750000000,0,0x00,0x02
5.282060583333333,0,0x00,0x00
5.283220458333333,0,0x00,0x15
5.284380291666666,0,0x00,0x00
5.285540166666666,0,0x00,0x23
5.286700041666666,0,0x00,0x00
5.287859916666667,0,0x00,0x55
5.289019750000000,0,0x00,0x00
5.290179625000000,0,0x00,0x0A
5.291339500000000,0,0x00,0x00
5.292499333333334,0,0x00,0x58
5.293659208333334,0,0x00,0x07
5.294819083333334,0,0x00,0xBC
5.295978916666667,0,0x00,0x03
5.297138791666667,0,0x00,0x5A
5.298298666666667,0,0x00,0x05
5.299458541666667,0,0x00,0xFC
5.300618375000000,0,0x00,0x03
5.301778250000000,0,0x00,0x78
5.302938125000000,0,0x00,0x07
5.304097958333333,0,0x00,0xFC
5.305257833333333,0,0x00,0x03
5.306417666666666,0,0x00,0x79
5.307577541666666,0,0x00,0x07
5.308737416666666,0,0x00,0xF0
5.309897291666666,0,0x00,0x0F
5.311057125000000,0,0x00,0x7F
5.312217000000000,0,0x00,0xFF
5.313376875000000,0,0x00,0xBF
5.314536708333334,0,0x00,0xFF
5.315696583333334,0,0x00,0x7F
5.316856458333334,0,0x00,0xFF
5.318016291666667,0,0x00,0xFF
5.319176166666667,0,0x00,0xFF
5.320336000000000,0,0x00,0x7F
5.321495875000000,0,0x00,0xFF
5.322655750000000,0,0x00,0xFF
5.323815625000000,0,0x00,0xFF
5.324975500000000,0,0x00,0xFF
5.326135333333333,0,0x00,0xFF
5.327295208333333,0,0x00,0xFF
5.328455083333333,0,0x00,0xFF
5.329614916666666,0,0x00,0xFF
5.330774791666666,0,0x00,0xFF
5.331934666666666,0,0x00,0xFF
5.333094500000000,0,0x00,0xFF
5.334254375000000,0,0x00,0xFF
5.335414250000000,0,0x00,0xFF
5.336574083333334,0,0x00,0xFF
5.337733958333334,0,0x00,0xFF
5.338893833333334,0,0x00,0xFF
5.340053666666667,0,0x00,0xFF
5.341213541666667,0,0x00,0xFF
5.342373416666667,0,0x00,0xFF
5.343533250000000,0,0x00,0xFF
5.344693125000000,0,0x00,0xFF
5.345853000000000,0,0x00,0xFF
5.347012833333333,0,0x00,0xFF
5.348172708333333,0,0x00,0xFF
5.349332583333333,0,0x00,0xFF
5.350492458333333,0,0x00,0xFF
5.351652291666666,0,0x00,0xFF
5.352812166666666,0,0x00,0xFF
5.353972041666666,0,0x00,0xFF
5.355131875000000,0,0x00,0xFF
5.356291750000000,0,0x00,0xFF
5.357451625000000,0,0x00,0xFF
5.358611458333334,0,0x00,0xFF
5.359771333333334,0,0x00,0xFF
5.360931208333334,0,0x00,0xFF
5.362091041666667,0,0x00,0xFF
5.363250916666667,0,0x00,0xFF
5.364410791666667,0,0x00,0xFF
5.365570625000000,0,0x00,0xFF
5.366730500000000,0,0x00,0xFF
5.367890375000000,0,0x00,0xFF
5.369050208333333,0,0x00,0xFF
5.370210083333333,0,0x00,0xFF
5.371431000000000,0,0x00,0xFF
5.372590875000000,0,0x00,0xFF
5.373750708333334,0,0x00,0xFF
5.374910583333333,0,0x00,0xFF
5.376070458333333,0,0x00,0xFF
5.377230291666667,0,0x00,0xFF
5.378390166666667,0,0x00,0xFF
5.379550041666667,0,0x00,0xFF
5.380709875000000,0,0x00,0xFF
5.381869750000000,0,0x00,0xFF
5.383029625000000,0,0x00,0xFF
5.384189458333333,0,0x00,0xFF
5.385349333333333,0,0x00,0xFF
5.386509208333333,0,0x00,0xFF
5.387669041666666,0,0x00,0xFF
5.388828916666666,0,0x00,0xFF
5.389988791666666,0,0x00,0xFF
5.391148625000000,0,0x00,0xFF
5.392308500000000,0,0x00,0xFF
5.393468375000000,0,0x00,0xFF
5.394628208333334,0,0x00,0xFF
5.395788083333334,0,0x00,0xFF
5.396947958333334,0,0x00,0xFF
5.398107833333333,0,0x00,0xFF
5.399267666666667,0,0x00,0xFF
5.400427541666667,0,0x00,0xFF
5.401587416666667,0,0x00,0xFF
5.402747250000000,0,0x00,0xFF
5.403907125000000,0,0x00,0xFF
5.405067000000000,0,0x00,0xFF
5.406226833333333,0,0x00,0xFF
5.407386708333333,0,0x00,0xFF
5.408546583333333,0,0x00,0xFF
5.409706416666666,0,0x00,0xFF
5.410866291666666,0,0x00,0xFF
5.412026166666666,0,0x00,0xFF
5.413186000000000,0,0x00,0xFF
5.414345875000000,0,0x00,0xFF
5.415505750000000,0,0x00,0xFF
5.416665583333334,0,0x00,0xFF
5.417825458333334,0,0x00,0xFF
5.418985333333334,0,0x00,0xFF
5.420145166666667,0,0x00,0xFF
5.421305041666667,0,0x00,0xFF
5.422464916666667,0,0x00,0xFF
5.423624791666667,0,0x00,0xFF
5.424784625000000,0,0x00,0xFF
5.425944500000000,0,0x00,0xFF
5.427104375000000,0,0x00,0xFF
5.428264208333333,0,0x00,0xFF
5.429424083333333,0,0x00,0xFF
5.430583958333333,0,0x00,0xFF
5.431743791666666,0,0x00,0xFF
5.432903666666666,0,0x00,0xFF
5.434063541666666,0,0x00,0xFF
5.435223375000000,0,0x00,0xFF
5.436383250000000,0,0x00,0xFF
5.437543125000000,0,0x00,0xFF
5.438702958333334,0,0x00,0xFF
5.439862833333334,0,0x00,0xFF
5.441022708333334,0,0x00,0xFF
5.442182541666667,0,0x00,0xFF
5.443342416666667,0,0x00,0xFF
5.444502291666667,0,0x00,0xFF
5.445662125000000,0,0x00,0xFF
5.446822000000000,0,0x00,0xFF
5.447981875000000,0,0x00,0xFF
5.449141750000000,0,0x00,0xFF
5.450301583333333,0,0x00,0xFF
5.451461458333333,0,0x00,0xFF
5.452621333333333,0,0x00,0xFF
5.453781166666666,0,0x00,0xFF
5.454941041666666,0,0x00,0xFF
5.456100916666666,0,0x00,0xFF
5.457260750000000,0,0x00,0xFF
5.458420625000000,0,0x00,0xFF
5.459580500000000,0,0x00,0xF5
5.460740333333334,0,0x00,0xF0
5.461900208333334,0,0x00,0xFF
5.463060083333334,0,0x00,0xF0
5.464219958333334,0,0x00,0xFD
5.465379791666667,0,0x00,0xF0
5.466539666666667,0,0x00,0xF7
5.467699500000000,0,0x00,0xF8
5.468859375000000,0,0x00,0xFF
5.470019250000000,0,0x00,0xF0
5.471179125000000,0,0x00,0xF7
5.472338958333333,0,0x00,0xF8
5.473498833333333,0,0x00,0xF3
5.474658708333333,0,0x00,0xFC
5.475818583333333,0,0x00,0xF7
5.476978416666666,0,0x00,0xF8
5.478138291666666,0,0x00,0x51
5.479298125000000,0,0x00,0x00
5.480458000000000,0,0x00,0x20
5.481617875000000,0,0x00,0x00
5.482777708333334,0,0x00,0x54
5.483937583333334,0,0x00,0x00
5.485097458333334,0,0x00,0xA8
5.486257291666667,0,0x00,0x00
5.487417166666667,0,0x00,0x55
5.488638041666666,0,0x00,0x00
5.489797958333333,0,0x00,0xAA
5.490957791666666,0,0x00,0x00
5.492117666666666,0,0x00,0x55
5.493277500000000,0,0x00,0x00
5.494437375000000,0,0x00,0xEA
5.495597250000000,0,0x00,0x00
5.496757125000000,0,0x00,0x00
5.497916958333334,0,0x00,0x00
5.499076833333334,0,0x00,0x00
5.500236708333333,0,0x00,0x00
5.501396541666667,0,0x00,0x00
5.502556416666667,0,0x00,0x00
5.503716291666667,0,0x00,0x00
5.504876125000000,0,0x00,0x00
5.506036000000000,0,0x00,0x00
5.507195875000000,0,0x00,0x00
5.508355708333333,0,0x00,0x00
5.509515583333333,0,0x00,0x00
5.510675458333333,0,0x00,0x40
5.511835291666666,0,0x00,0x00
5.512995166666666,0,0x00,0x00
5.514155041666666,0,0x00,0x00
5.515314875000000,0,0x00,0x00
5.516474750000000,0,0x00,0x00
5.517634625000000,0,0x00,0x00
5.518794458333334,0,0x00,0x00
5.519954333333334,0,0x00,0x00
5.521114208333334,0,0x00,0x00
5.522274083333333,0,0x00,0x00
5.523433916666667,0,0x00,0x00
5.524593791666667,0,0x00,0x00
5.525753666666667,0,0x00,0x00
5.526913500000000,0,0x00,0x00
5.528073375000000,0,0x00,0x00
5.529233250000000,0,0x00,0x00
5.530393083333333,0,0x00,0x00
5.531552958333333,0,0x00,0x00
5.532712833333333,0,0x00,0x00
5.533872666666666,0,0x00,0x00
5.535032541666666,0,0x00,0x00
5.536192416666666,0,0x00,0x00
5.537352250000000,0,0x00,0x00
5.538512125000000,0,0x00,0x00
5.539672000000000,0,0x00,0x00
5.540831833333334,0,0x00,0x00
5.541991708333334,0,0x00,0x00
5.543151583333334,0,0x00,0x00
5.544311458333333,0,0x00,0x00
5.545471291666667,0,0x00,0x00
5.546631166666667,0,0x00,0x00
5.547791041666667,0,0x00,0x00
5.548950875000000,0,0x00,0x00
5.550110750000000,0,0x00,0x00
5.551270625000000,0,0x00,0x00
5.552430458333333,0,0x00,0x00
5.553590333333333,0,0x00,0x00
5.554750208333333,0,0x00,0x00
5.555910041666666,0,0x00,0x00
5.557069916666666,0,0x00,0x00
5.558229791666666,0,0x00,0x00
5.559389625000000,0,0x00,0x00
5.560549500000000,0,0x00,0x00
5.561709375000000,0,0x00,0x00
5.562869208333334,0,0x00,0x00
5.564029083333334,0,0x00,0x00
5.565188958333334,0,0x00,0x00
5.566348791666667,0,0x00,0x00
5.567508666666667,0,0x00,0x00
5.568668541666667,0,0x00,0x00
5.569828375000000,0,0x00,0x00
5.570988250000000,0,0x00,0x00
5.572148125000000,0,0x00,0x00
5.573308000000000,0,0x00,0x00
5.574467833333333,0,0x00,0x00
5.575627708333333,0,0x00,0x00
5.576787583333333,0,0x00,0x00
5.577947416666666,0,0x00,0x00
5.579107291666666,0,0x00,0x00
5.580267166666666,0,0x00,0x00
5.581427000000000,0,0x00,0x00
5.582586875000000,0,0x00,0x00
5.583746750000000,0,0x00,0x00
5.584906583333333,0,0x00,0x00
5.586066458333334,0,0x00,0x00
5.587226333333334,0,0x00,0x00
5.588386166666667,0,0x00,0x00
5.589546041666667,0,0x00,0x00
5.590705916666667,0,0x00,0x00
5.591865750000000,0,0x00,0x00
5.593025625000000,0,0x00,0x00
5.594185500000000,0,0x00,0x00
5.595345375000000,0,0x00,0x00
5.596505208333333,0,0x00,0x00
5.597665083333333,0,0x00,0x00
5.598824958333333,0,0x00,0x00
5.599984791666667,0,0x00,0x00
5.601144666666666,0,0x00,0x00
5.602304541666666,0,0x00,0x00
5.603464375000000,0,0x00,0x00
5.604624250000000,0,0x00,0x00
5.605906208333334,0,0x00,0x00
5.607066041666666,0,0x00,0x00
5.608225916666667,0,0x00,0x00
5.609385791666667,0,0x00,0x00
5.610545625000000,0,0x00,0x00
5.611705500000000,0,0x00,0x00
5.612865375000000,0,0x00,0x00
5.614025250000000,0,0x00,0x00
5.615185083333333,0,0x00,0x00
5.616344958333333,0,0x00,0x00
5.617504833333333,0,0x00,0x11
5.618664666666667,0,0x00,0x00
5.619824541666667,0,0x00,0x00
5.620984416666666,0,0x00,0x00
5.622144250000000,0,0x00,0x55
5.623304125000000,0,0x00,0x00
5.624464000000000,0,0x00,0x02
5.625623833333333,0,0x00,0x00
5.626783708333333,0,0x00,0x11
5.627943541666666,0,0x00,0x00
5.629103416666666,0,0x00,0x00
5.630263291666667,0,0x00,0x00
5.631423166666667,0,0x00,0x15
5.632583000000000,0,0x00,0x00
5.633742875000000,0,0x00,0x00
5.634902750000000,0,0x00,0x00
5.636062583333334,0,0x00,0x55
5.637222458333333,0,0x00,0x00
5.638382333333333,0,0x00,0x23
5.639542166666667,0,0x00,0x00
5.640702041666667,0,0x00,0x55
5.641861916666667,0,0x00,0x00
5.643021791666667,0,0x00,0xAF
5.644181625000000,0,0x00,0x00
5.645341500000000,0,0x00,0x55
5.646501333333333,0,0x00,0x00
5.647661208333333,0,0x00,0x2B
5.648821083333333,0,0x00,0x00
5.649980958333333,0,0x00,0x55
5.651140791666666,0,0x00,0x00
5.652300666666667,0,0x00,0xAF
5.653460500000000,0,0x00,0x00
5.654620375000000,0,0x00,0x57
5.655780250000000,0,0x00,0x00
5.656940125000000,0,0x00,0xBF
5.658099958333334,0,0x00,0x00
5.659259833333333,0,0x00,0x57
5.660419708333333,0,0x00,0x00
5.661579583333333,0,0x00,0xFF
5.662739416666667,0,0x00,0x00
5.663899291666667,0,0x00,0x69
5.665059125000000,0,0x00,0x17
5.666219000000000,0,0x00,0xF2
5.667378875000000,0,0x00,0x0F
5.668538750000000,0,0x00,0xE9
5.669698583333333,0,0x00,0x17
5.670858458333333,0,0x00,0xF2
5.672018333333333,0,0x00,0x0F
5.673178166666666,0,0x00,0x61
5.674338041666667,0,0x00,0x1F
5.675497916666667,0,0x00,0xC3
5.676657750000000,0,0x00,0x3F
5.677817625000000,0,0x00,0xA5
5.678977458333334,0,0x00,0x5F
5.680137333333334,0,0x00,0x87
5.681297208333334,0,0x00,0x7F
5.682457083333333,0,0x00,0xFF
5.683616916666667,0,0x00,0xFF
5.684776791666667,0,0x00,0xFF
5.685936666666667,0,0x00,0xFF
5.687096500000000,0,0x00,0xFF
5.688256375000000,0,0x00,0xFF
5.689416250000000,0,0x00,0xFF
5.690576083333333,0,0x00,0xFF
5.691735958333333,0,0x00,0xFF
5.692895833333333,0,0x00,0xFF
5.694055708333333,0,0x00,0xFF
5.695215541666666,0,0x00,0xFF
5.696375416666666,0,0x00,0xFF
5.697535291666667,0,0x00,0xFF
5.698695125000000,0,0x00,0xFF
5.699855000000000,0,0x00,0xFF
5.701014875000000,0,0x00,0xFF
5.702174708333334,0,0x00,0xFF
5.703334583333334,0,0x00,0xFF
5.704494458333333,0,0x00,0xFF
5.705654291666667,0,0x00,0xFF
5.706814166666667,0,0x00,0xFF
5.707974041666667,0,0x00,0xFF
5.709133875000000,0,0x00,0xFF
5.710293750000000,0,0x00,0xFF
5.711453625000000,0,0x00,0xFF
5.712613458333333,0,0x00,0xFF
5.713773333333333,0,0x00,0xFF
5.714933208333333,0,0x00,0xFF
5.716093041666666,0,0x00,0xFF
5.717252916666666,0,0x00,0xFF
5.718412791666666,0,0x00,0xFF
5.719572666666667,0,0x00,0xFF
5.720732500000000,0,0x00,0xFF
5.721892375000000,0,0x00,0xFF
5.723113291666666,0,0x00,0xFF
5.724273125000000,0,0x00,0xFF
5.725433000000000,0,0x00,0xFF
5.726592875000000,0,0x00,0xFF
5.727752708333333,0,0x00,0xFF
5.728912583333333,0,0x00,0xFF
5.730072458333333,0,0x00,0xFF
5.731232291666666,0,0x00,0xFF
5.732392166666667,0,0x00,0xFF
5.733552041666667,0,0x00,0xFF
5.734711875000000,0,0x00,0xFF
5.735871750000000,0,0x00,0xFF
5.737031625000000,0,0x00,0xFF
5.738191500000000,0,0x00,0xFF
5.739351333333333,0,0x00,0xFF
5.740511208333333,0,0x00,0xFF
5.741671083333333,0,0x00,0xFF
5.742830916666667,0,0x00,0xFF
5.743990791666667,0,0x00,0xFF
5.745150666666667,0,0x00,0xFF
5.746310500000000,0,0x00,0xFF
5.747470375000000,0,0x00,0xFF
5.748630250000000,0,0x00,0xFF
5.749790083333333,0,0x00,0xFF
5.750949958333333,0,0x00,0xFF
5.752109833333333,0,0x00,0xFF
5.753269666666666,0,0x00,0xFF
5.754429541666667,0,0x00,0xFF
5.755589416666667,0,0x00,0xFF
5.756688208333333,0,0x00,0x5A
5.757787041666667,0,0x00,0x34
5.758885833333333,0,0x81,0x00
5.759984666666667,0,0x00,0x00
5.790446333333334,0,0x00,0x88
5.791545125000000,0,0x00,0x33
5.792704958333333,0,0x00,0x0F
5.793864833333333,0,0x00,0x00
5.795024708333333,0,0x00,0x00
5.796184583333333,0,0x00,0x00
5.797344416666666,0,0x00,0x0F
5.798504291666666,0,0x00,0x00
5.799664125000000,0,0x81,0x00
5.800824000000000,0,0x00,0x00
5.810347083333333,0,0x00,0x88
5.811445916666667,0,0x00,0x33
5.812605750000000,0,0x00,0x04
5.813765625000000,0,0x00,0x00
5.814925500000000,0,0x00,0x80
5.816085333333334,0,0x00,0x02
5.817245208333333,0,0x00,0xFF
5.818405083333333,0,0x00,0xFF
5.819564916666667,0,0x00,0xFF
5.820724791666667,0,0x00,0xFF
5.821884666666667,0,0x00,0xFF
5.823044541666667,0,0x00,0xFF
5.824204375000000,0,0x00,0xFF
5.825364250000000,0,0x00,0xFF
5.826524125000000,0,0x00,0xFF
5.827683958333333,0,0x00,0xFF
5.828843833333333,0,0x00,0xFF
5.830003708333333,0,0x00,0xFF
5.831163541666666,0,0x00,0xFF
5.832323416666667,0,0x00,0xFF
5.833483291666667,0,0x00,0xFF
5.834643125000000,0,0x00,0xFF
5.835803000000000,0,0x00,0xFF
5.836962875000000,0,0x00,0xFF
5.838122708333334,0,0x00,0xFF
5.839282583333333,0,0x00,0xFF
5.840442458333333,0,0x00,0xFF
5.841602291666667,0,0x00,0xFF
5.842762166666667,0,0x00,0xFF
5.843922041666667,0,0x00,0xFF
5.845081875000000,0,0x00,0xFF
5.846241750000000,0,0x00,0xFF
5.847401625000000,0,0x00,0xFF
5.848561500000000,0,0x00,0xFF
5.849721333333333,0,0x00,0xFF
5.850881208333333,0,0x00,0xFF
5.852041083333333,0,0x00,0xFF
5.853200916666666,0,0x00,0xFF
5.854360791666666,0,0x00,0xFF
5.855520666666667,0,0x00,0xFF
5.856680500000000,0,0x00,0xFF
5.857840375000000,0,0x00,0xFF
5.859000250000000,0,0x00,0xFF
5.860160083333334,0,0x00,0xFF
5.861319958333334,0,0x00,0xFF
5.862479833333333,0,0x00,0xFF
5.863639666666667,0,0x00,0xFF
5.864799541666667,0,0x00,0xFF
5.865959416666667,0,0x00,0xFF
5.867119250000000,0,0x00,0xFF
5.868279125000000,0,0x00,0xFF
5.869439000000000,0,0x00,0xFF
5.870598833333333,0,0x00,0xFF
5.871758708333333,0,0x00,0xFF
5.872918583333333,0,0x00,0xFF
5.874078458333333,0,0x00,0xFF
5.875238291666666,0,0x00,0xFF
5.876398166666666,0,0x00,0xFF
5.877558041666667,0,0x00,0xFF
5.878717875000000,0,0x00,0xFF
5.879877750000000,0,0x00,0xFF
5.881037625000000,0,0x00,0xFF
5.882197458333334,0,0x00,0xFF
5.883357333333334,0,0x00,0xFF
5.884517208333333,0,0x00,0xFF
5.885677041666667,0,0x00,0xFF
5.886836916666667,0,0x00,0xFF
5.887996791666667,0,0x00,0xFF
5.889156625000000,0,0x00,0xFF
5.890316500000000,0,0x00,0xFF
5.891476375000000,0,0x00,0xFB
5.892636208333333,0,0x00,0xFC
5.893796083333333,0,0x00,0xFF
5.894955958333333,0,0x00,0xF8
5.896115833333333,0,0x00,0xFF
5.897275666666666,0,0x00,0xFC
5.898435541666666,0,0x00,0xFD
5.899595375000000,0,0x00,0xFE
5.900755291666667,0,0x00,0xFC
5.901915125000000,0,0x00,0xFF
5.903075000000000,0,0x00,0xFC
5.904234875000000,0,0x00,0xFF
5.905394708333334,0,0x00,0xFD
5.906554583333333,0,0x00,0xFF
5.907714416666667,0,0x00,0xFF
5.908874291666667,0,0x00,0xFF
5.910034125000000,0,0x00,0x55
5.911194000000000,0,0x00,0x00
5.912353875000000,0,0x00,0xFA
5.913513750000000,0,0x00,0x00
5.914673583333333,0,0x00,0x55
5.915833458333333,0,0x00,0x00
5.916993333333333,0,0x00,0xFF
5.918153166666666,0,0x00,0x00
5.919313041666666,0,0x00,0xB7
5.920472875000000,0,0x00,0x40
5.921632791666666,0,0x00,0xFF
5.922792625000000,0,0x00,0x03
5.924013541666667,0,0x00,0xBF
5.925173375000000,0,0x00,0x47
5.926333250000000,0,0x00,0x1F
5.927493125000000,0,0x00,0xE7
5.928652958333333,0,0x00,0x51
5.929812833333333,0,0x00,0x00
5.930972708333333,0,0x00,0x00
5.932132583333333,0,0x00,0x00
5.933292416666666,0,0x00,0x55
5.934452291666667,0,0x00,0x00
5.935612166666667,0,0x00,0xA8
5.936772000000000,0,0x00,0x00
5.937931875000000,0,0x00,0x55
5.939091708333334,0,0x00,0x00
5.940251583333334,0,0x00,0x7A
5.941411458333334,0,0x00,0x80
5.942571333333333,0,0x00,0xD5
5.943731166666667,0,0x00,0xC0
5.944891041666667,0,0x00,0xFE
5.946050916666667,0,0x00,0xE0
5.947210791666667,0,0x00,0x10
5.948370625000000,0,0x00,0x00
5.949530500000000,0,0x00,0x00
5.950690375000000,0,0x00,0x00
5.951850208333333,0,0x00,0x54
5.953010083333333,0,0x00,0x00
5.954169958333333,0,0x00,0x00
5.955329791666666,0,0x00,0x00
5.956489666666666,0,0x00,0x55
5.957649500000000,0,0x00,0x00
5.958809375000000,0,0x00,0x22
5.959969250000000,0,0x00,0x00
5.961129125000000,0,0x00,0x55
5.962288958333334,0,0x00,0x00
5.963448833333334,0,0x00,0xAA
5.964608708333333,0,0x00,0x00
5.965768541666667,0,0x00,0x00
5.966928416666667,0,0x00,0x00
5.968088291666667,0,0x00,0x00
5.969248125000000,0,0x00,0x00
5.970408000000000,0,0x00,0x05
5.971567875000000,0,0x00,0x00
5.972727750000000,0,0x00,0x00
5.973887583333333,0,0x00,0x00
5.975047458333333,0,0x00,0x15
5.976207291666666,0,0x00,0x00
5.977367166666666,0,0x00,0x22
5.978527041666666,0,0x00,0x00
5.979686916666667,0,0x00,0x55
5.980846750000000,0,0x00,0x00
5.982006625000000,0,0x00,0xA8
5.983166500000000,0,0x00,0x00
5.984326333333334,0,0x00,0x11
5.985486208333334,0,0x00,0x00
5.986646083333333,0,0x00,0x00
5.987805916666667,0,0x00,0x00
5.988965791666667,0,0x00,0x55
5.990125625000000,0,0x00,0x00
5.991285500000000,0,0x00,0x00
5.992445375000000,0,0x00,0x00
5.993605250000000,0,0x00,0x55
5.994765083333333,0,0x00,0x00
5.995924958333333,0,0x00,0x22
5.997084833333333,0,0x00,0x00
5.998244708333333,0,0x00,0x55
5.999404541666666,0,0x00,0x00
6.000564416666666,0,0x00,0xAA
6.001724291666667,0,0x00,0x00
6.002884125000000,0,0x00,0x11
6.004044000000000,0,0x00,0x00
6.005203875000000,0,0x00,0x00
6.006363708333334,0,0x00,0x00
6.007523583333334,0,0x00,0x55
6.008683416666667,0,0x00,0x00
6.009843291666667,0,0x00,0x00
6.011003166666667,0,0x00,0x00
6.012163041666667,0,0x00,0x55
6.013322875000000,0,0x00,0x00
6.014482750000000,0,0x00,0x22
6.015642625000000,0,0x00,0x00
6.016802458333333,0,0x00,0x55
6.017962333333333,0,0x00,0x00
6.019122208333333,0,0x00,0xAA
6.020282041666666,0,0x00,0x00
6.021441916666666,0,0x00,0x11
6.022601791666666,0,0x00,0x00
6.023761666666666,0,0x00,0x00
6.024921500000000,0,0x00,0x00
6.026081375000000,0,0x00,0x55
6.027241208333334,0,0x00,0x00
6.028401125000000,0,0x00,0xAA
6.029560958333334,0,0x00,0x00
6.030720833333334,0,0x00,0x55
6.031880666666667,0,0x00,0x00
6.033040541666667,0,0x00,0x2B
6.034200375000000,0,0x00,0x00
6.035360250000000,0,0x00,0x55
6.036520125000000,0,0x00,0x00
6.037680000000000,0,0x00,0xAF
6.038839833333333,0,0x00,0x00
6.039999708333333,0,0x00,0x55
6.041281666666666,0,0x00,0x00
6.042441541666666,0,0x00,0x2B
6.043601375000000,0,0x00,0x00
6.044761250000000,0,0x00,0x55
6.045921083333333,0,0x00,0x00
6.047081000000000,0,0x00,0xAF
6.048240833333334,0,0x00,0x01
6.049400666666667,0,0x00,0x57
6.050560541666667,0,0x00,0x03
6.051720416666667,0,0x00,0xBF
6.052880250000000,0,0x00,0x03
6.054040125000000,0,0x00,0x57
6.055200000000000,0,0x00,0x03
6.056359875000000,0,0x00,0xFF
6.057519708333333,0,0x00,0x03
6.058679583333333,0,0x00,0x55
6.059839416666667,0,0x00,0x00
6.060999333333333,0,0x00,0xEF
6.062159166666667,0,0x00,0x30
6.063319041666666,0,0x00,0xFD
6.064478916666666,0,0x00,0xFC
6.065638791666666,0,0x00,0xFF
6.066798625000000,0,0x00,0xFC
6.067958500000000,0,0x00,0xFD
6.069118333333333,0,0x00,0xFE
6.070278208333334,0,0x00,0xFF
6.071438083333334,0,0x00,0xFE
6.072597958333334,0,0x00,0xFF
6.073757791666667,0,0x00,0xFE
6.074917666666667,0,0x00,0xFF
6.076077500000000,0,0x00,0xFE
6.077237375000000,0,0x00,0x76
6.078397250000000,0,0x00,0x01
6.079557083333333,0,0x00,0xFD
6.080716958333333,0,0x00,0x02
6.081876833333333,0,0x00,0xDA
6.083036666666667,0,0x00,0x05
6.084196541666667,0,0x00,0xF4
6.085356416666666,0,0x00,0x0B
6.086516250000000,0,0x00,0xE9
6.087676125000000,0,0x00,0x17
6.088836000000000,0,0x00,0xC2
6.089995875000000,0,0x00,0x3F
6.091155708333333,0,0x00,0xA9
6.092315583333333,0,0x00,0x57
6.093475416666666,0,0x00,0x42
6.094635333333334,0,0x00,0xBF
6.095795166666667,0,0x00,0x97
6.096955000000000,0,0x00,0x7F
6.098114875000000,0,0x00,0x0B
6.099274750000000,0,0x00,0xFF
6.100434583333334,0,0x00,0x17
6.101594458333333,0,0x00,0xFF
6.102754333333333,0,0x00,0x6F
6.103914208333333,0,0x00,0xFF
6.105074041666667,0,0x00,0x7F
6.106233916666667,0,0x00,0xFF
6.107393791666667,0,0x00,0xFF
6.108553625000000,0,0x00,0xFF
6.109713500000000,0,0x00,0xFF
6.110873375000000,0,0x00,0xFF
6.112033208333333,0,0x00,0xFF
6.113193083333333,0,0x00,0xFF
6.114352958333333,0,0x00,0xFF
6.115512791666666,0,0x00,0xFF
6.116672666666667,0,0x00,0xFF
6.117832541666667,0,0x00,0xFF
6.118992375000000,0,0x00,0xFF
6.120152250000000,0,0x00,0xFF
6.121312125000000,0,0x00,0xFF
6.122472000000000,0,0x00,0xFF
6.123631833333333,0,0x00,0xFF
6.124791708333333,0,0x00,0xFF
6.125951583333333,0,0x00,0xFF
6.127111416666667,0,0x00,0xFF
6.128271291666667,0,0x00,0xFF
6.129431166666667,0,0x00,0xFF
6.130591000000000,0,0x00,0xFF
6.131750875000000,0,0x00,0xFF
6.132910750000000,0,0x00,0xFF
6.134070583333333,0,0x00,0xFF
6.135230458333333,0,0x00,0xFF
6.136390333333333,0,0x00,0xFF
6.137550166666666,0,0x00,0xFF
6.138710041666666,0,0x00,0xFF
6.139869916666667,0,0x00,0xFF
6.141029750000000,0,0x00,0xFF
6.142189625000000,0,0x00,0xFF
6.143349500000000,0,0x00,0xFF
6.144509375000000,0,0x00,0xFF
6.145669208333334,0,0x00,0xFF
6.146829083333333,0,0x00,0xFF
6.147988958333333,0,0x00,0xFF
6.149148791666667,0,0x00,0xFF
6.150308666666667,0,0x00,0xFF
6.151468541666667,0,0x00,0xFF
6.152628375000000,0,0x00,0xFF
6.153788250000000,0,0x00,0xFF
6.154948125000000,0,0x00,0xFF
6.156107958333333,0,0x00,0xFF
6.157267833333333,0,0x00,0xFF
6.158488750000000,0,0x00,0xFF
6.159648583333333,0,0x00,0xFF
6.160808458333333,0,0x00,0xFF
6.161968333333333,0,0x00,0xFF
6.163128208333333,0,0x00,0xFF
6.164288041666667,0,0x00,0xFF
6.165447916666666,0,0x00,0xFF
6.166607791666666,0,0x00,0xFF
6.167767625000000,0,0x00,0xFF
6.168927500000000,0,0x00,0xFF
6.170087375000000,0,0x00,0xFF
6.171247208333333,0,0x00,0xFF
6.172407083333334,0,0x00,0xFF
6.173566958333334,0,0x00,0xFF
6.174726791666667,0,0x00,0xFF
6.175886666666667,0,0x00,0xFF
6.177046541666667,0,0x00,0xFF
6.178206375000000,0,0x00,0xFF
6.179366250000000,0,0x00,0xFF
6.180526125000000,0,0x00,0xFF
6.181685958333333,0,0x00,0xFF
6.182845833333333,0,0x00,0xFF
6.184005708333333,0,0x00,0xFF
6.185165541666667,0,0x00,0xFF
6.186325416666667,0,0x00,0xFF
6.187485291666666,0,0x00,0xFF
6.188645166666666,0,0x00,0xFF
6.189805000000000,0,0x00,0xFF
6.190964875000000,0,0x00,0xFF
6.192124750000000,0,0x00,0xFF
6.193284583333333,0,0x00,0xFF
6.194444458333333,0,0x00,0xFF
6.195604333333334,0,0x00,0xFF
6.196764166666667,0,0x00,0xFF
6.197924041666667,0,0x00,0xFF
6.199083916666667,0,0x00,0xFF
6.200243750000000,0,0x00,0xFF
6.201403625000000,0,0x00,0xFF
6.202563500000000,0,0x00,0xFF
6.203723333333333,0,0x00,0xFF
6.204883208333333,0,0x00,0xFF
6.206043083333333,0,0x00,0xFF
6.207202916666667,0,0x00,0xFF
6.208362791666667,0,0x00,0xFF
6.209522666666667,0,0x00,0xFF
6.210682500000000,0,0x00,0xFF
6.211842375000000,0,0x00,0xFF
6.213002250000000,0,0x00,0xFF
6.214162083333333,0,0x00,0xFF
6.215321958333333,0,0x00,0xFF
6.216481833333333,0,0x00,0xFF
6.217641708333334,0,0x00,0xFF
6.218801541666667,0,0x00,0xFF
6.219961416666667,0,0x00,0xFF
6.221121291666667,0,0x00,0xFF
6.222281125000000,0,0x00,0xFF
6.223441000000000,0,0x00,0xFF
6.224600875000000,0,0x00,0xFF
6.225760708333334,0,0x00,0xFF
6.226920583333333,0,0x00,0xFF
6.228080458333333,0,0x00,0xFF
6.229240291666667,0,0x00,0xFF
6.230400166666667,0,0x00,0xFF
6.231560041666667,0,0x00,0xFF
6.232719875000000,0,0x00,0xFF
6.233879750000000,0,0x00,0xFF
6.235039625000000,0,0x00,0xFF
6.236199458333333,0,0x00,0xFF
6.237359333333333,0,0x00,0xFF
6.238519208333333,0,0x00,0xFF
6.239679041666666,0,0x00,0xFF
6.240838916666666,0,0x00,0xFF
6.241998791666667,0,0x00,0xFF
6.243158666666667,0,0x00,0xFF
6.244318500000000,0,0x00,0xFF
6.245478375000000,0,0x00,0xFF
6.246638250000000,0,0x00,0xFF
6.247798083333334,0,0x00,0xFF
6.248957958333333,0,0x00,0xFF
6.250117833333333,0,0x00,0xFF
6.251277666666667,0,0x00,0xFF
6.252437541666667,0,0x00,0xFF
6.253597416666667,0,0x00,0xFF
6.254757250000000,0,0x00,0xFF
6.255917125000000,0,0x00,0xFF
6.257077000000000,0,0x00,0xFF
6.258236833333333,0,0x00,0xFF
6.259396708333333,0,0x00,0xFF
6.260556583333333,0,0x00,0xFF
6.261716416666666,0,0x00,0xFF
6.262876291666666,0,0x00,0xFF
6.264036166666667,0,0x00,0xFF
6.265196000000000,0,0x00,0xFF
6.266355875000000,0,0x00,0xFF
6.267515750000000,0,0x00,0xFF
6.268675625000000,0,0x00,0xFF
6.269835458333334,0,0x00,0xFF
6.270995333333333,0,0x00,0xFF
6.272155208333333,0,0x00,0xFF
6.273315041666667,0,0x00,0xFF
6.274474916666667,0,0x00,0xFF
6.275695833333334,0,0x00,0xFF
6.276855666666667,0,0x00,0xFF
6.278015541666667,0,0x00,0xFF
6.279175416666667,0,0x00,0xFF
6.280335250000000,0,0x00,0xFF
6.281495125000000,0,0x00,0x6F
6.282655000000000,0,0x00,0xD7
6.283814833333333,0,0x00,0xC3
6.284974708333333,0,0x00,0xFF
6.286134583333333,0,0x00,0xDB
6.287294458333333,0,0x00,0xF7
6.288454291666667,0,0x00,0xE1
6.289614166666667,0,0x00,0xFF
6.290774000000000,0,0x00,0xF7
6.291933875000000,0,0x00,0xFD
6.293093750000000,0,0x00,0xFF
6.294253625000000,0,0x00,0xFC
6.295413500000000,0,0x00,0xFF
6.296573333333333,0,0x00,0xFE
6.297733208333334,0,0x00,0xFF
6.298893041666667,0,0x00,0xFF
6.300052916666667,0,0x00,0xE5
6.301212791666667,0,0x00,0xF0
6.302372666666667,0,0x00,0xFF
6.303532500000000,0,0x00,0xF0
6.304692375000000,0,0x00,0xFD
6.305852208333333,0,0x00,0xF0
6.307012083333333,0,0x00,0xF7
6.308171958333333,0,0x00,0xF8
6.309331833333333,0,0x00,0xFA
6.310491666666667,0,0x00,0xFD
6.311651541666667,0,0x00,0xF8
6.312811416666666,0,0x00,0xFF
6.313971250000000,0,0x00,0x7A
6.315131125000000,0,0x00,0x7D
6.316290958333333,0,0x00,0x38
6.317450833333333,0,0x00,0x37
6.318610708333333,0,0x00,0x55
6.319770541666666,0,0x00,0x00
6.320930458333334,0,0x00,0xBA
6.322090291666667,0,0x00,0x00
6.323250166666667,0,0x00,0x55
6.324410000000000,0,0x00,0x00
6.325569875000000,0,0x00,0xFE
6.326729750000000,0,0x00,0x00
6.327889625000000,0,0x00,0xF7
6.329049458333333,0,0x00,0x00
6.330209333333333,0,0x00,0xFF
6.331369166666667,0,0x00,0x00
6.332529041666667,0,0x00,0xAB
6.333688875000000,0,0x00,0x54
6.334848750000000,0,0x00,0x01
6.336008625000000,0,0x00,0xFE
6.337168500000000,0,0x00,0x55
6.338328333333333,0,0x00,0x00
6.339488208333333,0,0x00,0xBB
6.340648083333333,0,0x00,0x00
6.341807958333334,0,0x00,0x55
6.342967791666666,0,0x00,0x00
6.344127666666667,0,0x00,0xFF
6.345287500000000,0,0x00,0x00
6.346447375000000,0,0x00,0x55
6.347607250000000,0,0x00,0x00
6.348767125000000,0,0x00,0xFF
6.349926958333334,0,0x00,0x00
6.351086833333333,0,0x00,0xFD
6.352246666666667,0,0x00,0x00
6.353406583333333,0,0x00,0xFF
6.354566416666667,0,0x00,0x00
6.355726291666667,0,0x00,0x55
6.356886125000000,0,0x00,0x00
6.358046000000000,0,0x00,0xBB
6.359205833333333,0,0x00,0x00
6.360365708333333,0,0x00,0x55
6.361525583333333,0,0x00,0x00
6.362685458333333,0,0x00,0xFF
6.363845291666666,0,0x00,0x00
6.365005166666666,0,0x00,0x55
6.366165041666667,0,0x00,0x00
6.367324916666667,0,0x00,0xBF
6.368484750000000,0,0x00,0x00
6.369644625000000,0,0x00,0x55
6.370804458333334,0,0x00,0x00
6.371964375000000,0,0x00,0x81
6.373124208333333,0,0x00,0x00
6.374284083333333,0,0x00,0x55
6.375443916666667,0,0x00,0x00
6.376603791666667,0,0x00,0xBB
6.377763625000000,0,0x00,0x00
6.378923500000000,0,0x00,0x55
6.380083375000000,0,0x00,0x00
6.381243250000000,0,0x00,0xFF
6.382403083333333,0,0x00,0x00
6.383562958333333,0,0x00,0x77
6.384722791666666,0,0x00,0x00
6.385882708333333,0,0x00,0xFF
6.387042541666666,0,0x00,0x00
6.388202416666667,0,0x00,0xFF
6.389362250000000,0,0x00,0x00
6.390522125000000,0,0x00,0xFF
6.391682000000000,0,0x00,0x00
6.392902916666666,0,0x00,0x55
6.394062750000000,0,0x00,0x00
6.395222625000000,0,0x00,0xBB
6.396382458333333,0,0x00,0x00
6.397542333333333,0,0x00,0x55
6.398702208333333,0,0x00,0x00
6.399862083333334,0,0x00,0xFF
6.401021916666667,0,0x00,0x00
6.402181791666667,0,0x00,0x76
6.403341666666667,0,0x00,0x01
6.404501500000000,0,0x00,0xFF
6.405661375000000,0,0x00,0x00
6.406821250000000,0,0x00,0xAA
6.407981083333333,0,0x00,0x55
6.409140958333333,0,0x00,0x74
6.410300833333333,0,0x00,0x8B
6.411460666666667,0,0x00,0x73
6.412620541666667,0,0x00,0x07
6.413780416666667,0,0x00,0xFF
6.414940250000000,0,0x00,0x03
6.416100125000000,0,0x00,0xFB
6.417260000000000,0,0x00,0x07
6.418419875000000,0,0x00,0xFF
6.419579708333333,0,0x00,0x03
6.420739583333333,0,0x00,0xAB
6.421899416666666,0,0x00,0x55
6.423059291666666,0,0x00,0xD1
6.424219166666667,0,0x00,0x2E
6.425379041666667,0,0x00,0xAA
6.426538875000000,0,0x00,0x55
6.427698750000000,0,0x00,0x00
6.428858625000000,0,0x00,0xFF
6.430018458333334,0,0x00,0xFD
6.431178333333333,0,0x00,0xFE
6.432338208333333,0,0x00,0xFF
6.433498041666667,0,0x00,0xFC
6.434657916666667,0,0x00,0xFC
6.435817791666667,0,0x00,0xFD
6.436977625000000,0,0x00,0xFE
6.438137500000000,0,0x00,0xF9
6.439297375000000,0,0x00,0xF3
6.440457250000000,0,0x00,0xF3
6.441617083333333,0,0x00,0xA3
6.442776958333333,0,0x00,0x47
6.443936833333333,0,0x00,0xDF
6.445096666666666,0,0x00,0x0F
6.446256541666667,0,0x00,0xFF
6.447416416666667,0,0x00,0xFF
6.448576250000000,0,0x00,0x85
6.449736125000000,0,0x00,0x7F
6.450895958333334,0,0x00,0x0B
6.452055833333334,0,0x00,0xFF
6.453215708333333,0,0x00,0x57
6.454375583333333,0,0x00,0xFF
6.455535416666667,0,0x00,0xEF
6.456695291666667,0,0x00,0xFF
6.457855125000000,0,0x00,0x7F
6.459015000000000,0,0x00,0xFF
6.460174875000000,0,0x00,0xFF
6.461334750000000,0,0x00,0xFF
6.462494583333333,0,0x00,0xFF
6.463654458333333,0,0x00,0xFF
6.464814333333333,0,0x00,0xFF
6.465974208333333,0,0x00,0xFF
6.467134041666666,0,0x00,0xFF
6.468293916666667,0,0x00,0xFF
6.469453791666667,0,0x00,0xFF
6.470613625000000,0,0x00,0xFF
6.471773500000000,0,0x00,0xFF
6.472933375000000,0,0x00,0xFF
6.474093208333334,0,0x00,0xFF
6.475253083333333,0,0x00,0xFF
6.476412958333333,0,0x00,0xFF
6.477572791666667,0,0x00,0xFF
6.478732666666667,0,0x00,0xFF
6.479892541666667,0,0x00,0xFF
6.481052375000000,0,0x00,0xFF
6.482212250000000,0,0x00,0xFF
6.483372125000000,0,0x00,0xFF
6.484531958333333,0,0x00,0xFF
6.485691833333333,0,0x00,0xFF
6.486851708333333,0,0x00,0xFF
6.488011541666666,0,0x00,0xFF
6.489171416666666,0,0x00,0xFF
6.490331291666666,0,0x00,0xFF
6.491491166666667,0,0x00,0xFF
6.492651000000000,0,0x00,0xFF
6.493810875000000,0,0x00,0xFF
6.494970750000000,0,0x00,0xFF
6.496130583333334,0,0x00,0xFF
6.497290458333334,0,0x00,0xFF
6.498450333333333,0,0x00,0xFF
6.499610166666667,0,0x00,0xFF
6.500770041666667,0,0x00,0xFF
6.501929916666667,0,0x00,0xFF
6.503089750000000,0,0x00,0xFF
6.504249625000000,0,0x00,0xFF
6.505409500000000,0,0x00,0xFF
6.506569333333333,0,0x00,0xFF
6.507729208333333,0,0x00,0xFF
6.508889083333333,0,0x00,0xFF
6.510109958333334,0,0x00,0xFF
6.511269833333333,0,0x00,0xFF
6.512429708333333,0,0x00,0xFF
6.513589583333333,0,0x00,0xFF
6.514749416666667,0,0x00,0xFF
6.515909291666667,0,0x00,0xFF
6.517069166666666,0,0x00,0xFF
6.518229000000000,0,0x00,0xFF
6.519388875000000,0,0x00,0xFF
6.520548750000000,0,0x00,0xFF
6.521708583333333,0,0x00,0xFF
6.522868458333333,0,0x00,0xFF
6.524028333333334,0,0x00,0xFF
6.525188166666666,0,0x00,0xFF
6.526348041666667,0,0x00,0xFF
6.527507916666667,0,0x00,0xFF
6.528667750000000,0,0x00,0xFF
6.529827625000000,0,0x00,0xFF
6.530987500000000,0,0x00,0xFF
6.532147333333334,0,0x00,0xFF
6.533307208333333,0,0x00,0xFF
6.534467083333333,0,0x00,0xFF
6.535626916666667,0,0x00,0xFF
6.536786791666667,0,0x00,0xFF
6.537946666666667,0,0x00,0xFF
6.539106541666666,0,0x00,0xFF
6.540266375000000,0,0x00,0xFF
6.541426250000000,0,0x00,0xFF
6.542586125000000,0,0x00,0xFF
6.543745958333333,0,0x00,0xFF
6.544905833333333,0,0x00,0xFF
6.546065708333333,0,0x00,0xFF
6.547225541666666,0,0x00,0xFF
6.548385416666667,0,0x00,0xFF
6.549545291666667,0,0x00,0xFF
6.550705125000000,0,0x00,0xFF
6.551865000000000,0,0x00,0xFF
6.553024875000000,0,0x00,0xFF
6.554184708333334,0,0x00,0xFF
6.555344583333333,0,0x00,0xFF
6.556504458333333,0,0x00,0xFF
6.557664291666667,0,0x00,0xFF
6.558824166666667,0,0x00,0xFF
6.559923000000000,0,0x00,0xA3
6.561021791666667,0,0x00,0xC3
6.562120583333333,0,0x81,0x00
6.563219416666667,0,0x00,0x00
6.614619625000000,0,0x00,0x88
6.615718458333333,0,0x00,0x33
6.616878291666667,0,0x00,0x04
6.618038166666667,0,0x00,0x00
6.619198041666666,0,0x00,0x80
6.620357875000000,0,0x00,0x02
6.621517750000000,0,0x00,0xFF
6.622677625000000,0,0x00,0xFF
6.623837458333333,0,0x00,0xFF
6.624997333333333,0,0x00,0xFF
6.626157208333334,0,0x00,0xFF
6.627378083333333,0,0x00,0xFF
6.628537958333333,0,0x00,0xFF
6.629697833333333,0,0x00,0xFF
6.630857708333333,0,0x00,0xFF
6.632017541666666,0,0x00,0xFF
6.633177416666666,0,0x00,0xFF
6.634337291666666,0,0x00,0xFF
6.635497125000000,0,0x00,0xFF
6.636657000000000,0,0x00,0xFF
6.637816875000000,0,0x00,0xFF
6.638976708333334,0,0x00,0xFF
6.640136583333334,0,0x00,0xFF
6.641296458333334,0,0x00,0xFF
6.642456291666667,0,0x00,0xFF
6.643616166666667,0,0x00,0xFF
6.644776041666667,0,0x00,0xFF
6.645935875000000,0,0x00,0xFF
6.647095750000000,0,0x00,0xFF
6.648255625000000,0,0x00,0xFF
6.649415458333333,0,0x00,0xFF
6.650575333333333,0,0x00,0xFF
6.651735208333333,0,0x00,0xFF
6.652895041666667,0,0x00,0xFF
6.654054916666666,0,0x00,0xFF
6.655214791666666,0,0x00,0xFF
6.656374666666666,0,0x00,0xFF
6.657534500000000,0,0x00,0xFF
6.658694375000000,0,0x00,0xFF
6.659854250000000,0,0x00,0xFF
6.661014083333333,0,0x00,0xFF
6.662173958333334,0,0x00,0xFF
6.663333833333334,0,0x00,0xFF
6.664493666666667,0,0x00,0xFF
6.665653541666667,0,0x00,0xFF
6.666813416666667,0,0x00,0xFF
6.667973250000000,0,0x00,0xFF
6.669133125000000,0,0x00,0xFF
6.670293000000000,0,0x00,0xFF
6.671452833333333,0,0x00,0xFF
6.672612708333333,0,0x00,0xFF
6.673772583333333,0,0x00,0xFF
6.674932416666667,0,0x00,0xFF
6.676092291666667,0,0x00,0xFF
6.677252166666666,0,0x00,0xFF
6.678412000000000,0,0x00,0xFF
6.679571875000000,0,0x00,0xFF
6.680731750000000,0,0x00,0xFF
6.681891583333333,0,0x00,0xFF
6.683051458333333,0,0x00,0xFF
6.684211333333334,0,0x00,0xFF
6.685371208333334,0,0x00,0xFF
6.686531041666667,0,0x00,0xFF
6.687690916666667,0,0x00,0xFF
6.688850791666667,0,0x00,0xFF
6.690010625000000,0,0x00,0xFF
6.691170500000000,0,0x00,0xFF
6.692330375000000,0,0x00,0xFF
6.693490208333333,0,0x00,0xFF
6.694650083333333,0,0x00,0xFF
6.695809958333333,0,0x00,0xFF
6.696969791666667,0,0x00,0xFF
6.698129666666667,0,0x00,0xFF
6.699289541666666,0,0x00,0xFF
6.700449375000000,0,0x00,0xFF
6.701609250000000,0,0x00,0xFF
6.702769125000000,0,0x00,0xFF
6.703928958333333,0,0x00,0xFF
6.705088833333333,0,0x00,0xFF
6.706248708333334,0,0x00,0xFF
6.707408541666666,0,0x00,0xFF
6.708568416666667,0,0x00,0xFF
6.709728291666667,0,0x00,0xFF
6.710888166666667,0,0x00,0xFF
6.712048000000000,0,0x00,0xFF
6.713207875000000,0,0x00,0xFF
6.714367750000000,0,0x00,0xFF
6.715527583333333,0,0x00,0xFF
6.716687458333333,0,0x00,0xFF
6.717847333333333,0,0x00,0xFF
6.719007166666667,0,0x00,0xFF
6.720167041666667,0,0x00,0xFF
6.721326916666666,0,0x00,0xFF
6.722486750000000,0,0x00,0xFF
6.723646625000000,0,0x00,0xFF
6.724806500000000,0,0x00,0xFF
6.725966333333333,0,0x00,0xFF
6.727126208333333,0,0x00,0xFF
6.728286083333333,0,0x00,0xFF
6.729445916666666,0,0x00,0xFF
6.730605791666667,0,0x00,0xFF
6.731765666666667,0,0x00,0xFF
6.732925500000000,0,0x00,0xCD
6.734085375000000,0,0x00,0x87
6.735245250000000,0,0x00,0xFF
6.736405125000000,0,0x00,0xFF
6.737564958333333,0,0x00,0xFD
6.738724833333333,0,0x00,0xFF
6.739884708333333,0,0x00,0xFF
6.741044541666667,0,0x00,0xFF
6.742204416666667,0,0x00,0xFF
6.743364291666667,0,0x00,0xFF
6.744585166666667,0,0x00,0xFF
6.745745041666667,0,0x00,0xFF
6.746904916666667,0,0x00,0xFF
6.748064750000000,0,0x00,0xFF
6.749224625000000,0,0x00,0xFF
6.750384500000000,0,0x00,0xFF
6.751544333333333,0,0x00,0x1A
6.752704208333333,0,0x00,0xF5
6.753864083333333,0,0x00,0x21
6.755023958333333,0,0x00,0xFE
6.756183791666666,0,0x00,0x54
6.757343666666666,0,0x00,0xFF
6.758503541666666,0,0x00,0xF2
6.759663416666666,0,0x00,0xFF
6.760823250000000,0,0x00,0x7F
6.761983125000000,0,0x00,0xFF
6.763142958333333,0,0x00,0xFF
6.764302833333334,0,0x00,0xFF
6.765462708333334,0,0x00,0xFF
6.766622541666667,0,0x00,0xFF
6.767782416666667,0,0x00,0xFF
6.768942291666667,0,0x00,0xFF
6.770102125000000,0,0x00,0xEF
6.771262000000000,0,0x00,0x10
6.772421875000000,0,0x00,0x5E
6.773581750000000,0,0x00,0xA0
6.774741583333333,0,0x00,0xA9
6.775901416666667,0,0x00,0x54
6.777061291666667,0,0x00,0x01
6.778221166666667,0,0x00,0xFE
6.779381041666666,0,0x00,0x4B
6.780540875000000,0,0x00,0xF7
6.781700750000000,0,0x00,0x41
6.782860625000000,0,0x00,0xFF
6.784020458333333,0,0x00,0x55
6.785180333333333,0,0x00,0xFF
6.786340208333334,0,0x00,0xFF
6.787500083333334,0,0x00,0xFF
6.788659916666667,0,0x00,0x01
6.789819791666667,0,0x00,0x00
6.790979666666667,0,0x00,0x02
6.792139500000000,0,0x00,0x00
6.793299375000000,0,0x00,0x55
6.794459208333333,0,0x00,0x00
6.795619125000000,0,0x00,0xFF
6.796778958333333,0,0x00,0x00
6.797938833333333,0,0x00,0x09
6.799098666666667,0,0x00,0xF7
6.800258541666667,0,0x00,0xFF
6.801418416666666,0,0x00,0xFF
6.802578250000000,0,0x00,0xFF
6.803738125000000,0,0x00,0xFF
6.804898000000000,0,0x00,0xFF
6.806057833333333,0,0x00,0xFF
6.807217708333333,0,0x00,0x6A
6.808377583333334,0,0x00,0x15
6.809537458333334,0,0x00,0x84
6.810697291666667,0,0x00,0x3B
6.811857166666667,0,0x00,0xAA
6.813017041666667,0,0x00,0x55
6.814176875000000,0,0x00,0x30
6.815336750000000,0,0x00,0xFF
6.816496583333334,0,0x00,0x79
6.817656458333333,0,0x00,0xF7
6.818816333333333,0,0x00,0xE7
6.819976208333333,0,0x00,0xFF
6.821136041666667,0,0x00,0xD7
6.822295916666667,0,0x00,0xFF
6.823455791666666,0,0x00,0xFF
6.824615625000000,0,0x00,0xFF
6.825775500000000,0,0x00,0xAA
6.826935375000000,0,0x00,0x55
6.828095208333333,0,0x00,0x40
6.829255083333333,0,0x00,0xBF
6.830414958333333,0,0x00,0x85
6.831574791666666,0,0x00,0x7F
6.832734666666667,0,0x00,0x03
6.833894541666667,0,0x00,0xFF
6.835054375000000,0,0x00,0x57
6.836214250000000,0,0x00,0xFF
6.837374125000000,0,0x00,0xFF
6.838534000000000,0,0x00,0xFF
6.839693833333333,0,0x00,0xDF
6.840853708333333,0,0x00,0xFF
6.842013583333333,0,0x00,0xFF
6.843173416666667,0,0x00,0xFF
6.844333291666667,0,0x00,0x81
6.845493125000000,0,0x00,0x7F
6.846653000000000,0,0x00,0x03
6.847812875000000,0,0x00,0xFF
6.848972708333333,0,0x00,0x55
6.850132583333333,0,0x00,0xFF
6.851292458333333,0,0x00,0xFF
6.852452333333333,0,0x00,0xFF
6.853612166666666,0,0x00,0xFF
6.854772041666667,0,0x00,0xFF
6.855931916666667,0,0x00,0xFF
6.857091750000000,0,0x00,0xFF
6.858251625000000,0,0x00,0xFF
6.859411500000000,0,0x00,0xFF
6.860571375000000,0,0x00,0xFF
6.861792250000000,0,0x00,0xFF
6.862952125000000,0,0x00,0x77
6.864112000000000,0,0x00,0xFF
6.865271833333333,0,0x00,0xFF
6.866431708333334,0,0x00,0xFF
6.867591583333334,0,0x00,0xFF
6.868751416666667,0,0x00,0xFF
6.869911291666667,0,0x00,0xFF
6.871071166666667,0,0x00,0xFF
6.872231000000000,0,0x00,0xFF
6.873390875000000,0,0x00,0xFF
6.874550750000000,0,0x00,0xFF
6.875710583333333,0,0x00,0xFF
6.876870458333333,0,0x00,0xFF
6.878030333333333,0,0x00,0xFF
6.879190166666667,0,0x00,0xFF
6.880350041666667,0,0x00,0xFF
6.881509916666666,0,0x00,0xFF
6.882669791666666,0,0x00,0xFF
6.883829625000000,0,0x00,0xFF
6.884989500000000,0,0x00,0xFF
6.886149375000000,0,0x00,0xFF
6.887309208333333,0,0x00,0xFF
6.888469083333334,0,0x00,0xFF
6.889628958333334,0,0x00,0xFF
6.890788791666667,0,0x00,0xFF
6.891948666666667,0,0x00,0xFF
6.893108541666667,0,0x00,0xFF
6.894268375000000,0,0x00,0xFF
6.895428250000000,0,0x00,0xFF
6.896588125000000,0,0x00,0xFF
6.897747958333333,0,0x00,0xFF
6.898907833333333,0,0x00,0xFF
6.900067708333333,0,0x00,0xFF
6.901227541666667,0,0x00,0xFF
6.902387416666667,0,0x00,0xFF
6.903547291666666,0,0x00,0xFF
6.904707125000000,0,0x00,0xFF
6.905867000000000,0,0x00,0xFF
6.907026875000000,0,0x00,0xFF
6.908186750000000,0,0x00,0xFF
6.909346583333333,0,0x00,0xFF
6.910506458333334,0,0x00,0xFF
6.911666333333334,0,0x00,0xFF
6.912826166666667,0,0x00,0xFF
6.913986041666667,0,0x00,0xFF
6.915145916666667,0,0x00,0xFF
6.916305750000000,0,0x00,0xFF
6.917465625000000,0,0x00,0xFF
6.918625500000000,0,0x00,0xFF
6.919785333333333,0,0x00,0xFF
6.920945208333333,0,0x00,0xFF
6.922105083333333,0,0x00,0xFF
6.923264916666667,0,0x00,0xFF
6.924424791666667,0,0x00,0xFF
6.925584666666667,0,0x00,0xFF
6.926744500000000,0,0x00,0xFF
6.927904375000000,0,0x00,0xFF
6.929064250000000,0,0x00,0xFF
6.930224083333333,0,0x00,0xFF
6.931383958333333,0,0x00,0xFF
6.932543833333333,0,0x00,0xFF
6.933703708333334,0,0x00,0xFF
6.934863541666667,0,0x00,0xFF
6.936023416666667,0,0x00,0xFF
6.937183291666667,0,0x00,0xFF
6.938343125000000,0,0x00,0xFF
6.939503000000000,0,0x00,0xFF
6.940662875000000,0,0x00,0xFF
6.941822708333333,0,0x00,0xFF
6.942982583333333,0,0x00,0xFF
6.944142458333333,0,0x00,0xFF
6.945302291666667,0,0x00,0xFF
6.946462166666667,0,0x00,0xFF
6.947622041666667,0,0x00,0xFF
6.948781875000000,0,0x00,0xFF
6.949941750000000,0,0x00,0xFF
6.951101625000000,0,0x00,0xFF
6.952261458333333,0,0x00,0xFF
6.953421333333333,0,0x00,0xFF
6.954581208333333,0,0x00,0xFF
6.955741041666666,0,0x00,0xFF
6.956900916666667,0,0x00,0xFF
6.958060791666667,0,0x00,0xFF
6.959220666666667,0,0x00,0xFF
6.960380500000000,0,0x00,0xFF
6.961540375000000,0,0x00,0xFF
6.962700250000000,0,0x00,0xFF
6.963860083333334,0,0x00,0xFF
6.965019958333333,0,0x00,0xFF
6.966179833333333,0,0x00,0xFF
6.967339666666667,0,0x00,0xFF
6.968499541666667,0,0x00,0xFF
6.969659416666667,0,0x00,0xFF
6.970819250000000,0,0x00,0xFF
6.971979125000000,0,0x00,0xFF
6.973139000000000,0,0x00,0xFF
6.974298833333333,0,0x00,0xFF
6.975458708333333,0,0x00,0xFF
6.976618583333333,0,0x00,0xFF
6.977778416666666,0,0x00,0xFF
6.978999333333333,0,0x00,0xFF
6.980159208333333,0,0x00,0xFF
6.981319083333333,0,0x00,0xFF
6.982478916666667,0,0x00,0xFF
6.983638791666666,0,0x00,0xFF
6.984798666666666,0,0x00,0xFF
6.985958500000000,0,0x00,0xFF
6.987118375000000,0,0x00,0xFF
6.988278250000000,0,0x00,0xFF
6.989438083333333,0,0x00,0xFF
6.990597958333334,0,0x00,0xFF
6.991757833333334,0,0x00,0xFF
6.992917666666667,0,0x00,0xFF
6.994077541666667,0,0x00,0xFF
6.995237416666667,0,0x00,0xFF
6.996397250000000,0,0x00,0xFF
6.997557125000000,0,0x00,0xFF
6.998717000000000,0,0x00,0xFF
6.999876833333333,0,0x00,0xFF
7.001036708333333,0,0x00,0xFF
7.002196583333333,0,0x00,0xFF
7.003356416666667,0,0x00,0xFF
7.004516291666667,0,0x00,0xFF
7.005676166666666,0,0x00,0xFF
7.006836041666666,0,0x00,0xFF
7.007995875000000,0,0x00,0xFF
7.009155750000000,0,0x00,0xFF
7.010315625000000,0,0x00,0xFF
7.011475458333333,0,0x00,0xFF
7.012635333333334,0,0x00,0xFF
7.013795208333334,0,0x00,0xFF
7.014955041666667,0,0x00,0xFF
7.016114916666667,0,0x00,0xFF
7.017274791666667,0,0x00,0xFF
7.018434625000000,0,0x00,0xFF
7.019594500000000,0,0x00,0xFF
7.020754375000000,0,0x00,0xFF
7.021914208333333,0,0x00,0xFF
7.023074083333333,0,0x00,0xFF
7.024233958333333,0,0x00,0xFF
7.025393791666667,0,0x00,0xFF
7.026553666666667,0,0x00,0xFF
7.027713541666667,0,0x00,0xFF
7.028873375000000,0,0x00,0xFF
7.030033250000000,0,0x00,0xFF
7.031193125000000,0,0x00,0xFF
7.032353000000000,0,0x00,0xFF
7.033512833333333,0,0x00,0xFF
7.034672708333333,0,0x00,0xFF
7.035832583333334,0,0x00,0xFF
7.036992416666667,0,0x00,0xFF
7.038152291666667,0,0x00,0xFF
7.039312166666667,0,0x00,0xFF
7.040472000000000,0,0x00,0xFF
7.041631875000000,0,0x00,0xFF
7.042791750000000,0,0x00,0xFF
7.043951583333333,0,0x00,0xFF
7.045111458333333,0,0x00,0xFF
7.046271333333333,0,0x00,0xFF
7.047431166666667,0,0x00,0xFF
7.048591041666667,0,0x00,0xFF
7.049750916666667,0,0x00,0xFF
7.050910750000000,0,0x00,0xFF
7.052070625000000,0,0x00,0xFF
7.053230500000000,0,0x00,0xFF
7.054390333333333,0,0x00,0xFF
7.055550208333333,0,0x00,0xFF
7.056710083333333,0,0x00,0xFF
7.057869916666666,0,0x00,0xFF
7.059029791666667,0,0x00,0xFF
7.060189666666667,0,0x00,0xFF
7.061349541666667,0,0x00,0xFF
7.062509375000000,0,0x00,0xFF
7.063669250000000,0,0x00,0xFF
7.064829125000000,0,0x00,0xFF
7.065988958333334,0,0x00,0xFF
7.067148833333333,0,0x00,0xFF
7.068308708333333,0,0x00,0xFF
7.069468541666667,0,0x00,0xFF
7.070628416666667,0,0x00,0xFF
7.071788291666667,0,0x00,0xFF
7.072948125000000,0,0x00,0xFF
7.074108000000000,0,0x00,0xFF
7.075267875000000,0,0x00,0xFF
7.076427708333333,0,0x00,0xFF
7.077587583333333,0,0x00,0xFF
7.078747458333333,0,0x00,0xFF
7.079907291666666,0,0x00,0xFF
7.081067166666666,0,0x00,0xFF
7.082227041666667,0,0x00,0xFF
7.083386875000000,0,0x00,0xFF
7.084546750000000,0,0x00,0xFF
7.085706625000000,0,0x00,0xFF
7.086866500000000,0,0x00,0xFF
7.088026333333334,0,0x00,0xFF
7.089186208333333,0,0x00,0xFF
7.090346083333333,0,0x00,0xFF
7.091505916666667,0,0x00,0xFF
7.092665791666667,0,0x00,0xFF
7.093825666666667,0,0x00,0xFF
7.094985500000000,0,0x00,0xFF
7.096206416666667,0,0x00,0xFF
7.097366291666667,0,0x00,0xFF
7.098526125000000,0,0x00,0xFF
7.099686000000000,0,0x00,0xFF
7.100845875000000,0,0x00,0xFF
7.102005708333333,0,0x00,0xFF
7.103165583333333,0,0x00,0xFF
7.104325458333333,0,0x00,0xFC
7.105485333333333,0,0x00,0xFF
7.106645166666667,0,0x00,0xFD
7.107805041666666,0,0x00,0xFE
7.108964916666666,0,0x00,0xFF
7.110124750000000,0,0x00,0xFC
7.111284625000000,0,0x00,0xFD
7.112444500000000,0,0x00,0xFE
7.113604375000000,0,0x00,0xFD
7.114764208333333,0,0x00,0xFE
7.115924083333334,0,0x00,0xFF
7.117083916666667,0,0x00,0xFE
7.118243791666667,0,0x00,0xFE
7.119403666666667,0,0x00,0xFF
7.120563500000000,0,0x00,0xFF
7.121723375000000,0,0x00,0xFF
7.122883208333334,0,0x00,0x57
7.124043083333333,0,0x00,0xFF
7.125202958333333,0,0x00,0xD3
7.126362791666667,0,0x00,0x2F
7.127522666666667,0,0x00,0x94
7.128682541666667,0,0x00,0x41
7.129842416666667,0,0x00,0xE0
7.131002291666666,0,0x00,0x00
7.132162125000000,0,0x00,0x55
7.133322000000000,0,0x00,0x00
7.134481875000000,0,0x00,0xE2
7.135641708333333,0,0x00,0x00
7.136801583333333,0,0x00,0x55
7.137961416666666,0,0x00,0x00
7.139121333333334,0,0x00,0xFE
7.140281166666667,0,0x00,0x00
7.141441041666667,0,0x00,0xF7
7.142600875000000,0,0x00,0xFF
7.143760750000000,0,0x00,0x7F
7.144920625000000,0,0x00,0xFF
7.146080458333333,0,0x00,0x5D
7.147240333333333,0,0x00,0xFF
7.148400208333333,0,0x00,0xCF
7.149560041666667,0,0x00,0x3F
7.150719916666667,0,0x00,0x4F
7.151879750000000,0,0x00,0x17
7.153039625000000,0,0x00,0xBB
7.154199500000000,0,0x00,0x07
7.155359375000000,0,0x00,0x59
7.156519208333333,0,0x00,0x07
7.157679083333333,0,0x00,0xF3
7.158838958333333,0,0x00,0x0F
7.159998791666666,0,0x00,0x77
7.161158666666666,0,0x00,0xFF
7.162318541666667,0,0x00,0xFF
7.163478416666667,0,0x00,0xFF
7.164638250000000,0,0x00,0xFF
7.165798125000000,0,0x00,0xFF
7.166958000000000,0,0x00,0xFF
7.168117833333334,0,0x00,0xFF
7.169277708333333,0,0x00,0xFF
7.170437583333333,0,0x00,0xFF
7.171597416666667,0,0x00,0xFF
7.172757291666667,0,0x00,0xFF
7.173917166666667,0,0x00,0xFF
7.175077000000000,0,0x00,0xFF
7.176236875000000,0,0x00,0xFF
7.177396750000000,0,0x00,0xFF
7.178556583333333,0,0x00,0xFF
7.179716458333333,0,0x00,0xFF
7.180876333333333,0,0x00,0xFF
7.182036166666666,0,0x00,0xFF
7.183196041666666,0,0x00,0xFF
7.184355916666667,0,0x00,0xFF
7.185515791666667,0,0x00,0xFF
7.186675625000000,0,0x00,0xFF
7.187835500000000,0,0x00,0xFF
7.188995375000000,0,0x00,0xFF
7.190155208333334,0,0x00,0xFF
7.191315083333333,0,0x00,0xFF
7.192474958333333,0,0x00,0xFF
7.193634791666667,0,0x00,0xFF
7.194794666666667,0,0x00,0xFF
7.195954541666667,0,0x00,0xFF
7.197114375000000,0,0x00,0xFF
7.198274250000000,0,0x00,0xFF
7.199434125000000,0,0x00,0xFF
7.200593958333333,0,0x00,0xFF
7.201753833333333,0,0x00,0xFF
7.202913708333333,0,0x00,0xFF
7.204073541666666,0,0x00,0xFF
7.205233416666666,0,0x00,0xFF
7.206393291666667,0,0x00,0xFF
7.207553125000000,0,0x00,0xFF
7.208713000000000,0,0x00,0xFF
7.209872875000000,0,0x00,0xFF
7.211032750000000,0,0x00,0xFF
7.212192583333334,0,0x00,0xFF
7.213474541666667,0,0x00,0xFF
7.214634416666667,0,0x00,0xFF
7.215794250000000,0,0x00,0xFF
7.216954125000000,0,0x00,0xFF
7.218114000000000,0,0x00,0xFF
7.219273833333333,0,0x00,0xFF
7.220433708333333,0,0x00,0xFF
7.221593583333333,0,0x00,0xFF
7.222753458333333,0,0x00,0xFF
7.223913291666666,0,0x00,0xFF
7.225073166666666,0,0x00,0xFF
7.226233041666666,0,0x00,0xFF
7.227392875000000,0,0x00,0xFF
7.228552750000000,0,0x00,0xFF
7.229712625000000,0,0x00,0xFF
7.230872458333334,0,0x00,0xFF
7.232032333333334,0,0x00,0xFF
7.233192208333334,0,0x00,0xFF
7.234352041666667,0,0x00,0xFF
7.235511916666667,0,0x00,0xFF
7.236671791666667,0,0x00,0xFF
7.237831625000000,0,0x00,0xFF
7.238991500000000,0,0x00,0xFF
7.240151375000000,0,0x00,0xFF
7.241311208333333,0,0x00,0xFF
7.242471083333333,0,0x00,0xFF
7.243630958333333,0,0x00,0xFF
7.244790791666667,0,0x00,0xFF
7.245950666666666,0,0x00,0xFF
7.247110541666666,0,0x00,0xFF
7.248270375000000,0,0x00,0xFF
7.249430250000000,0,0x00,0xFF
7.250590125000000,0,0x00,0xFF
7.251750000000000,0,0x00,0xFF
7.252909833333334,0,0x00,0xFF
7.254069708333334,0,0x00,0xFF
7.255229583333334,0,0x00,0xFF
7.256389416666667,0,0x00,0xFF
7.257549291666667,0,0x00,0xFF
7.258709166666667,0,0x00,0xFF
7.259869000000000,0,0x00,0xFF
7.261028875000000,0,0x00,0xFF
7.262188750000000,0,0x00,0xFF
7.263348583333333,0,0x00,0xFF
7.264508458333333,0,0x00,0xFF
7.265668333333333,0,0x00,0xFF
7.266828166666667,0,0x00,0xFF
7.267988041666666,0,0x00,0xFF
7.269147916666666,0,0x00,0xFF
7.270307750000000,0,0x00,0xFF
7.271467625000000,0,0x00,0xFF
7.272627500000000,0,0x00,0xFF
7.273787333333333,0,0x00,0xFF
7.274947208333334,0,0x00,0xFF
7.276107083333334,0,0x00,0xFF
7.277266958333334,0,0x00,0xFF
7.278426791666667,0,0x00,0xFF
7.279586666666667,0,0x00,0xFF
7.280746541666667,0,0x00,0xFF
7.281906375000000,0,0x00,0xFF
7.283066250000000,0,0x00,0xFF
7.284226125000000,0,0x00,0xFF
7.285385958333333,0,0x00,0xFF
7.286545833333333,0,0x00,0xFF
7.287705708333333,0,0x00,0xFF
7.288865541666667,0,0x00,0xFF
7.290025416666666,0,0x00,0xFF
7.291185291666666,0,0x00,0xFF
7.292345125000000,0,0x00,0xFF
7.293505000000000,0,0x00,0xFF
7.294664875000000,0,0x00,0xFF
7.295824708333333,0,0x00,0xFF
7.296984583333334,0,0x00,0xFF
7.298144458333334,0,0x00,0xFF
7.299304291666667,0,0x00,0xFF
7.300464166666667,0,0x00,0xFF
7.301624041666667,0,0x00,0xFF
7.302783916666667,0,0x00,0xFF
7.303943750000000,0,0x00,0xFF
7.305103625000000,0,0x00,0xFF
7.306263500000000,0,0x00,0xFF
7.307423333333333,0,0x00,0xFF
7.308583208333333,0,0x00,0xFF
7.309743083333333,0,0x00,0xFF
7.310902916666667,0,0x00,0xFF
7.312062791666667,0,0x00,0xFF
7.313222666666666,0,0x00,0xFF
7.314382500000000,0,0x00,0xFF
7.315542375000000,0,0x00,0xFF
7.316702250000000,0,0x00,0xFF
7.317862083333333,0,0x00,0xFF
7.319021958333333,0,0x00,0xFF
7.320181833333334,0,0x00,0xFF
7.321341666666667,0,0x00,0xFF
7.322501541666667,0,0x00,0xFF
7.323661416666667,0,0x00,0xFF
7.324821250000000,0,0x00,0xFF
7.325981125000000,0,0x00,0xFF
7.327141000000000,0,0x00,0xFF
7.328300833333333,0,0x00,0xFF
7.329460708333333,0,0x00,0xFF
7.330681625000000,0,0x00,0xFF
7.331841500000000,0,0x00,0xFF
7.333001333333334,0,0x00,0xFF
7.334161208333334,0,0x00,0xFF
7.335321083333334,0,0x00,0xFF
7.336480916666667,0,0x00,0xFF
7.337640791666667,0,0x00,0xFF
7.338800666666667,0,0x00,0xFF
7.339960500000000,0,0x00,0xFF
7.341120375000000,0,0x00,0xFF
7.342280250000000,0,0x00,0xFF
7.343440083333333,0,0x00,0xFF
7.344599958333333,0,0x00,0xFF
7.345759833333333,0,0x00,0xFF
7.346919666666667,0,0x00,0xFF
7.348079541666666,0,0x00,0xFF
7.349239416666666,0,0x00,0xFF
7.350399291666666,0,0x00,0xFF
7.351559125000000,0,0x00,0xFF
7.352719000000000,0,0x00,0xFF
7.353878875000000,0,0x00,0xFF
7.355038708333334,0,0x00,0xFF
7.356198583333334,0,0x00,0xFF
7.357358458333334,0,0x00,0xFF
7.358518291666667,0,0x00,0xFF
7.359678166666667,0,0x00,0xFF
7.360838041666667,0,0x00,0xFF
7.361997875000000,0,0x00,0xFF
7.363157750000000,0,0x00,0xFF
7.364256583333334,0,0x00,0xD6
7.365355375000000,0,0x00,0x4D
7.366454166666666,0,0x81,0x00
7.367553000000000,0,0x00,0x00
7.398014666666667,0,0x00,0x88
7.399113458333333,0,0x00,0x33
7.400273333333334,0,0x00,0x0F
7.401433166666667,0,0x00,0x00
7.402593041666667,0,0x00,0x00
7.403752916666667,0,0x00,0x00
7.404912791666667,0,0x00,0x0F
7.406072625000000,0,0x00,0x00
7.407232500000000,0,0x81,0x00
7.408392375000000,0,0x00,0x00
7.417793375000000,0,0x00,0x88
7.418892166666667,0,0x00,0x33
7.420052000000000,0,0x00,0x04
7.421211875000000,0,0x00,0x00
7.422371750000000,0,0x00,0x80
7.423531625000000,0,0x00,0x02
7.424691500000000,0,0x00,0xFF
7.425851333333333,0,0x00,0xFF
7.427011208333333,0,0x00,0xFF
7.428171041666666,0,0x00,0xFF
7.429330916666666,0,0x00,0xFF
7.430490791666666,0,0x00,0xFF
7.431650625000000,0,0x00,0xFF
7.432810500000000,0,0x00,0xFF
7.433970375000000,0,0x00,0xFF
7.435130208333334,0,0x00,0xFF
7.436290083333334,0,0x00,0xFF
7.437449958333334,0,0x00,0xFF
7.438609791666667,0,0x00,0xFF
7.439769666666667,0,0x00,0xFF
7.440929541666667,0,0x00,0xFF
7.442089375000000,0,0x00,0xFF
7.443249250000000,0,0x00,0xFF
7.444409125000000,0,0x00,0xFF
7.445568958333333,0,0x00,0xFF
7.446728833333333,0,0x00,0xFF
7.447888708333333,0,0x00,0xFF
7.449048583333333,0,0x00,0xFF
7.450208416666666,0,0x00,0xFF
7.451368291666666,0,0x00,0xFF
7.452528166666666,0,0x00,0xFF
7.453688000000000,0,0x00,0xFF
7.454847875000000,0,0x00,0xFF
7.456007750000000,0,0x00,0xFF
7.457167583333334,0,0x00,0xFF
7.458327458333334,0,0x00,0xFF
7.459487333333334,0,0x00,0xFF
7.460647166666667,0,0x00,0xFF
7.461807041666667,0,0x00,0xFF
7.462966916666667,0,0x00,0xFF
7.464126750000000,0,0x00,0xFF
7.465286625000000,0,0x00,0xFF
7.466446500000000,0,0x00,0xFF
7.467606333333333,0,0x00,0xFF
7.468766208333333,0,0x00,0xFF
7.469926083333333,0,0x00,0xFF
7.471085916666667,0,0x00,0xFF
7.472245791666666,0,0x00,0xFF
7.473405666666666,0,0x00,0xFF
7.474565541666666,0,0x00,0xFF
7.475725375000000,0,0x00,0xFF
7.476885250000000,0,0x00,0xFF
7.478045125000000,0,0x00,0xFF
7.479204958333334,0,0x00,0xFF
7.480364833333334,0,0x00,0xFF
7.481524708333334,0,0x00,0xFF
7.482684541666667,0,0x00,0xFF
7.483844416666667,0,0x00,0xFF
7.485004291666667,0,0x00,0xFF
7.486164125000000,0,0x00,0xFF
7.487324000000000,0,0x00,0xFF
7.488483875000000,0,0x00,0xFF
7.489643708333333,0,0x00,0xFF
7.490803583333333,0,0x00,0xFF
7.491963458333333,0,0x00,0xFF
7.493123291666667,0,0x00,0xFF
7.494283166666666,0,0x00,0xFF
7.495443041666666,0,0x00,0xFF
7.496602875000000,0,0x00,0xFF
7.497762750000000,0,0x00,0xFF
7.498922625000000,0,0x00,0xFF
7.500082458333333,0,0x00,0xFF
7.501242333333333,0,0x00,0xFF
7.502402208333334,0,0x00,0xFF
7.503562083333334,0,0x00,0xFF
7.504721916666667,0,0x00,0xFF
7.505881791666667,0,0x00,0xFF
7.507041666666667,0,0x00,0xFF
7.508201500000000,0,0x00,0xFF
7.509361375000000,0,0x00,0xFF
7.510521250000000,0,0x00,0xFF
7.511681083333333,0,0x00,0xFF
7.512840958333333,0,0x00,0xFF
7.514000833333333,0,0x00,0xFF
7.515160666666667,0,0x00,0xFF
7.516320541666667,0,0x00,0xFF
7.517480416666666,0,0x00,0xFF
7.518640250000000,0,0x00,0xFF
7.519800125000000,0,0x00,0xFF
7.520960000000000,0,0x00,0xFF
7.522119833333333,0,0x00,0xFF
7.523279708333333,0,0x00,0xFF
7.524439583333334,0,0x00,0xFF
7.525599416666667,0,0x00,0xFF
7.526759291666667,0,0x00,0xFF
7.527919166666667,0,0x00,0xFF
7.529079041666667,0,0x00,0xFF
7.530238875000000,0,0x00,0xFF
7.531398750000000,0,0x00,0xFF
7.532558625000000,0,0x00,0xFF
7.533718458333333,0,0x00,0xFF
7.534878333333333,0,0x00,0xFF
7.536038208333333,0,0x00,0xFF
7.537198041666667,0,0x00,0xFF
7.538357916666667,0,0x00,0xFF
7.539517791666666,0,0x00,0xFF
7.540677625000000,0,0x00,0xFF
7.541837500000000,0,0x00,0xFF
7.542997375000000,0,0x00,0xFF
7.544157208333333,0,0x00,0xFF
7.545317083333333,0,0x00,0xFF
7.546476958333334,0,0x00,0xFF
7.547636791666666,0,0x00,0xFF
7.548796666666667,0,0x00,0xFF
7.549956541666667,0,0x00,0xFF
7.551116375000000,0,0x00,0xFF
7.552276250000000,0,0x00,0xFF
7.553436125000000,0,0x00,0xFF
7.554595958333334,0,0x00,0x25
7.555755833333333,0,0x00,0xD0
7.556915708333333,0,0x00,0xE1
7.558075583333333,0,0x00,0xFE
7.559235458333333,0,0x00,0xF4
7.560395291666667,0,0x00,0xFF
7.561555166666666,0,0x00,0xFF
7.562715000000000,0,0x00,0xFF
7.563874875000000,0,0x00,0xFF
7.565095791666667,0,0x00,0xFF
7.566255625000000,0,0x00,0xCF
7.567415500000000,0,0x00,0xFF
7.568575375000000,0,0x00,0xD5
7.569735208333333,0,0x00,0xFF
7.570895083333333,0,0x00,0xC2
7.572054958333333,0,0x00,0xFF
7.573214791666667,0,0x00,0x67
7.574374666666666,0,0x00,0x1F
7.575534541666666,0,0x00,0xCF
7.576694375000000,0,0x00,0x3F
7.577854250000000,0,0x00,0x5F
7.579014125000000,0,0x00,0xFF
7.580174000000000,0,0x00,0xFF
7.581333833333334,0,0x00,0xFF
7.582493708333334,0,0x00,0xFF
7.583653583333334,0,0x00,0xFF
7.584813416666667,0,0x00,0xFF
7.585973291666667,0,0x00,0xFF
7.587133166666667,0,0x00,0xFF
7.588293000000000,0,0x00,0xFF
7.589452875000000,0,0x00,0x7F
7.590612750000000,0,0x00,0xFF
7.591772583333333,0,0x00,0xFF
7.592932458333333,0,0x00,0xFF
7.594092333333333,0,0x00,0xFF
7.595252166666667,0,0x00,0xFF
7.596412041666667,0,0x00,0xFF
7.597571916666666,0,0x00,0xFF
7.598731750000000,0,0x00,0xFF
7.599891625000000,0,0x00,0xFF
7.601051500000000,0,0x00,0xF1
7.602211375000000,0,0x00,0xFF
7.603371208333333,0,0x00,0xF4
7.604531083333334,0,0x00,0xFB
7.605690958333334,0,0x00,0xCE
7.606850833333334,0,0x00,0xF1
7.608010666666667,0,0x00,0xCE
7.609170541666667,0,0x00,0xF1
7.610330375000000,0,0x00,0x55
7.611490250000000,0,0x00,0xFF
7.612650125000000,0,0x00,0xF8
7.613810000000000,0,0x00,0xFF
7.614969833333333,0,0x00,0xFF
7.616129708333333,0,0x00,0xFF
7.617289541666667,0,0x00,0xFF
7.618449416666667,0,0x00,0xFF
7.619609291666666,0,0x00,0xF7
7.620769125000000,0,0x00,0xFF
7.621929000000000,0,0x00,0xFF
7.623088875000000,0,0x00,0xFF
7.624248708333333,0,0x00,0x55
7.625408583333333,0,0x00,0xFF
7.626568458333334,0,0x00,0x7E
7.627728333333334,0,0x00,0xFF
7.628888166666667,0,0x00,0x57
7.630048041666667,0,0x00,0xFF
7.631207875000000,0,0x00,0x3F
7.632367750000000,0,0x00,0xFF
7.633527625000000,0,0x00,0xFF
7.634687500000000,0,0x00,0xFF
7.635847333333333,0,0x00,0xFF
7.637007208333333,0,0x00,0xFF
7.638167083333333,0,0x00,0xFF
7.639326916666667,0,0x00,0xFF
7.640486791666667,0,0x00,0xFF
7.641646666666666,0,0x00,0xFF
7.642806500000000,0,0x00,0xDF
7.643966375000000,0,0x00,0xFF
7.645126250000000,0,0x00,0xFF
7.646286083333333,0,0x00,0xFF
7.647445958333333,0,0x00,0xFF
7.648605833333334,0,0x00,0xFF
7.649765666666666,0,0x00,0xFF
7.650925541666667,0,0x00,0xFF
7.652085416666667,0,0x00,0xFF
7.653245291666667,0,0x00,0xFF
7.654405125000000,0,0x00,0xCF
7.655565000000000,0,0x00,0xFF
7.656724875000000,0,0x00,0xBF
7.657884708333333,0,0x00,0xDF
7.659044583333333,0,0x00,0x8F
7.660204458333333,0,0x00,0xFF
7.661364291666667,0,0x00,0x9F
7.662524166666667,0,0x00,0xFF
7.663684041666667,0,0x00,0xCF
7.664843875000000,0,0x00,0xFF
7.666003750000000,0,0x00,0xF7
7.667163625000000,0,0x00,0xFF
7.668323458333333,0,0x00,0xFB
7.669483333333333,0,0x00,0xFF
7.670643208333333,0,0x00,0xFF
7.671803041666666,0,0x00,0xFF
7.672962916666667,0,0x00,0xFF
7.674122791666667,0,0x00,0xFF
7.675282625000000,0,0x00,0xF7
7.676442500000000,0,0x00,0xFF
7.677602375000000,0,0x00,0xFF
7.678762208333334,0,0x00,0xFF
7.679922083333333,0,0x00,0xFF
7.681081958333333,0,0x00,0xFF
7.682302875000000,0,0x00,0xFF
7.683462708333333,0,0x00,0xFF
7.684622583333334,0,0x00,0xFF
7.685782458333334,0,0x00,0xFF
7.686942291666667,0,0x00,0xFF
7.688102166666667,0,0x00,0xFF
7.689262041666667,0,0x00,0xFF
7.690421875000000,0,0x00,0xFF
7.691581750000000,0,0x00,0xFF
7.692741625000000,0,0x00,0xFF
7.693901458333333,0,0x00,0xFF
7.695061333333333,0,0x00,0xFF
7.696221208333333,0,0x00,0xFF
7.697381041666667,0,0x00,0xFF
7.698540916666667,0,0x00,0xFF
7.699700791666666,0,0x00,0xFF
7.700860666666666,0,0x00,0xFF
7.702020500000000,0,0x00,0xFF
7.703180375000000,0,0x00,0xFF
7.704340250000000,0,0x00,0xFF
7.705500083333333,0,0x00,0xFF
7.706659958333334,0,0x00,0xFF
7.707819833333334,0,0x00,0xFF
7.708979666666667,0,0x00,0xFF
7.710139541666667,0,0x00,0xFF
7.711299416666667,0,0x00,0xFF
7.712459250000000,0,0x00,0xFF
7.713619125000000,0,0x00,0xFF
7.714779000000000,0,0x00,0xFF
7.715938833333333,0,0x00,0xFF
7.717098708333333,0,0x00,0xFF
7.718258583333333,0,0x00,0xFF
7.719418416666667,0,0x00,0xFF
7.720578291666667,0,0x00,0xFF
7.721738166666666,0,0x00,0xFF
7.722898000000000,0,0x00,0xFF
7.724057875000000,0,0x00,0xFF
7.725217750000000,0,0x00,0xFF
7.726377625000000,0,0x00,0xFF
7.727537458333333,0,0x00,0xFF
7.728697333333334,0,0x00,0xFF
7.729857208333334,0,0x00,0xFF
7.731017041666667,0,0x00,0xFF
7.732176916666667,0,0x00,0xFF
7.733336791666667,0,0x00,0xFF
7.734496625000000,0,0x00,0xFF
7.735656500000000,0,0x00,0xFF
7.736816375000000,0,0x00,0xFF
7.737976208333333,0,0x00,0xFF
7.739136083333333,0,0x00,0xFF
7.740295958333333,0,0x00,0xFF
7.741455791666667,0,0x00,0xFF
7.742615666666667,0,0x00,0xFF
7.743775541666666,0,0x00,0xFF
7.744935375000000,0,0x00,0xFF
7.746095250000000,0,0x00,0xFF
7.747255125000000,0,0x00,0xFF
7.748414958333333,0,0x00,0xFF
7.749574833333333,0,0x00,0xFF
7.750734708333333,0,0x00,0xFF
7.751894541666666,0,0x00,0xFF
7.753054416666667,0,0x00,0xFF
7.754214291666667,0,0x00,0xFF
7.755374166666667,0,0x00,0xFF
7.756534000000000,0,0x00,0xFF
7.757693875000000,0,0x00,0xFF
7.758853750000000,0,0x00,0xFF
7.760013583333333,0,0x00,0xFF
7.761173458333333,0,0x00,0xFF
7.762333333333333,0,0x00,0xFF
7.763493166666667,0,0x00,0xFF
7.764653041666667,0,0x00,0xFF
7.765812916666667,0,0x00,0xFF
7.766972750000000,0,0x00,0xFF
7.768132625000000,0,0x00,0xFF
7.769292500000000,0,0x00,0xFF
7.770452333333333,0,0x00,0xFF
7.771612208333333,0,0x00,0xFF
7.772772083333333,0,0x00,0xFF
7.773931916666666,0,0x00,0xFF
7.775091791666667,0,0x00,0xFF
7.776251666666667,0,0x00,0xFF
7.777411500000000,0,0x00,0xFF
7.778571375000000,0,0x00,0xFF
7.779731250000000,0,0x00,0xFF
7.780891125000000,0,0x00,0xFF
7.782050958333333,0,0x00,0xFF
7.783210833333333,0,0x00,0xFF
7.784370708333333,0,0x00,0xFF
7.785530541666667,0,0x00,0xFF
7.786690416666667,0,0x00,0xFF
7.787850291666667,0,0x00,0xFF
7.789010125000000,0,0x00,0xFF
7.790170000000000,0,0x00,0xFF
7.791329875000000,0,0x00,0xFF
7.792489708333333,0,0x00,0xFF
7.793649583333333,0,0x00,0xFF
7.794809458333333,0,0x00,0xFF
7.795969291666666,0,0x00,0xFF
7.797129166666667,0,0x00,0xFF
7.798289041666667,0,0x00,0xFF
7.799509958333333,0,0x00,0xFF
7.800669791666667,0,0x00,0xFF
7.801829666666666,0,0x00,0xFF
7.802989541666666,0,0x00,0xFF
7.804149375000000,0,0x00,0xFF
7.805309250000000,0,0x00,0xFF
7.806469125000000,0,0x00,0xFF
7.807628958333333,0,0x00,0xFF
7.808788833333334,0,0x00,0xFF
7.809948708333334,0,0x00,0xFF
7.811108541666667,0,0x00,0xFF
7.812268416666667,0,0x00,0xFF
7.813428291666667,0,0x00,0xFF
7.814588125000000,0,0x00,0xFF
7.815748000000000,0,0x00,0xFF
7.816907875000000,0,0x00,0xFF
7.818067708333333,0,0x00,0xFF
7.819227583333333,0,0x00,0xFF
7.820387458333333,0,0x00,0xFF
7.821547291666667,0,0x00,0xFF
7.822707166666667,0,0x00,0xFF
7.823867041666666,0,0x00,0xFF
7.825026916666666,0,0x00,0xFF
7.826186750000000,0,0x00,0xFF
7.827346625000000,0,0x00,0xFF
7.828506500000000,0,0x00,0xFF
7.829666333333333,0,0x00,0xFF
7.830826208333334,0,0x00,0xFF
7.831986083333334,0,0x00,0xFF
7.833145916666667,0,0x00,0xFF
7.834305791666667,0,0x00,0xFF
7.835465666666667,0,0x00,0xFF
7.836625500000000,0,0x00,0xFF
7.837785375000000,0,0x00,0xFF
7.838945250000000,0,0x00,0xFF
7.840105083333333,0,0x00,0xFF
7.841264958333333,0,0x00,0xFF
7.842424833333333,0,0x00,0xFF
7.843584666666667,0,0x00,0xFF
7.844744541666667,0,0x00,0xFF
7.845904416666666,0,0x00,0xFF
7.847064250000000,0,0x00,0xFF
7.848224125000000,0,0x00,0xFF
7.849384000000000,0,0x00,0xFF
7.850543833333333,0,0x00,0xFF
7.851703708333333,0,0x00,0xFF
7.852863583333333,0,0x00,0xFF
7.854023458333334,0,0x00,0xFF
7.855183291666667,0,0x00,0xFF
7.856343166666667,0,0x00,0xFF
7.857503041666667,0,0x00,0xFF
7.858662875000000,0,0x00,0xFF
7.859822750000000,0,0x00,0xFF
7.860982625000000,0,0x00,0xFF
7.862142458333333,0,0x00,0xFF
7.863302333333333,0,0x00,0xFF
7.864462208333333,0,0x00,0xFF
7.865622041666667,0,0x00,0xFF
7.866781916666667,0,0x00,0xFF
7.867941791666667,0,0x00,0xFF
7.869101625000000,0,0x00,0xFF
7.870261500000000,0,0x00,0xFF
7.871421375000000,0,0x00,0xFF
7.872581208333333,0,0x00,0xFF
7.873741083333333,0,0x00,0xFF
7.874900958333333,0,0x00,0xFF
7.876060791666666,0,0x00,0xFF
7.877220666666667,0,0x00,0xFF
7.878380541666667,0,0x00,0xFF
7.879540416666667,0,0x00,0xFF
7.880700250000000,0,0x00,0xFF
7.881860125000000,0,0x00,0xFF
7.883020000000000,0,0x00,0xFF
7.884179833333333,0,0x00,0xFF
7.885339708333333,0,0x00,0xFF
7.886499583333333,0,0x00,0xFF
7.887659416666667,0,0x00,0xFF
7.888819291666667,0,0x00,0xFF
7.889979166666667,0,0x00,0xFF
7.891139000000000,0,0x00,0xFF
7.892298875000000,0,0x00,0xFF
7.893458750000000,0,0x00,0xFF
7.894618583333333,0,0x00,0xFF
7.895778458333333,0,0x00,0xFF
7.896938333333333,0,0x00,0xFF
7.898098166666666,0,0x00,0xFF
7.899258041666666,0,0x00,0xFF
7.900417916666667,0,0x00,0xFF
7.901577750000000,0,0x00,0xFF
7.902737625000000,0,0x00,0xFF
7.903897500000000,0,0x00,0xFF
7.905057375000000,0,0x00,0xFF
7.906217208333334,0,0x00,0xFF
7.907377083333333,0,0x00,0xFF
7.908536958333333,0,0x00,0xFF
7.909696791666667,0,0x00,0xFF
7.910856666666667,0,0x00,0xFF
7.912016541666667,0,0x00,0xFD
7.913176375000000,0,0x00,0xFF
7.914336250000000,0,0x00,0xFE
7.915496125000000,0,0x00,0xFF
7.916778083333333,0,0x00,0xFD
7.917937916666666,0,0x00,0xFF
7.919097791666666,0,0x00,0xFC
7.920257666666667,0,0x00,0xFF
7.921417500000000,0,0x00,0xFD
7.922577375000000,0,0x00,0xFF
7.923737250000000,0,0x00,0xFE
7.924897125000000,0,0x00,0xFF
7.926056958333334,0,0x00,0x51
7.927216833333333,0,0x00,0xFF
7.928376666666667,0,0x00,0x01
7.929536541666667,0,0x00,0xFF
7.930696375000000,0,0x00,0x11
7.931856250000000,0,0x00,0xFF
7.933016125000000,0,0x00,0x00
7.934176000000000,0,0x00,0xFF
7.935335833333333,0,0x00,0x08
7.936495708333333,0,0x00,0xF7
7.937655541666667,0,0x00,0x00
7.938815458333333,0,0x00,0xFF
7.939975291666666,0,0x00,0x0A
7.941135166666666,0,0x00,0xF5
7.942295000000000,0,0x00,0x00
7.943454916666667,0,0x00,0xFF
7.944614750000000,0,0x00,0x57
7.945774625000000,0,0x00,0xFF
7.946934458333334,0,0x00,0x3E
7.948094333333334,0,0x00,0xFF
7.949254166666667,0,0x00,0x55
7.950414041666667,0,0x00,0xFF
7.951573916666667,0,0x00,0x00
7.952733791666667,0,0x00,0xFF
7.953893625000000,0,0x00,0x90
7.955053500000000,0,0x00,0x7F
7.956213333333333,0,0x00,0x00
7.957373250000000,0,0x00,0xFF
7.958533083333333,0,0x00,0xAA
7.959692958333333,0,0x00,0x55
7.960852791666666,0,0x00,0x02
7.962012666666666,0,0x00,0xFD
7.963172500000000,0,0x00,0x4A
7.964332416666666,0,0x00,0xF5
7.965492250000000,0,0x00,0x31
7.966652125000000,0,0x00,0xFF
7.967811958333334,0,0x00,0x5F
7.968971833333334,0,0x00,0xFF
7.970131708333334,0,0x00,0x04
7.971291583333334,0,0x00,0xFF
7.972451416666667,0,0x00,0xAB
7.973611291666667,0,0x00,0x55
7.974771125000000,0,0x00,0x00
7.975931041666667,0,0x00,0xFF
7.977090875000000,0,0x00,0x8A
7.978250750000000,0,0x00,0x75
7.979410583333333,0,0x00,0x00
7.980570458333333,0,0x00,0xFF
7.981730291666667,0,0x00,0x55
7.982890166666667,0,0x00,0xFF
7.984050041666666,0,0x00,0xA3
7.985209916666666,0,0x00,0xFF
7.986369750000000,0,0x00,0x55
7.987529625000000,0,0x00,0xFF
7.988689458333333,0,0x00,0x02
7.989849375000000,0,0x00,0xFF
7.991009208333334,0,0x00,0xD5
7.992169041666667,0,0x00,0x7F
7.993328916666667,0,0x00,0x02
7.994488791666667,0,0x00,0xFF
7.995648666666667,0,0x00,0x15
7.996808541666667,0,0x00,0xFF
7.997968375000000,0,0x00,0x04
7.999128250000000,0,0x00,0xFF
8.000288083333333,0,0x00,0x57
8.001447958333333,0,0x00,0xFF
8.002607833333334,0,0x00,0xFF
8.003767708333333,0,0x00,0xFF
8.004927541666667,0,0x00,0x55
8.006087416666666,0,0x00,0xFF
8.007247291666667,0,0x00,0xFF
8.008407125000000,0,0x00,0xFF
8.009567000000001,0,0x00,0x55
8.010726875000000,0,0x00,0xFF
8.011886708333334,0,0x00,0xB2
8.013046583333333,0,0x00,0xFF
8.014206416666667,0,0x00,0x55
8.015366291666666,0,0x00,0xFF
8.016526166666667,0,0x00,0x8A
8.017686041666666,0,0x00,0xFF
8.018845875000000,0,0x00,0xFF
8.020005749999999,0,0x00,0xFF
8.021165625000000,0,0x00,0xFF
8.022325458333333,0,0x00,0xFF
8.023485333333333,0,0x00,0xDF
8.024645208333334,0,0x00,0xFF
8.025805083333333,0,0x00,0xFF
8.026964916666667,0,0x00,0xFF
8.028124791666666,0,0x00,0x5F
8.029284666666667,0,0x00,0xFF
8.030444500000000,0,0x00,0xFF
8.031604375000001,0,0x00,0xFF
8.032764250000000,0,0x00,0xDF
8.033985124999999,0,0x00,0xFF
8.035145000000000,0,0x00,0xFF
8.036304875000001,0,0x00,0xFF
8.037464708333333,0,0x00,0xFF
8.038624583333334,0,0x00,0xFF
8.039784458333333,0,0x00,0xFF
8.040944291666667,0,0x00,0xFF
8.042104166666666,0,0x00,0xFF
8.043264041666667,0,0x00,0xFF
8.044423916666666,0,0x00,0xFF
8.045583750000000,0,0x00,0xFF
8.046743625000000,0,0x00,0xFF
8.047903500000000,0,0x00,0xFF
8.049063333333333,0,0x00,0xFF
8.050223208333334,0,0x00,0xFF
8.051383083333333,0,0x00,0xFF
8.052542916666667,0,0x00,0xFF
8.053702791666666,0,0x00,0xFF
8.054862666666667,0,0x00,0xFF
8.056022499999999,0,0x00,0xFF
8.057182375000000,0,0x00,0xFF
8.058342250000001,0,0x00,0xFF
8.059502083333333,0,0x00,0xFF
8.060661958333334,0,0x00,0xFF
8.061821833333333,0,0x00,0xFF
8.062981666666667,0,0x00,0xFF
8.064141541666666,0,0x00,0xFF
8.065301416666667,0,0x00,0xFF
8.066461250000000,0,0x00,0xFF
8.067621125000001,0,0x00,0xFF
8.068781000000000,0,0x00,0xFF
8.069940875000000,0,0x00,0xFF
8.071100708333333,0,0x00,0xFF
8.072260583333334,0,0x00,0xFF
8.073420458333333,0,0x00,0xFF
8.074580291666667,0,0x00,0xFF
8.075740166666666,0,0x00,0xFF
8.076900041666667,0,0x00,0xFF
8.078059874999999,0,0x00,0xFF
8.079219750000000,0,0x00,0xFF
8.080379625000001,0,0x00,0xFF
8.081539458333333,0,0x00,0xFF
8.082699333333334,0,0x00,0xFF
8.083859208333333,0,0x00,0xFF
8.085019041666667,0,0x00,0xFF
8.086178916666666,0,0x00,0xFF
8.087338791666667,0,0x00,0xFF
8.088498625000000,0,0x00,0xFF
8.089658500000001,0,0x00,0xFF
8.090818375000000,0,0x00,0xFF
8.091978208333334,0,0x00,0xFF
8.093138083333333,0,0x00,0xFF
8.094297958333334,0,0x00,0xFF
8.095457791666666,0,0x00,0xFF
8.096617666666667,0,0x00,0xFF
8.097777541666666,0,0x00,0xFF
8.098937416666667,0,0x00,0xFF
8.100097249999999,0,0x00,0xFF
8.101257125000000,0,0x00,0xFF
8.102417000000001,0,0x00,0xFF
8.103576833333333,0,0x00,0xFF
8.104736708333334,0,0x00,0xFF
8.105896583333333,0,0x00,0xFF
8.107056416666667,0,0x00,0xFF
8.108216291666666,0,0x00,0xFF
8.109376166666667,0,0x00,0xFF
8.110536000000000,0,0x00,0xFF
8.111695875000001,0,0x00,0xFF
8.112855750000000,0,0x00,0xFF
8.114015583333334,0,0x00,0xFF
8.115175458333333,0,0x00,0xFF
8.116335333333334,0,0x00,0xFF
8.117495166666666,0,0x00,0xFF
8.118655041666667,0,0x00,0xFF
8.119814916666666,0,0x00,0xFF
8.120974750000000,0,0x00,0xFF
8.122134624999999,0,0x00,0xFF
8.123294500000000,0,0x00,0xFF
8.124454374999999,0,0x00,0xFF
8.125614208333333,0,0x00,0xFF
8.126774083333334,0,0x00,0xFF
8.127933958333333,0,0x00,0xFF
8.129093791666667,0,0x00,0xFF
8.130253666666666,0,0x00,0xFF
8.131413541666667,0,0x00,0xFF
8.132573375000000,0,0x00,0xFF
8.133733250000001,0,0x00,0xFF
8.134893125000000,0,0x00,0xFF
8.136052958333334,0,0x00,0xFF
8.137212833333333,0,0x00,0xFF
8.138372708333334,0,0x00,0xFF
8.139532541666666,0,0x00,0xFF
8.140692416666667,0,0x00,0xFF
8.141852291666666,0,0x00,0xFF
8.143012125000000,0,0x00,0xFF
8.144171999999999,0,0x00,0xFF
8.145331875000000,0,0x00,0xFF
8.146491708333333,0,0x00,0xFF
8.147651583333333,0,0x00,0xFF
8.148811458333334,0,0x00,0xFF
8.149971333333333,0,0x00,0xFF
8.151192208333333,0,0x00,0xFF
8.152352083333334,0,0x00,0xFF
8.153511958333333,0,0x00,0xFF
8.154671791666667,0,0x00,0xFF
8.155831666666666,0,0x00,0xFF
8.156991541666667,0,0x00,0xFF
8.158151374999999,0,0x00,0xFF
8.159311250000000,0,0x00,0xFF
8.160471125000001,0,0x00,0xFF
8.161630958333333,0,0x00,0xFF
8.162790833333334,0,0x00,0xFF
8.163950708333333,0,0x00,0xFF
8.165110541666667,0,0x00,0xFF
8.166270416666666,0,0x00,0xFF
8.167369250000000,0,0x00,0xC7
8.168468041666667,0,0x00,0x52
8.169566874999999,0,0x81,0x00
8.170665708333333,0,0x00,0x00
8.221699624999999,0,0x00,0x88
8.222798416666667,0,0x00,0x33
8.223958250000001,0,0x00,0x04
8.225118125000000,0,0x00,0x00
8.226278000000001,0,0x00,0x80
8.227437875000000,0,0x00,0x02
8.228597750000000,0,0x00,0xFF
8.229757583333333,0,0x00,0xFF
8.230917458333334,0,0x00,0xFF
8.232077333333333,0,0x00,0xFF
8.233237166666667,0,0x00,0xFF
8.234397041666666,0,0x00,0xFF
8.235556916666667,0,0x00,0xFF
8.236716749999999,0,0x00,0xFF
8.237876625000000,0,0x00,0xFF
8.239036499999999,0,0x00,0xFF
8.240196333333333,0,0x00,0xFF
8.241356208333332,0,0x00,0xFF
8.242516083333333,0,0x00,0xFF
8.243675916666668,0,0x00,0xFF
8.244835791666667,0,0x00,0xFF
8.245995666666667,0,0x00,0xFF
8.247155500000000,0,0x00,0xFF
8.248315375000001,0,0x00,0xFF
8.249475250000000,0,0x00,0xFF
8.250635083333334,0,0x00,0xFF
8.251794958333333,0,0x00,0xFF
8.252954833333334,0,0x00,0xFF
8.254114666666666,0,0x00,0xFF
8.255274541666667,0,0x00,0xFF
8.256434416666666,0,0x00,0xFF
8.257594291666667,0,0x00,0xFF
8.258754124999999,0,0x00,0xFF
8.259914000000000,0,0x00,0xFF
8.261073874999999,0,0x00,0xFF
8.262233708333333,0,0x00,0xFF
8.263393583333333,0,0x00,0xFF
8.264553458333333,0,0x00,0xFF
8.265713291666666,0,0x00,0xFF
8.266873166666667,0,0x00,0xFF
8.268033041666667,0,0x00,0xFF
8.269192875000000,0,0x00,0xFF
8.270352750000001,0,0x00,0xFF
8.271512625000000,0,0x00,0xFF
8.272672458333334,0,0x00,0xFF
8.273832333333333,0,0x00,0xFF
8.274992208333334,0,0x00,0xFF
8.276152041666666,0,0x00,0xFF
8.277311916666667,0,0x00,0xFF
8.278471791666666,0,0x00,0xFF
8.279631625000000,0,0x00,0xFF
8.280791499999999,0,0x00,0xFF
8.281951375000000,0,0x00,0xFF
8.283111249999999,0,0x00,0xFF
8.284271083333334,0,0x00,0xFF
8.285430958333333,0,0x00,0xFF
8.286590833333333,0,0x00,0xFF
8.287750666666666,0,0x00,0xFF
8.288910541666667,0,0x00,0xFF
8.290070416666667,0,0x00,0xFF
8.291230250000000,0,0x00,0xFF
8.292390125000001,0,0x00,0xFF
8.293550000000000,0,0x00,0xFF
8.294709833333334,0,0x00,0xFF
8.295869708333333,0,0x00,0xFF
8.297029583333334,0,0x00,0xFF
8.298189416666666,0,0x00,0xFF
8.299349291666667,0,0x00,0xFF
8.300509166666666,0,0x00,0xFF
8.301669000000000,0,0x00,0xFF
8.302828874999999,0,0x00,0xFF
8.303988750000000,0,0x00,0xFF
8.305148583333333,0,0x00,0xFF
8.306308458333334,0,0x00,0xFF
8.307468333333333,0,0x00,0xFF
8.308628166666667,0,0x00,0xFF
8.309788041666666,0,0x00,0xFF
8.310947916666667,0,0x00,0xFF
8.312107791666667,0,0x00,0xFF
8.313267625000000,0,0x00,0xFF
8.314427500000001,0,0x00,0xFF
8.315587375000000,0,0x00,0xFF
8.316747208333334,0,0x00,0xFF
8.317907083333333,0,0x00,0xFF
8.319066958333334,0,0x00,0xFF
8.320226791666666,0,0x00,0xFF
8.321386666666667,0,0x00,0xFF
8.322546541666666,0,0x00,0xFF
8.323706375000000,0,0x00,0xFF
8.324866249999999,0,0x00,0xFF
8.326026125000000,0,0x00,0xFF
8.327185958333333,0,0x00,0xFF
8.328345833333334,0,0x00,0xFF
8.329505708333333,0,0x00,0xFF
8.330665541666667,0,0x00,0xFF
8.331825416666666,0,0x00,0xFF
8.332985291666667,0,0x00,0xFF
8.334145124999999,0,0x00,0xFF
8.335366041666667,0,0x00,0xFF
8.336525916666666,0,0x00,0xFF
8.337685791666667,0,0x00,0xFF
8.338845624999999,0,0x00,0xFF
8.340005500000000,0,0x00,0xFF
8.341165374999999,0,0x00,0xFF
8.342325208333333,0,0x00,0xFF
8.343485083333332,0,0x00,0xFF
8.344644958333333,0,0x00,0xFF
8.345804791666668,0,0x00,0xFF
8.346964666666667,0,0x00,0xFE
8.348124541666667,0,0x00,0xFF
8.349284375000000,0,0x00,0xFC
8.350444250000001,0,0x00,0xFE
8.351604125000000,0,0x00,0xFC
8.352764000000001,0,0x00,0xF8
8.353923833333333,0,0x00,0xF9
8.355083708333334,0,0x00,0xF1
8.356243583333333,0,0x00,0xE3
8.357403416666667,0,0x00,0xF3
8.358563291666666,0,0x00,0xFF
8.359723166666667,0,0x00,0xFF
8.360882999999999,0,0x00,0xFF
8.362042875000000,0,0x00,0xFF
8.363202749999999,0,0x00,0xFF
8.364362583333333,0,0x00,0xFF
8.365522458333333,0,0x00,0x77
8.366682333333333,0,0x00,0x8F
8.367842166666666,0,0x00,0x0E
8.369002041666667,0,0x00,0x07
8.370161916666667,0,0x00,0x87
8.371321750000000,0,0x00,0x7E
8.372481625000001,0,0x00,0xFC
8.373641500000000,0,0x00,0xFE
8.374801375000001,0,0x00,0xFE
8.375961208333333,0,0x00,0xFC
8.377121083333334,0,0x00,0xFF
8.378280916666666,0,0x00,0xFF
8.379440791666667,0,0x00,0xFF
8.380600666666666,0,0x00,0xFF
8.381760541666667,0,0x00,0xFF
8.382920374999999,0,0x00,0xFF
8.384080250000000,0,0x00,0xBF
8.385240083333333,0,0x00,0x7E
8.386399958333334,0,0x00,0x3C
8.387559833333333,0,0x00,0x3E
8.388719708333333,0,0x00,0x1E
8.389879541666666,0,0x00,0x3C
8.391039416666667,0,0x00,0x18
8.392199291666667,0,0x00,0x3C
8.393359125000000,0,0x00,0x18
8.394519000000001,0,0x00,0x3C
8.395678875000000,0,0x00,0xFF
8.396838708333334,0,0x00,0xFF
8.397998583333333,0,0x00,0xFF
8.399158458333334,0,0x00,0xFF
8.400318291666666,0,0x00,0xFF
8.401478166666667,0,0x00,0xFF
8.402638000000000,0,0x00,0x77
8.403797875000000,0,0x00,0xFB
8.404957749999999,0,0x00,0xF1
8.406117625000000,0,0x00,0x73
8.407277458333333,0,0x00,0x61
8.408437333333334,0,0x00,0x73
8.409597208333333,0,0x00,0x21
8.410757041666667,0,0x00,0x63
8.411916916666666,0,0x00,0x20
8.413076791666667,0,0x00,0x43
8.414236666666667,0,0x00,0xFF
8.415396500000000,0,0x00,0xFF
8.416556375000001,0,0x00,0xFF
8.417716250000000,0,0x00,0xFF
8.418876083333334,0,0x00,0xFF
8.420035958333333,0,0x00,0xFF
8.421195791666667,0,0x00,0x7B
8.422355666666666,0,0x00,0x87
8.423515541666667,0,0x00,0x81
8.424675375000000,0,0x00,0x03
8.425835250000000,0,0x00,0x83
8.426995124999999,0,0x00,0x3F
8.428154958333334,0,0x00,0x3F
8.429314833333333,0,0x00,0x3F
8.430474708333334,0,0x00,0x37
8.431634541666666,0,0x00,0x0F
8.432794416666667,0,0x00,0xFF
8.433954291666666,0,0x00,0xFF
8.435114166666667,0,0x00,0xFF
8.436274041666668,0,0x00,0xFF
8.437433875000000,0,0x00,0xFF
8.438593750000001,0,0x00,0xFF
8.439753625000000,0,0x00,0xBB
8.440913458333334,0,0x00,0xC7
8.442073333333333,0,0x00,0xC3
8.443233208333334,0,0x00,0x83
8.444393041666666,0,0x00,0xD9
8.445552916666667,0,0x00,0x83
8.446712791666666,0,0x00,0xC1
8.447872625000000,0,0x00,0x9B
8.449032500000000,0,0x00,0x82
8.450192375000000,0,0x00,0x83
8.451352208333333,0,0x00,0xFF
8.452634166666666,0,0x00,0xFF
8.453794041666667,0,0x00,0xFF
8.454953916666666,0,0x00,0xFF
8.456113750000000,0,0x00,0xFF
8.457273624999999,0,0x00,0xFF
8.458433500000000,0,0x00,0xDE
8.459593375000001,0,0x00,0xE3
8.460753208333333,0,0x00,0xC3
8.461913083333334,0,0x00,0x80
8.463072916666667,0,0x00,0x25
8.464232791666667,0,0x00,0x98
8.465392666666666,0,0x00,0x19
8.466552500000001,0,0x00,0x3C
8.467712375000000,0,0x00,0x78
8.468872250000000,0,0x00,0x3C
8.470032124999999,0,0x00,0xFF
8.471191958333334,0,0x00,0xFF
8.472351833333333,0,0x00,0xFF
8.473511666666667,0,0x00,0xFF
8.474671541666666,0,0x00,0xFF
8.475831416666667,0,0x00,0xFF
8.476991291666666,0,0x00,0xBB
8.478151125000000,0,0x00,0x7D
8.479310999999999,0,0x00,0x71
8.480470833333333,0,0x00,0x39
8.481630708333334,0,0x00,0x03
8.482790583333333,0,0x00,0x33
8.483950416666667,0,0x00,0x23
8.485110291666667,0,0x00,0x87
8.486270166666667,0,0x00,0xCF
8.487430041666666,0,0x00,0x87
8.488589875000001,0,0x00,0xFF
8.489749750000000,0,0x00,0xFF
8.490909625000000,0,0x00,0xAF
8.492069458333333,0,0x00,0xD5
8.493229333333334,0,0x00,0xFB
8.494389208333333,0,0x00,0xD5
8.495549041666667,0,0x00,0xFB
8.496708916666666,0,0x00,0xD5
8.497868791666667,0,0x00,0xFF
8.499028624999999,0,0x00,0xFF
8.500188500000000,0,0x00,0xFF
8.501348374999999,0,0x00,0xFF
8.502508250000000,0,0x00,0xFF
8.503668083333332,0,0x00,0xFF
8.504827958333333,0,0x00,0xFF
8.505987833333334,0,0x00,0xFF
8.507147666666667,0,0x00,0xFF
8.508307541666667,0,0x00,0xFF
8.509467416666666,0,0x00,0xFF
8.510627250000001,0,0x00,0xFF
8.511787125000000,0,0x00,0xFF
8.512947000000000,0,0x00,0xFF
8.514106833333333,0,0x00,0xFF
8.515266708333334,0,0x00,0xFF
8.516426583333333,0,0x00,0xFF
8.517586416666667,0,0x00,0xFF
8.518746291666666,0,0x00,0xFF
8.519906166666667,0,0x00,0xFF
8.521065999999999,0,0x00,0xFF
8.522225875000000,0,0x00,0xFF
8.523385749999999,0,0x00,0xFF
8.524545583333333,0,0x00,0xFF
8.525705458333332,0,0x00,0xFF
8.526865333333333,0,0x00,0xFF
8.528025208333334,0,0x00,0xFF
8.529185041666667,0,0x00,0xFF
8.530344916666667,0,0x00,0xFF
8.531504791666666,0,0x00,0xFF
8.532664625000001,0,0x00,0xFF
8.533824500000000,0,0x00,0xFF
8.534984375000001,0,0x00,0xFF
8.536144208333333,0,0x00,0xFF
8.537304083333334,0,0x00,0xFF
8.538463958333333,0,0x00,0xFF
8.539623791666667,0,0x00,0xFF
8.540783666666666,0,0x00,0xFF
8.541943541666667,0,0x00,0xFF
8.543103374999999,0,0x00,0xFF
8.544263250000000,0,0x00,0xFF
8.545423124999999,0,0x00,0xFF
8.546582958333333,0,0x00,0xFF
8.547742833333333,0,0x00,0xFF
8.548902708333333,0,0x00,0xFF
8.550062541666666,0,0x00,0xFF
8.551222416666667,0,0x00,0xFF
8.552382291666667,0,0x00,0xFF
8.553542125000000,0,0x00,0xFF
8.554702000000001,0,0x00,0xFF
8.555861875000000,0,0x00,0xFF
8.557021750000001,0,0x00,0xFF
8.558181583333333,0,0x00,0xFF
8.559341458333334,0,0x00,0xFF
8.560501333333333,0,0x00,0xFF
8.561661166666667,0,0x00,0xFF
8.562821041666666,0,0x00,0xFF
8.563980916666667,0,0x00,0xFF
8.565140749999999,0,0x00,0xFF
8.566300625000000,0,0x00,0xFF
8.567460499999999,0,0x00,0xFF
8.568620333333334,0,0x00,0xFF
8.569841250000000,0,0x00,0xFF
8.571001125000000,0,0x00,0xFF
8.572160958333333,0,0x00,0xFF
8.573320833333334,0,0x00,0xFF
8.574480708333333,0,0x00,0xFF
8.575640583333334,0,0x00,0xFF
8.576800416666666,0,0x00,0xFF
8.577960291666667,0,0x00,0xFF
8.579120166666666,0,0x00,0xFF
8.580280000000000,0,0x00,0xFF
8.581439874999999,0,0x00,0xFF
8.582599750000000,0,0x00,0xFF
8.583759583333334,0,0x00,0xFF
8.584919458333333,0,0x00,0xFF
8.586079333333334,0,0x00,0xFF
8.587239166666667,0,0x00,0xFF
8.588399041666667,0,0x00,0xFF
8.589558916666666,0,0x00,0xFF
8.590718750000001,0,0x00,0xFF
8.591878625000000,0,0x00,0xFF
8.593038500000000,0,0x00,0xFF
8.594198333333333,0,0x00,0xFF
8.595358208333334,0,0x00,0xFF
8.596518083333333,0,0x00,0xFF
8.597677916666667,0,0x00,0xFF
8.598837791666666,0,0x00,0xFF
8.599997666666667,0,0x00,0xFF
8.601157541666666,0,0x00,0xFF
8.602317375000000,0,0x00,0xFF
8.603477249999999,0,0x00,0xFF
8.604637125000000,0,0x00,0xFF
8.605796958333332,0,0x00,0xFF
8.606956833333333,0,0x00,0xFF
8.608116708333334,0,0x00,0xFF
8.609276541666667,0,0x00,0xFF
8.610436416666667,0,0x00,0xFF
8.611596291666666,0,0x00,0xFF
8.612756125000001,0,0x00,0xFF
8.613916000000000,0,0x00,0xFF
8.615075875000000,0,0x00,0xFF
8.616235708333333,0,0x00,0xFF
8.617395583333334,0,0x00,0xFF
8.618555458333333,0,0x00,0xFF
8.619715291666667,0,0x00,0xFF
8.620875166666666,0,0x00,0xFF
8.622035041666667,0,0x00,0xFF
8.623194874999999,0,0x00,0xFF
8.624354750000000,0,0x00,0xFF
8.625514624999999,0,0x00,0xFF
8.626674500000000,0,0x00,0xFF
8.627834333333332,0,0x00,0xFF
8.628994208333333,0,0x00,0xFF
8.630154083333334,0,0x00,0xFF
8.631313916666667,0,0x00,0xFF
8.632473791666667,0,0x00,0xFF
8.633633666666666,0,0x00,0xFF
8.634793500000001,0,0x00,0xFF
8.635953375000000,0,0x00,0xFF
8.637113250000001,0,0x00,0xFF
8.638273083333333,0,0x00,0xFF
8.639432958333334,0,0x00,0xFF
8.640592833333333,0,0x00,0xFF
8.641752666666667,0,0x00,0xFF
8.642912541666666,0,0x00,0xFF
8.644072416666667,0,0x00,0xFF
8.645232249999999,0,0x00,0xFF
8.646392125000000,0,0x00,0xFF
8.647551999999999,0,0x00,0xFF
8.648711833333333,0,0x00,0xFF
8.649871708333333,0,0x00,0xFF
8.651031583333333,0,0x00,0xFF
8.652191416666666,0,0x00,0xFF
8.653351291666667,0,0x00,0xFF
8.654511166666667,0,0x00,0xFF
8.655671041666666,0,0x00,0xFF
8.656830875000001,0,0x00,0xFF
8.657990750000000,0,0x00,0xFF
8.659150625000001,0,0x00,0xFF
8.660310458333333,0,0x00,0xFF
8.661470333333334,0,0x00,0xFF
8.662630208333333,0,0x00,0xFF
8.663790041666667,0,0x00,0xFF
8.664949916666666,0,0x00,0xFF
8.666109791666667,0,0x00,0xFF
8.667269624999999,0,0x00,0xFF
8.668429500000000,0,0x00,0xFF
8.669589374999999,0,0x00,0xFF
8.670749208333334,0,0x00,0xFF
8.671909083333333,0,0x00,0xFF
8.673068958333333,0,0x00,0xFF
8.674228791666666,0,0x00,0xFF
8.675388666666667,0,0x00,0xFF
8.676548541666667,0,0x00,0xFF
8.677708375000000,0,0x00,0xFF
8.678868250000001,0,0x00,0xFF
8.680028125000000,0,0x00,0xFF
8.681188000000001,0,0x00,0xFF
8.682347833333333,0,0x00,0xFF
8.683507708333334,0,0x00,0xFF
8.684667583333333,0,0x00,0xFF
8.685827416666667,0,0x00,0xFF
8.687048333333333,0,0x00,0xFF
8.688208208333334,0,0x00,0xFF
8.689368041666667,0,0x00,0xFF
8.690527916666667,0,0x00,0xFF
8.691687791666666,0,0x00,0xFF
8.692847625000001,0,0x00,0xFF
8.694007500000000,0,0x00,0xFF
8.695167375000000,0,0x00,0xFF
8.696327208333333,0,0x00,0xFF
8.697487083333334,0,0x00,0xFF
8.698646958333333,0,0x00,0xFF
8.699806833333334,0,0x00,0xFF
8.700966666666666,0,0x00,0xFF
8.702126541666667,0,0x00,0xFF
8.703286416666666,0,0x00,0xFF
8.704446250000000,0,0x00,0xFF
8.705606124999999,0,0x00,0xFF
8.706766000000000,0,0x00,0xFF
8.707925833333332,0,0x00,0xFF
8.709085708333333,0,0x00,0xFF
8.710245583333334,0,0x00,0xFF
8.711405416666667,0,0x00,0xE3
8.712565291666667,0,0x00,0xF3
8.713725166666666,0,0x00,0xF7
8.714885000000001,0,0x00,0xE3
8.716044875000000,0,0x00,0xE3
8.717204750000001,0,0x00,0xF3
8.718364583333333,0,0x00,0xF0
8.719524458333334,0,0x00,0xF3
8.720684333333333,0,0x00,0xF0
8.721844208333334,0,0x00,0xF8
8.723004041666666,0,0x00,0xFA
8.724163916666667,0,0x00,0xFC
8.725323791666666,0,0x00,0xFF
8.726483625000000,0,0x00,0xFF
8.727643499999999,0,0x00,0xFF
8.728803375000000,0,0x00,0xFF
8.729963208333333,0,0x00,0xF9
8.731123083333333,0,0x00,0xFC
8.732282958333334,0,0x00,0x9C
8.733442791666667,0,0x00,0x08
8.734602666666667,0,0x00,0x88
8.735762541666666,0,0x00,0x18
8.736922375000001,0,0x00,0x5B
8.738082250000000,0,0x00,0x91
8.739242083333334,0,0x00,0x03
8.740401958333333,0,0x00,0x13
8.741561833333334,0,0x00,0x07
8.742721666666666,0,0x00,0x33
8.743881541666667,0,0x00,0xFF
8.745041416666666,0,0x00,0xFF
8.746201291666667,0,0x00,0xFF
8.747361124999999,0,0x00,0xFF
8.748521000000000,0,0x00,0x3D
8.749680874999999,0,0x00,0x98
8.750840708333333,0,0x00,0x3A
8.752000583333333,0,0x00,0x19
8.753160458333333,0,0x00,0x93
8.754320291666666,0,0x00,0x19
8.755480166666667,0,0x00,0xD1
8.756640041666667,0,0x00,0x93
8.757799916666666,0,0x00,0xC3
8.758959750000001,0,0x00,0x93
8.760119625000000,0,0x00,0xA7
8.761279500000001,0,0x00,0xD3
8.762439333333333,0,0x00,0xFF
8.763599208333334,0,0x00,0xFF
8.764759083333333,0,0x00,0xFF
8.765918916666667,0,0x00,0xFF
8.767078791666666,0,0x00,0x48
8.768238666666667,0,0x00,0x03
8.769398499999999,0,0x00,0x18
8.770558375000000,0,0x00,0x0B
8.771718249999999,0,0x00,0x80
8.772878083333334,0,0x00,0x1B
8.774037958333333,0,0x00,0xB3
8.775197791666667,0,0x00,0x18
8.776357666666666,0,0x00,0x33
8.777517541666667,0,0x00,0xB8
8.778677416666667,0,0x00,0xB1
8.779837291666666,0,0x00,0xFA
8.780997166666667,0,0x00,0xFF
8.782157000000000,0,0x00,0xFF
8.783316875000001,0,0x00,0xFF
8.784476708333333,0,0x00,0xFF
8.785636583333334,0,0x00,0x0F
8.786796416666666,0,0x00,0x07
8.787956291666667,0,0x00,0x37
8.789116166666666,0,0x00,0x0F
8.790276000000000,0,0x00,0x3F
8.791435874999999,0,0x00,0x7F
8.792595750000000,0,0x00,0x03
8.793755583333333,0,0x00,0x7F
8.794915458333334,0,0x00,0x01
8.796075333333333,0,0x00,0x03
8.797235166666667,0,0x00,0x07
8.798395041666666,0,0x00,0x03
8.799554916666667,0,0x00,0xFF
8.800714791666667,0,0x00,0xFF
8.801874625000000,0,0x00,0xFF
8.803034500000001,0,0x00,0xFF
8.804255416666667,0,0x00,0x83
8.805415291666666,0,0x00,0x82
8.806575125000000,0,0x00,0x38
8.807734999999999,0,0x00,0x91
8.808894833333333,0,0x00,0x3C
8.810054750000001,0,0x00,0x99
8.811214583333333,0,0x00,0xA8
8.812374458333334,0,0x00,0x11
8.813534291666667,0,0x00,0x01
8.814694166666667,0,0x00,0x03
8.815854041666666,0,0x00,0x8B
8.817013875000001,0,0x00,0x07
8.818173750000000,0,0x00,0xFF
8.819333625000001,0,0x00,0xFF
8.820493458333333,0,0x00,0xFF
8.821653333333334,0,0x00,0xFF
8.822813208333333,0,0x00,0x79
8.823973041666667,0,0x00,0x3C
8.825132916666666,0,0x00,0x7D
8.826292791666667,0,0x00,0x38
8.827452666666666,0,0x00,0x78
8.828612500000000,0,0x00,0x39
8.829772374999999,0,0x00,0x4B
8.830932208333333,0,0x00,0x31
8.832092083333333,0,0x00,0x81
8.833251958333333,0,0x00,0x03
8.834411833333334,0,0x00,0xCB
8.835571666666667,0,0x00,0x87
8.836731541666667,0,0x00,0xFF
8.837891416666666,0,0x00,0xFF
8.839051250000001,0,0x00,0xFF
8.840211125000000,0,0x00,0xFF
8.841371000000001,0,0x00,0x8F
8.842530833333333,0,0x00,0xCF
8.843690708333334,0,0x00,0x8F
8.844850583333333,0,0x00,0xDF
8.846010416666667,0,0x00,0xCF
8.847170291666666,0,0x00,0x9F
8.848330166666667,0,0x00,0xCF
8.849489999999999,0,0x00,0x9F
8.850649875000000,0,0x00,0xCF
8.851809749999999,0,0x00,0x9F
8.852969625000000,0,0x00,0xFF
8.854129458333333,0,0x00,0x9F
8.855289333333333,0,0x00,0xFF
8.856449208333334,0,0x00,0xFF
8.857609041666667,0,0x00,0xFF
8.858768916666667,0,0x00,0xFF
8.859928791666666,0,0x00,0xFF
8.861088625000001,0,0x00,0xFF
8.862248500000000,0,0x00,0xFF
8.863408375000001,0,0x00,0xFF
8.864568208333333,0,0x00,0xFF
8.865728083333334,0,0x00,0xFF
8.866887958333333,0,0x00,0xFF
8.868047791666667,0,0x00,0xFF
8.869207666666666,0,0x00,0xFF
8.870367541666667,0,0x00,0xFF
8.871527374999999,0,0x00,0xFF
8.872687250000000,0,0x00,0xFF
8.873847124999999,0,0x00,0xFF
8.875006958333334,0,0x00,0xFF
8.876166833333333,0,0x00,0xFF
8.877326708333333,0,0x00,0xFF
8.878486583333334,0,0x00,0xFF
8.879646416666667,0,0x00,0xFF
8.880806291666667,0,0x00,0xFF
8.881966166666666,0,0x00,0xFF
8.883126000000001,0,0x00,0xFF
8.884285875000000,0,0x00,0xFF
8.885445750000001,0,0x00,0xFF
8.886605583333333,0,0x00,0xFF
8.887765458333334,0,0x00,0xFF
8.888925333333333,0,0x00,0xFF
8.890085166666667,0,0x00,0xFF
8.891245041666666,0,0x00,0xFF
8.892404916666667,0,0x00,0xFF
8.893564749999999,0,0x00,0xFF
8.894724625000000,0,0x00,0xFF
8.895884499999999,0,0x00,0xFF
8.897044333333334,0,0x00,0xFF
8.898204208333333,0,0x00,0xFF
8.899364083333333,0,0x00,0xFF
8.900523916666666,0,0x00,0xFF
8.901683791666667,0,0x00,0xFF
8.902843666666667,0,0x00,0xFF
8.904003541666667,0,0x00,0xFF
8.905163375000001,0,0x00,0xFF
8.906323250000000,0,0x00,0xFF
8.907483125000001,0,0x00,0xFF
8.908642958333333,0,0x00,0xFF
8.909802833333334,0,0x00,0xFF
8.910962708333333,0,0x00,0xFF
8.912122541666667,0,0x00,0xFF
8.913282416666666,0,0x00,0xFF
8.914442291666667,0,0x00,0xFF
8.915602124999999,0,0x00,0xFF
8.916762000000000,0,0x00,0xFF
8.917921874999999,0,0x00,0xFF
8.919081708333334,0,0x00,0xFF
8.920241583333333,0,0x00,0xFF
8.921462500000001,0,0x00,0xFF
8.922622333333333,0,0x00,0xFF
8.923782208333334,0,0x00,0xFF
8.924942083333333,0,0x00,0xFF
8.926101958333334,0,0x00,0xFF
8.927261791666666,0,0x00,0xFF
8.928421666666667,0,0x00,0xFF
8.929581541666666,0,0x00,0xFF
8.930741375000000,0,0x00,0xFF
8.931901249999999,0,0x00,0xFF
8.933061125000000,0,0x00,0xFF
8.934220958333333,0,0x00,0xFF
8.935380833333333,0,0x00,0xFF
8.936540708333334,0,0x00,0xFF
8.937700541666667,0,0x00,0xFF
8.938860416666667,0,0x00,0xFF
8.940020291666666,0,0x00,0xFF
8.941180125000001,0,0x00,0xFF
8.942340000000000,0,0x00,0xFF
8.943499875000001,0,0x00,0xFF
8.944659708333333,0,0x00,0xFF
8.945819583333334,0,0x00,0xFF
8.946979458333333,0,0x00,0xFF
8.948139291666667,0,0x00,0xFF
8.949299166666666,0,0x00,0xFF
8.950459041666667,0,0x00,0xFF
8.951618874999999,0,0x00,0xFF
8.952778750000000,0,0x00,0xFF
8.953938624999999,0,0x00,0xFF
8.955098500000000,0,0x00,0xFF
8.956258333333333,0,0x00,0xFF
8.957418208333333,0,0x00,0xFF
8.958578083333334,0,0x00,0xFF
8.959737916666667,0,0x00,0xFF
8.960897791666667,0,0x00,0xFF
8.962057666666666,0,0x00,0xFF
8.963217500000001,0,0x00,0xFF
8.964377375000000,0,0x00,0xFF
8.965537250000001,0,0x00,0xFF
8.966697083333333,0,0x00,0xFF
8.967856958333334,0,0x00,0xFF
8.969016833333333,0,0x00,0xFF
8.970176666666667,0,0x00,0xFF
8.971275500000001,0,0x00,0x47
8.972374291666666,0,0x00,0x24
8.973473125000000,0,0x81,0x00
8.974571958333334,0,0x00,0x00
8.977380041666667,0,0x00,0x88
8.978478833333334,0,0x00,0x33
8.979638708333333,0,0x00,0x04
8.980798583333334,0,0x00,0x00
8.981958458333333,0,0x00,0x00
8.983118291666667,0,0x00,0x00
8.984278166666666,0,0x00,0x04
8.985438041666667,0,0x00,0x00
8.986597874999999,0,0x81,0x00
8.987757750000000,0,0x00,0x00
9.009367833333334,0,0x00,0x88
9.010466624999999,0,0x00,0x33
9.011626458333334,0,0x00,0x02
9.012786333333333,0,0x00,0x00
9.013946208333333,0,0x00,0x04
9.015106083333333,0,0x00,0x00
9.016265916666667,0,0x00,0x01
9.017425791666666,0,0x00,0x13
9.018585666666667,0,0x00,0xE4
9.019745500000001,0,0x00,0x3F
9.020905375000000,0,0x00,0x3D
9.022065208333334,0,0x00,0x01
9.023225083333333,0,0x81,0x00
9.024384958333334,0,0x04,0x00
9.122790083333333,0,0x00,0x88
9.123888875000000,0,0x00,0x33
9.125048749999999,0,0x00,0x0F
9.126208583333334,0,0x00,0x00
9.127368458333333,0,0x00,0x00
9.128528333333334,0,0x00,0x00
9.129688208333333,0,0x00,0x0F
9.130848041666667,0,0x00,0x00
9.132007916666666,0,0x81,0x00
9.133167791666667,0,0x06,0x00
9.223270749999999,0,0x00,0x88
9.224369541666666,0,0x00,0x33
9.225529375000001,0,0x00,0x0F
9.226689250000000,0,0x00,0x00
9.227849125000001,0,0x00,0x00
9.229009000000000,0,0x00,0x00
9.230168833333334,0,0x00,0x0F
9.231328708333333,0,0x00,0x00
9.232488541666667,0,0x81,0x00
9.233648416666666,0,0x06,0x00
9.323751375000001,0,0x00,0x88
9.324850166666666,0,0x00,0x33
9.326010041666667,0,0x00,0x0F
9.327169916666668,0,0x00,0x00
9.328329791666667,0,0x00,0x00
9.329489625000001,0,0x00,0x00
9.330649500000000,0,0x00,0x0F
9.331809333333334,0,0x00,0x00
9.332969208333333,0,0x81,0x00
9.334129083333334,0,0x06,0x00
9.424232041666667,0,0x00,0x88
9.425330833333334,0,0x00,0x33
9.426490666666666,0,0x00,0x0F
9.427650541666667,0,0x00,0x00
9.428810416666666,0,0x00,0x00
9.429970291666667,0,0x00,0x00
9.431130124999999,0,0x00,0x0F
9.432290000000000,0,0x00,0x00
9.433449875000001,0,0x81,0x00
9.434609750000000,0,0x06,0x00
9.544003000000000,0,0x00,0x88
9.545101833333334,0,0x00,0x33
9.546261666666666,0,0x00,0x0F
9.547421541666667,0,0x00,0x00
9.548581416666666,0,0x00,0x00
9.549741250000000,0,0x00,0x00
9.550901124999999,0,0x00,0x0F
9.552060958333334,0,0x00,0x00
9.553220833333333,0,0x81,0x00
9.554380708333333,0,0x06,0x00
9.644483666666666,0,0x00,0x88
9.645582458333333,0,0x00,0x33
9.646742333333334,0,0x00,0x0F
9.647902166666666,0,0x00,0x00
9.649062041666667,0,0x00,0x00
9.650221916666666,0,0x00,0x00
9.651381791666667,0,0x00,0x0F
9.652541625000000,0,0x00,0x00
9.653701500000000,0,0x81,0x00
9.654861374999999,0,0x06,0x00
9.744903291666667,0,0x00,0x88
9.746002083333334,0,0x00,0x33
9.747161916666666,0,0x00,0x0F
9.748321791666667,0,0x00,0x00
9.749481666666666,0,0x00,0x00
9.750641541666667,0,0x00,0x00
9.751801374999999,0,0x00,0x0F
9.752961250000000,0,0x00,0x00
9.754121083333333,0,0x81,0x00
9.755280958333334,0,0x06,0x00
9.845383916666666,0,0x00,0x88
9.846482708333333,0,0x00,0x33
9.847642583333334,0,0x00,0x0F
9.848802458333333,0,0x00,0x00
9.849962333333334,0,0x00,0x00
9.851122166666666,0,0x00,0x00
9.852282041666667,0,0x00,0x0F
9.853441875000000,0,0x00,0x00
9.854601750000000,0,0x81,0x00
9.855761625000000,0,0x06,0x00
9.945864583333334,0,0x00,0x88
9.946963374999999,0,0x00,0x33
9.948123208333334,0,0x00,0x0F
9.949283083333333,0,0x00,0x00
9.950442958333333,0,0x00,0x00
9.951602833333334,0,0x00,0x00
9.952762708333333,0,0x00,0x0F
9.953922541666667,0,0x00,0x00
9.955082416666666,0,0x81,0x00
9.956242291666667,0,0x06,0x00
10.046345208333333,0,0x00,0x88
10.047444041666667,0,0x00,0x33
10.048603875000000,0,0x00,0x0F
10.049763750000000,0,0x00,0x00
10.050923624999999,0,0x00,0x00
10.052083458333334,0,0x00,0x00
10.053243333333333,0,0x00,0x0F
10.054403208333333,0,0x00,0x00
10.055563041666666,0,0x81,0x00
10.056722916666667,0,0x06,0x00
10.146825874999999,0,0x00,0x88
10.147924666666666,0,0x00,0x33
10.149084541666667,0,0x00,0x0F
10.150244375000000,0,0x00,0x00
10.151404250000001,0,0x00,0x00
10.152564125000000,0,0x00,0x00
10.153724000000000,0,0x00,0x0F
10.154883833333333,0,0x00,0x00
10.156043708333334,0,0x81,0x00
10.157203583333333,0,0x06,0x00
10.247306541666667,0,0x00,0x88
10.248405333333332,0,0x00,0x33
10.249565166666667,0,0x00,0x0F
10.250725041666668,0,0x00,0x00
10.251884916666667,0,0x00,0x00
10.253044791666667,0,0x00,0x00
10.254204625000000,0,0x00,0x0F
10.255364500000001,0,0x00,0x00
10.256524375000000,0,0x81,0x00
10.257684208333334,0,0x06,0x00
10.347787166666667,0,0x00,0x88
10.348886000000000,0,0x00,0x33
10.350045833333333,0,0x00,0x0F
10.351205708333334,0,0x00,0x00
10.352365583333333,0,0x00,0x00
10.353525416666667,0,0x00,0x00
10.354685291666666,0,0x00,0x0F
10.355845125000000,0,0x00,0x00
10.357004999999999,0,0x81,0x00
10.358164875000000,0,0x06,0x00
10.448267833333333,0,0x00,0x88
10.449366625000000,0,0x00,0x33
10.450526500000000,0,0x00,0x0F
10.451686333333333,0,0x00,0x00
10.452846208333334,0,0x00,0x00
10.454006083333333,0,0x00,0x00
10.455165958333334,0,0x00,0x0F
10.456325791666666,0,0x00,0x00
10.457485666666667,0,0x81,0x00
10.458645541666666,0,0x06,0x00
10.548687458333333,0,0x00,0x88
10.549786250000000,0,0x00,0x33
10.550946083333333,0,0x00,0x0F
10.552105958333334,0,0x00,0x00
10.553265833333333,0,0x00,0x00
10.554425708333333,0,0x00,0x00
10.555585541666666,0,0x00,0x0F
10.556745416666667,0,0x00,0x00
10.557905249999999,0,0x81,0x00
10.559065125000000,0,0x06,0x00
10.649168083333333,0,0x00,0x88
10.650266875000000,0,0x00,0x33
10.651426750000001,0,0x00,0x0F
10.652586583333333,0,0x00,0x00
10.653746458333334,0,0x00,0x00
10.654906333333333,0,0x00,0x00
10.656066208333334,0,0x00,0x0F
10.657226041666666,0,0x00,0x00
10.658385916666667,0,0x81,0x00
10.659545791666666,0,0x06,0x00
10.749648750000000,0,0x00,0x88
10.750747541666666,0,0x00,0x33
10.751907375000000,0,0x00,0x0F
10.753067250000001,0,0x00,0x00
10.754227125000000,0,0x00,0x00
10.755387000000001,0,0x00,0x00
10.756546833333333,0,0x00,0x0F
10.757706708333334,0,0x00,0x00
10.758866583333333,0,0x81,0x00
10.760026458333334,0,0x06,0x00
10.850129375000000,0,0x00,0x88
10.851228208333334,0,0x00,0x33
10.852388041666666,0,0x00,0x0F
10.853547916666667,0,0x00,0x00
10.854707791666666,0,0x00,0x00
10.855867625000000,0,0x00,0x00
10.857027499999999,0,0x00,0x0F
10.858187333333333,0,0x00,0x00
10.859347208333332,0,0x81,0x00
10.860507083333333,0,0x06,0x00
10.950610041666666,0,0x00,0x88
10.951708833333333,0,0x00,0x33
10.952868708333334,0,0x00,0x0F
10.954028541666666,0,0x00,0x00
10.955188416666667,0,0x00,0x00
10.956348291666666,0,0x00,0x00
10.957508166666667,0,0x00,0x0F
10.958667999999999,0,0x00,0x00
10.959827875000000,0,0x81,0x00
10.960987749999999,0,0x06,0x00
11.051090708333334,0,0x00,0x88
11.052189500000001,0,0x00,0x33
11.053349333333333,0,0x00,0x0F
11.054509208333334,0,0x00,0x00
11.055669083333333,0,0x00,0x00
11.056828958333334,0,0x00,0x00
11.057988791666666,0,0x00,0x0F
11.059148666666667,0,0x00,0x00
11.060308541666666,0,0x81,0x00
11.061468375000000,0,0x04,0x00
