Time [s],Packet ID,MOSI,MISO
1.028733833333333,0,0x12,0x29
1.030212458333333,0,0x5E,0x83
2.059301625000000,0,0x00,0x00
2.060661166666667,0,0x00,0x80
2.062048666666667,0,0x00,0x00
2.063469250000000,0,0x00,0x00
2.064856750000000,0,0x00,0x00
2.066277333333333,0,0x00,0x00
2.067664833333333,0,0x00,0x00
2.069085416666667,0,0x00,0x00
2.070472916666667,0,0x00,0x00
2.071893541666667,0,0x00,0x00
2.073281000000000,0,0x00,0x00
2.074762666666667,0,0x00,0x00
2.076150166666667,0,0x00,0x00
2.077570750000000,0,0x00,0x00
2.078958250000000,0,0x00,0x00
2.080378875000000,0,0x00,0x00
2.081766333333333,0,0x00,0x00
2.083186958333333,0,0x00,0x00
2.084574416666667,0,0x00,0x00
2.085995041666667,0,0x00,0x00
2.087382500000000,0,0x00,0x00
2.088803166666667,0,0x00,0x00
2.090190583333333,0,0x00,0x00
2.091611250000000,0,0x00,0x00
2.092998666666666,0,0x00,0x00
2.094419333333333,0,0x00,0x00
2.095806750000000,0,0x00,0x00
2.097227416666667,0,0x00,0x00
2.098614833333333,0,0x01,0x00
2.100035500000000,0,0x00,0x01
2.101422958333333,0,0xFF,0xFF
2.102843625000000,0,0xFF,0xFF
2.104292041666667,0,0xC0,0xC0
2.105712833333333,0,0xFF,0xFF
2.107161208333333,0,0x83,0x83
2.108704000000000,0,0xFC,0xFC
2.110152458333333,0,0xAB,0xAB
2.111573125000000,0,0xD4,0xD4
2.113021583333333,0,0xFF,0xFF
2.114442250000000,0,0x80,0x80
2.115890708333333,0,0xBD,0xBD
2.117311416666666,0,0xC0,0xC0
2.118759833333333,0,0xF8,0xF8
2.120180625000000,0,0x80,0x80
2.121629000000000,0,0xD5,0xD5
2.123049708333333,0,0x80,0x80
2.124498125000000,0,0xFF,0xFF
2.125918833333333,0,0xFF,0xFF
2.127367208333333,0,0x2A,0x2A
2.128788041666667,0,0xD5,0xD5
2.130236333333333,0,0xFF,0xFF
2.131657083333333,0,0x00,0x00
2.133105500000000,0,0xFF,0xFF
2.134526250000000,0,0x00,0x00
2.135974625000000,0,0xE0,0xE0
2.137395375000000,0,0x00,0x00
2.138843750000000,0,0x55,0x55
2.140264500000000,0,0x00,0x00
2.141712875000000,0,0x00,0x00
2.143133666666666,0,0x00,0x00
2.144582000000000,0,0x40,0x40
2.146002833333333,0,0x00,0x00
2.147451166666666,0,0xFF,0xFF
2.148871958333333,0,0xFF,0xFF
2.150320250000000,0,0xF0,0xF0
2.151741083333333,0,0x00,0x00
2.153189416666667,0,0xF3,0xF3
2.154610208333333,0,0x04,0x04
2.156058541666667,0,0x43,0x43
2.157479375000000,0,0x34,0x34
2.158927666666667,0,0x10,0x10
2.160348500000000,0,0x20,0x20
2.161796791666667,0,0x43,0x43
2.163217625000000,0,0x34,0x34
2.164665916666667,0,0x08,0x08
2.166086791666667,0,0x30,0x30
2.167535041666667,0,0x1F,0x1F
2.168955916666667,0,0x30,0x30
2.170404208333333,0,0xFF,0xFF
2.171825083333333,0,0xFF,0xFF
2.173273291666667,0,0x03,0x03
2.174694208333333,0,0x01,0x01
2.176142458333334,0,0xE1,0xE1
2.177563333333334,0,0x01,0x01
2.179011583333333,0,0xE1,0xE1
2.180432500000000,0,0x01,0x01
2.181880708333333,0,0x01,0x01
2.183301625000000,0,0x01,0x01
2.184749833333334,0,0xA1,0xA1
2.186170750000000,0,0x41,0x41
2.187618958333333,0,0x01,0x01
2.189039916666667,0,0x01,0x01
2.190488125000000,0,0xF5,0xF5
2.191970083333334,0,0x01,0x01
2.193418291666667,0,0xC0,0xC0
2.194839333333333,0,0x80,0x80
2.196287458333333,0,0x85,0x85
2.197708375000000,0,0x80,0x80
2.199156583333334,0,0xFA,0xFA
2.200577625000000,0,0x81,0x81
2.202025666666667,0,0xB6,0xB6
2.203446750000000,0,0xC1,0xC1
2.204894791666667,0,0xE7,0xE7
2.206315791666666,0,0x80,0x80
2.207764000000000,0,0xFC,0xFC
2.209185041666667,0,0xC0,0xC0
2.210633125000000,0,0x9E,0x9E
2.212054166666667,0,0x80,0x80
2.213502250000000,0,0xB0,0xB0
2.214923333333333,0,0x84,0x84
2.216371333333333,0,0x00,0x00
2.217792375000000,0,0x00,0x00
2.219240458333333,0,0x02,0x02
2.220661500000000,0,0x00,0x00
2.222109666666667,0,0x80,0x80
2.223530666666667,0,0x00,0x00
2.224978750000000,0,0x44,0x44
2.226399791666667,0,0x01,0x01
2.227847833333333,0,0x21,0x21
2.229268916666667,0,0x00,0x00
2.230717000000000,0,0x64,0x64
2.232138083333334,0,0x01,0x01
2.233586125000000,0,0x61,0x61
2.235007208333333,0,0x00,0x00
2.236455250000000,0,0x10,0x10
2.237876333333333,0,0x41,0x41
2.239324375000000,0,0x0F,0x0F
2.240745458333333,0,0x30,0x30
2.242193541666667,0,0x1D,0x1D
2.243614625000000,0,0x30,0x30
2.245062666666667,0,0x1B,0x1B
2.246483750000000,0,0x30,0x30
2.247931833333333,0,0xDA,0xDA
2.249352916666667,0,0x35,0x35
2.250800916666666,0,0x98,0x98
2.252222041666667,0,0x30,0x30
2.253670041666667,0,0x5F,0x5F
2.255091208333333,0,0xB0,0xB0
2.256539208333333,0,0x1F,0x1F
2.257960333333333,0,0xB0,0xB0
2.259408333333333,0,0x58,0x58
2.260829541666667,0,0xB0,0xB0
2.262277500000000,0,0x9D,0x9D
2.263698583333333,0,0x63,0x63
2.265146583333333,0,0x75,0x75
2.266567750000000,0,0x01,0x01
2.268015708333333,0,0xFF,0xFF
2.269436875000000,0,0x01,0x01
2.270884833333333,0,0x8B,0x8B
2.272306000000000,0,0x75,0x75
2.273754000000000,0,0xC1,0xC1
2.275175166666667,0,0x01,0x01
2.276623125000000,0,0xAB,0xAB
2.278044291666667,0,0x55,0x55
2.279492250000000,0,0x9F,0x9F
2.280913416666666,0,0x61,0x61
2.282361375000000,0,0x65,0x65
2.283782583333333,0,0x01,0x01
2.285230500000000,0,0xA9,0xA9
2.286651750000000,0,0xC0,0xC0
2.288099708333333,0,0xB6,0xB6
2.289520958333333,0,0x81,0x81
2.290968791666667,0,0xE3,0xE3
2.292451041666667,0,0x80,0x80
2.293899000000000,0,0x98,0x98
2.295320291666667,0,0x86,0x86
2.296768125000000,0,0x84,0x84
2.298189375000000,0,0x80,0x80
2.299637250000000,0,0xD4,0xD4
2.301058583333333,0,0x88,0x88
2.302506375000000,0,0xB0,0xB0
2.303927708333333,0,0xC8,0xC8
2.305375541666667,0,0xE1,0xE1
2.306796750000000,0,0xD0,0xD0
2.308244666666667,0,0x82,0x82
2.309665916666667,0,0x00,0x00
2.311113750000000,0,0x72,0x72
2.312535041666667,0,0x00,0x00
2.313982875000000,0,0x02,0x02
2.315404166666667,0,0x00,0x00
2.316852000000000,0,0x72,0x72
2.318273333333333,0,0x01,0x01
2.319721125000000,0,0x03,0x03
2.321142458333334,0,0x00,0x00
2.322590250000000,0,0x06,0x06
2.324011583333333,0,0x41,0x41
2.325459375000000,0,0x04,0x04
2.326880750000000,0,0x02,0x02
2.328328583333333,0,0x87,0x87
2.329749875000000,0,0x04,0x04
2.331197708333333,0,0xDF,0xDF
2.332619000000000,0,0x30,0x30
2.334066833333333,0,0x9A,0x9A
2.335488166666666,0,0x35,0x35
2.336935916666667,0,0x18,0x18
2.338357375000000,0,0xB0,0xB0
2.339805041666667,0,0x1A,0x1A
2.341226541666667,0,0xB5,0xB5
2.342674166666667,0,0x3F,0x3F
2.344095583333333,0,0x90,0x90
2.345543333333334,0,0x5D,0x5D
2.346964708333333,0,0xB0,0xB0
2.348412458333333,0,0x5F,0x5F
2.349833875000000,0,0xB0,0xB0
2.351281583333333,0,0x1D,0x1D
2.352703000000000,0,0xF0,0xF0
2.354150750000000,0,0xF3,0xF3
2.355572125000000,0,0x0D,0x0D
2.357019833333333,0,0xAF,0xAF
2.358441250000000,0,0x51,0x51
2.359888958333333,0,0x0B,0x0B
2.361310416666667,0,0x01,0x01
2.362758083333333,0,0x23,0x23
2.364179583333333,0,0xDD,0xDD
2.365627250000000,0,0xF3,0xF3
2.367048708333333,0,0x01,0x01
2.368496375000000,0,0xEB,0xEB
2.369917833333334,0,0x15,0x15
2.371365500000000,0,0x43,0x43
2.372787000000000,0,0xBD,0xBD
2.374234625000000,0,0x57,0x57
2.375656125000000,0,0x01,0x01
2.377103791666667,0,0x80,0x80
2.378525375000000,0,0x80,0x80
2.379972958333334,0,0x80,0x80
2.381394500000000,0,0x81,0x81
2.382842041666667,0,0xB3,0xB3
2.384263541666667,0,0xC0,0xC0
2.385711208333333,0,0xFF,0xFF
2.387132708333333,0,0xFF,0xFF
2.388580291666667,0,0x00,0x00
2.390001833333333,0,0x00,0x00
2.391449458333333,0,0x00,0x00
2.392932000000000,0,0x00,0x00
2.394379625000000,0,0x00,0x00
2.395801166666667,0,0x00,0x00
2.397248750000000,0,0x00,0x00
2.398670291666666,0,0x00,0x00
2.400117875000000,0,0x05,0x05
2.401539416666667,0,0x00,0x00
2.402987000000000,0,0x41,0x41
2.404408541666667,0,0x00,0x00
2.405856125000000,0,0x01,0x01
2.407277708333333,0,0x00,0x00
2.408725333333333,0,0xFF,0xFF
2.410146875000000,0,0xFF,0xFF
2.411594375000000,0,0x00,0x00
2.413016000000000,0,0x00,0x00
2.414463541666667,0,0x00,0x00
2.415885125000000,0,0x00,0x00
2.417332666666667,0,0x00,0x00
2.418754291666667,0,0x00,0x00
2.420201791666666,0,0x00,0x00
2.421623416666667,0,0x00,0x00
2.423070916666667,0,0x5F,0x5F
2.424492541666667,0,0xB0,0xB0
2.425940125000000,0,0x9A,0x9A
2.427361708333333,0,0x75,0x75
2.428809166666666,0,0x1A,0x1A
2.430230833333333,0,0x30,0x30
2.431678375000000,0,0xFF,0xFF
2.433099958333333,0,0xFF,0xFF
2.434547458333333,0,0x00,0x00
2.435969125000000,0,0x00,0x00
2.437416583333333,0,0x00,0x00
2.438838250000000,0,0x00,0x00
2.440285708333333,0,0x00,0x00
2.441707416666667,0,0x00,0x00
2.443154875000000,0,0x00,0x00
2.444576541666667,0,0x00,0x00
2.446024041666667,0,0xC3,0xC3
2.447445666666667,0,0x3D,0x3D
2.448893125000000,0,0xAB,0xAB
2.450314791666667,0,0x55,0x55
2.451762250000000,0,0xF7,0xF7
2.453183958333333,0,0x01,0x01
2.454631375000000,0,0xFF,0xFF
2.456053083333333,0,0xFF,0xFF
2.457500500000000,0,0x00,0x00
2.458922250000000,0,0x00,0x00
2.460369666666667,0,0x00,0x00
2.461791375000000,0,0x00,0x00
2.463238791666666,0,0x00,0x00
2.464660541666666,0,0x00,0x00
2.466107916666667,0,0x00,0x00
2.467529666666667,0,0x00,0x00
2.468977083333333,0,0xFF,0xFF
2.470398791666667,0,0xFF,0xFF
2.471846166666666,0,0x80,0x80
2.473268041666667,0,0x80,0x80
2.474715375000000,0,0x80,0x80
2.476137166666667,0,0x80,0x80
2.477584500000000,0,0x80,0x80
2.479006291666667,0,0x80,0x80
2.480453625000000,0,0x80,0x80
2.481875458333333,0,0x80,0x80
2.483322750000000,0,0x80,0x80
2.484744583333333,0,0x80,0x80
2.486191875000000,0,0x80,0x80
2.487613708333333,0,0x80,0x80
2.489061000000000,0,0x80,0x80
2.490482875000000,0,0x80,0x80
2.491930166666667,0,0xFF,0xFF
2.493412958333333,0,0xFF,0xFF
2.494860250000000,0,0x00,0x00
2.496282125000000,0,0x00,0x00
2.497729416666667,0,0x00,0x00
2.499151250000000,0,0x00,0x00
2.500598541666667,0,0x00,0x00
2.502020375000000,0,0x00,0x00
2.503467666666667,0,0x00,0x00
2.504889541666667,0,0x00,0x00
2.506336791666667,0,0x00,0x00
2.507758666666667,0,0x00,0x00
2.509205958333333,0,0x00,0x00
2.510627833333333,0,0x00,0x00
2.512075083333333,0,0x00,0x00
2.513496958333334,0,0x00,0x00
2.514944250000000,0,0xFF,0xFF
2.516366083333333,0,0xFF,0xFF
2.517813333333333,0,0x00,0x00
2.519235250000000,0,0x00,0x00
2.520682458333333,0,0x00,0x00
2.522104375000000,0,0x00,0x00
2.523551583333334,0,0x00,0x00
2.524973500000000,0,0x00,0x00
2.526420750000000,0,0x00,0x00
2.527842666666666,0,0x00,0x00
2.529289875000000,0,0x00,0x00
2.530711791666667,0,0x00,0x00
2.532159000000000,0,0x00,0x00
2.533580916666667,0,0x00,0x00
2.535028125000000,0,0x00,0x00
2.536450083333333,0,0x00,0x00
2.537897291666667,0,0xFF,0xFF
2.539319208333333,0,0xFF,0xFF
2.540766375000000,0,0x01,0x01
2.542188333333333,0,0x01,0x01
2.543635500000000,0,0x01,0x01
2.545057500000000,0,0x01,0x01
2.546504625000000,0,0x01,0x01
2.547926625000000,0,0x01,0x01
2.549373791666667,0,0x01,0x01
2.550795750000000,0,0x01,0x01
2.552242916666667,0,0x01,0x01
2.553664916666667,0,0x01,0x01
2.555112041666667,0,0x01,0x01
2.556534041666667,0,0x01,0x01
2.557981166666667,0,0x01,0x01
2.559403166666667,0,0x01,0x01
2.560850333333333,0,0x80,0x80
2.562272416666667,0,0x80,0x80
2.563719500000000,0,0x94,0x94
2.565141541666667,0,0x80,0x80
2.566588625000000,0,0xFC,0xFC
2.568010708333333,0,0x80,0x80
2.569457750000000,0,0xEF,0xEF
2.570879750000000,0,0x90,0x90
2.572326875000000,0,0xED,0xED
2.573748916666667,0,0x90,0x90
2.575196041666667,0,0xE2,0xE2
2.576618125000000,0,0x9D,0x9D
2.578065125000000,0,0xA3,0xA3
2.579487166666667,0,0xDC,0xDC
2.580934291666667,0,0x82,0x82
2.582356416666667,0,0xFD,0xFD
2.583803375000000,0,0x00,0x00
2.585225458333333,0,0x00,0x00
2.586672500000000,0,0x01,0x01
2.588094583333334,0,0x00,0x00
2.589541666666667,0,0xCF,0xCF
2.590963708333333,0,0x00,0x00
2.592410750000000,0,0x73,0x73
2.593893916666667,0,0x0C,0x0C
2.595341000000000,0,0x93,0x93
2.596763041666667,0,0x6C,0x6C
2.598210083333333,0,0x40,0x40
2.599632291666667,0,0xFF,0xFF
2.601079208333333,0,0x00,0x00
2.602501416666667,0,0xFF,0xFF
2.603948333333333,0,0xAD,0xAD
2.605370458333333,0,0x5E,0x5E
2.606817458333333,0,0x00,0x00
2.608239625000000,0,0x00,0x00
2.609686625000000,0,0x57,0x57
2.611108750000000,0,0x00,0x00
2.612555791666667,0,0xCC,0xCC
2.613977916666667,0,0x00,0x00
2.615424875000000,0,0x75,0x75
2.616847041666666,0,0x0A,0x0A
2.618294041666667,0,0xFF,0xFF
2.619716166666667,0,0x00,0x00
2.621163166666667,0,0xB3,0xB3
2.622585333333333,0,0x44,0x44
2.624032291666667,0,0xFB,0xFB
2.625454458333333,0,0x04,0x04
2.626901416666667,0,0x68,0x68
2.628323625000000,0,0x17,0x17
2.629770500000000,0,0x01,0x01
2.631192750000000,0,0x01,0x01
2.632639666666666,0,0x75,0x75
2.634061875000000,0,0x01,0x01
2.635508791666667,0,0x4D,0x4D
2.636931000000000,0,0x01,0x01
2.638377916666667,0,0xD5,0xD5
2.639800166666667,0,0x01,0x01
2.641247041666666,0,0x4F,0x4F
2.642669291666667,0,0x01,0x01
2.644116208333333,0,0xA7,0xA7
2.645538458333333,0,0x51,0x51
2.646985333333333,0,0xDF,0xDF
2.648407583333333,0,0x21,0x21
2.649854458333333,0,0xCB,0xCB
2.651276708333334,0,0x05,0x05
2.652723583333333,0,0xC4,0xC4
2.654145958333333,0,0xBB,0xBB
2.655592708333333,0,0xD9,0xD9
2.657015000000000,0,0xB7,0xB7
2.658461833333333,0,0x9F,0x9F
2.659884166666667,0,0xE1,0xE1
2.661331000000000,0,0xE8,0xE8
2.662753375000000,0,0xE7,0xE7
2.664200125000000,0,0xC9,0xC9
2.665622416666667,0,0xE4,0xE4
2.667069291666667,0,0xD9,0xD9
2.668491583333333,0,0xE4,0xE4
2.669938416666667,0,0x99,0x99
2.671360708333333,0,0xE0,0xE0
2.672807541666667,0,0xC3,0xC3
2.674229875000000,0,0xFC,0xFC
2.675676625000000,0,0x0D,0x0D
2.677099000000000,0,0xFE,0xFE
2.678545791666667,0,0x3D,0x3D
2.679968125000000,0,0xDE,0xDE
2.681414916666667,0,0x26,0x26
2.682837375000000,0,0xD9,0xD9
2.684284041666666,0,0x55,0x55
2.685706416666667,0,0x83,0x83
2.687153166666667,0,0x7E,0x7E
2.688575625000000,0,0x81,0x81
2.690022291666667,0,0xEB,0xEB
2.691444666666666,0,0x14,0x14
2.692891416666667,0,0x38,0x38
2.694374875000000,0,0x04,0x04
2.695821625000000,0,0x13,0x13
2.697244000000000,0,0x1C,0x1C
2.698690791666666,0,0xAE,0xAE
2.700113166666667,0,0x11,0x11
2.701559875000000,0,0x71,0x71
2.702982291666667,0,0x8F,0x8F
2.704429000000000,0,0x1F,0x1F
2.705851458333334,0,0xE0,0xE0
2.707298166666666,0,0xAB,0xAB
2.708720583333333,0,0xD4,0xD4
2.710167333333333,0,0x9E,0x9E
2.711589708333333,0,0x60,0x60
2.713036458333333,0,0xBF,0xBF
2.714458833333333,0,0x40,0x40
2.715905541666667,0,0x67,0x67
2.717328000000000,0,0x00,0x00
2.718774666666667,0,0x56,0x56
2.720197166666667,0,0x01,0x01
2.721643791666667,0,0xFF,0xFF
2.723066250000000,0,0x01,0x01
2.724512916666667,0,0xE7,0xE7
2.725935416666667,0,0x11,0x11
2.727382083333334,0,0xBD,0xBD
2.728804541666667,0,0x01,0x01
2.730251208333333,0,0xC3,0xC3
2.731673708333333,0,0x15,0x15
2.733120333333333,0,0xE1,0xE1
2.734542833333333,0,0x01,0x01
2.735989458333334,0,0x53,0x53
2.737411958333333,0,0x05,0x05
2.738858583333333,0,0x47,0x47
2.740281125000000,0,0x81,0x81
2.741727708333333,0,0x43,0x43
2.743150250000000,0,0xFD,0xFD
2.744596875000000,0,0xE4,0xE4
2.746019500000000,0,0xF8,0xF8
2.747466041666667,0,0xDC,0xDC
2.748888625000000,0,0xF0,0xF0
2.750335166666667,0,0xD8,0xD8
2.751757791666666,0,0x80,0x80
2.753204291666667,0,0xFF,0xFF
2.754626833333333,0,0xFF,0xFF
2.756073375000000,0,0x00,0x00
2.757495958333333,0,0x00,0x00
2.758942500000000,0,0x00,0x00
2.760365125000000,0,0x00,0x00
2.761811666666667,0,0x00,0x00
2.763234250000000,0,0x00,0x00
2.764680791666667,0,0x00,0x00
2.766103375000000,0,0x00,0x00
2.767549916666667,0,0x10,0x10
2.768972541666667,0,0x00,0x00
2.770419041666667,0,0x31,0x31
2.771841666666667,0,0x00,0x00
2.773288166666667,0,0x19,0x19
2.774710791666667,0,0x00,0x00
2.776157333333333,0,0xFF,0xFF
2.777579958333333,0,0xFF,0xFF
2.779026416666666,0,0x00,0x00
2.780449083333334,0,0x00,0x00
2.781895583333333,0,0x00,0x00
2.783318250000000,0,0x00,0x00
2.784764708333333,0,0x00,0x00
2.786187375000000,0,0x00,0x00
2.787633833333333,0,0x00,0x00
2.789056500000000,0,0x00,0x00
2.790503000000000,0,0xE2,0xE2
2.791925666666667,0,0x01,0x01
2.793372083333333,0,0x37,0x37
2.794794791666666,0,0x41,0x41
2.796241208333333,0,0x4E,0x4E
2.797663958333333,0,0x01,0x01
2.799110375000000,0,0xFF,0xFF
2.800533083333333,0,0xFF,0xFF
2.801979500000000,0,0x00,0x00
2.803402208333333,0,0x00,0x00
2.804848625000000,0,0x00,0x00
2.806271375000000,0,0x00,0x00
2.807717750000000,0,0x00,0x00
2.809140500000000,0,0x00,0x00
2.810586875000000,0,0x00,0x00
2.812009625000000,0,0x00,0x00
2.813456041666667,0,0x41,0x41
2.814878791666667,0,0xFF,0xFF
2.816325166666667,0,0xCD,0xCD
2.817747916666667,0,0xE1,0xE1
2.819194291666667,0,0xCF,0xCF
2.820617041666666,0,0x81,0x81
2.822063416666666,0,0xFF,0xFF
2.823486208333333,0,0xFF,0xFF
2.824932541666667,0,0x00,0x00
2.826355333333333,0,0x00,0x00
2.827801666666667,0,0x00,0x00
2.829224500000000,0,0x00,0x00
2.830670833333333,0,0x00,0x00
2.832093625000000,0,0x00,0x00
2.833539958333333,0,0x00,0x00
2.834962750000000,0,0x00,0x00
2.836409125000000,0,0xFF,0xFF
2.837831916666667,0,0xFF,0xFF
2.839278208333333,0,0xFF,0xFF
2.840701041666667,0,0xFF,0xFF
2.842147333333333,0,0xC0,0xC0
2.843570250000000,0,0xFF,0xFF
2.845016458333333,0,0xD4,0xD4
2.846439416666667,0,0xFF,0xFF
2.847885625000000,0,0x80,0x80
2.849308541666667,0,0xFF,0xFF
2.850754750000000,0,0xC0,0xC0
2.852177708333334,0,0xFF,0xFF
2.853623875000000,0,0x83,0x83
2.855046750000000,0,0xFC,0xFC
2.856493041666667,0,0x8A,0x8A
2.857915958333333,0,0xF5,0xF5
2.859362125000000,0,0xFF,0xFF
2.860785041666666,0,0xFF,0xFF
2.862231250000000,0,0x53,0x53
2.863654166666667,0,0xFC,0xFC
2.865100416666666,0,0x02,0x02
2.866523375000000,0,0xFC,0xFC
2.867969541666667,0,0x40,0x40
2.869392541666667,0,0xFC,0xFC
2.870838666666667,0,0x18,0x18
2.872261666666667,0,0xE4,0xE4
2.873707791666666,0,0x2C,0x2C
2.875130791666667,0,0xD4,0xD4
2.876576958333333,0,0xE4,0xE4
2.877999875000000,0,0x00,0x00
2.879446125000000,0,0xE4,0xE4
2.880869000000000,0,0x00,0x00
2.882315250000000,0,0xFF,0xFF
2.883738166666667,0,0xFF,0xFF
2.885184333333333,0,0xF8,0xF8
2.886607291666667,0,0x07,0x07
2.888053458333333,0,0x04,0x04
2.889476416666667,0,0x0B,0x0B
2.890922583333333,0,0x0A,0x0A
2.892345583333333,0,0x05,0x05
2.893791708333334,0,0xC7,0xC7
2.895275750000000,0,0x00,0x00
2.896721916666666,0,0x43,0x43
2.898144875000000,0,0x04,0x04
2.899591083333333,0,0x85,0x85
2.901014000000000,0,0x00,0x00
2.902460166666667,0,0x05,0x05
2.903883166666667,0,0x00,0x00
2.905329333333333,0,0xFF,0xFF
2.906752333333333,0,0xFF,0xFF
2.908198416666667,0,0x0B,0x0B
2.909621458333334,0,0xF5,0xF5
2.911067541666667,0,0x09,0x09
2.912490583333333,0,0xF7,0xF7
2.913936708333333,0,0xAB,0xAB
2.915359708333333,0,0x55,0x55
2.916805833333334,0,0xFF,0xFF
2.918228875000000,0,0x01,0x01
2.919674958333333,0,0xFB,0xFB
2.921098000000000,0,0x05,0x05
2.922544083333333,0,0xFF,0xFF
2.923967125000000,0,0x01,0x01
2.925413208333334,0,0x55,0x55
2.926836291666667,0,0x01,0x01
2.928282333333333,0,0xFF,0xFF
2.929705416666667,0,0x80,0x80
2.931151541666666,0,0xFD,0xFD
2.932574583333333,0,0x80,0x80
2.934020666666667,0,0xF0,0xF0
2.935443791666667,0,0x80,0x80
2.936889791666667,0,0xD5,0xD5
2.938312875000000,0,0x80,0x80
2.939758916666667,0,0x80,0x80
2.941182083333334,0,0x80,0x80
2.942628041666667,0,0xD5,0xD5
2.944051125000000,0,0x80,0x80
2.945497166666667,0,0x83,0x83
2.946920291666667,0,0x80,0x80
2.948366333333333,0,0x87,0x87
2.949789416666666,0,0xC0,0xC0
2.951235458333333,0,0xCA,0xCA
2.952658541666667,0,0x25,0x25
2.954104541666667,0,0x4F,0x4F
2.955527666666667,0,0x20,0x20
2.956973666666667,0,0x4C,0x4C
2.958396833333333,0,0x20,0x20
2.959842791666667,0,0x5A,0x5A
2.961265958333333,0,0x25,0x25
2.962711916666667,0,0x50,0x50
2.964135125000000,0,0x20,0x20
2.965581083333333,0,0x5A,0x5A
2.967004250000000,0,0x25,0x25
2.968450166666667,0,0x41,0x41
2.969873375000000,0,0x2E,0x2E
2.971319375000000,0,0xD4,0xD4
2.972742541666667,0,0x20,0x20
2.974188458333333,0,0x00,0x00
2.975611750000000,0,0xC0,0xC0
2.977057625000000,0,0xC1,0xC1
2.978480791666667,0,0x00,0x00
2.979926708333333,0,0x00,0x00
2.981349958333333,0,0x00,0x00
2.982795916666667,0,0x80,0x80
2.984219083333334,0,0x40,0x40
2.985665000000000,0,0x00,0x00
2.987088250000000,0,0x00,0x00
2.988534166666667,0,0xBC,0xBC
2.989957375000000,0,0x40,0x40
2.991403291666667,0,0x94,0x94
2.992826541666667,0,0x68,0x68
2.994272375000000,0,0x45,0x45
2.995756708333333,0,0x00,0x00
2.997202583333333,0,0x01,0x01
2.998625833333334,0,0x01,0x01
3.000071666666666,0,0x41,0x41
3.001494958333333,0,0x01,0x01
3.002940791666667,0,0x01,0x01
3.004364125000000,0,0x01,0x01
3.005809958333333,0,0x01,0x01
3.007233250000000,0,0x01,0x01
3.008679083333333,0,0x01,0x01
3.010102375000000,0,0x01,0x01
3.011548208333333,0,0x01,0x01
3.012971541666666,0,0x01,0x01
3.014417333333333,0,0x01,0x01
3.015840666666667,0,0x01,0x01
3.017286500000000,0,0xD5,0xD5
3.018709833333333,0,0x01,0x01
3.020155625000000,0,0xE4,0xE4
3.021579041666667,0,0x80,0x80
3.023024791666667,0,0xF1,0xF1
3.024448125000000,0,0x84,0x84
3.025893916666667,0,0xC9,0xC9
3.027317250000000,0,0xA4,0xA4
3.028763041666667,0,0x94,0x94
3.030186458333334,0,0xE1,0xE1
3.031632166666667,0,0xA1,0xA1
3.033055541666667,0,0xC0,0xC0
3.034501333333333,0,0x92,0x92
3.035924750000000,0,0xC1,0xC1
3.037370416666667,0,0xD3,0xD3
3.038793833333334,0,0xA0,0xA0
3.040239583333333,0,0xB0,0xB0
3.041663041666667,0,0xC3,0xC3
3.043108666666666,0,0x63,0x63
3.044532083333333,0,0xAC,0xAC
3.045977791666667,0,0x72,0x72
3.047401333333333,0,0xED,0xED
3.048846916666667,0,0x21,0x21
3.050270375000000,0,0xE0,0xE0
3.051716083333333,0,0x70,0x70
3.053139583333333,0,0xEF,0xEF
3.054585208333333,0,0x2F,0x2F
3.056008666666667,0,0xE0,0xE0
3.057454333333333,0,0x67,0x67
3.058877791666667,0,0xE0,0xE0
3.060323500000000,0,0xA0,0xA0
3.061746916666667,0,0x6F,0x6F
3.063192583333334,0,0x2E,0x2E
3.064616125000000,0,0xE1,0xE1
3.066061708333333,0,0x35,0x35
3.067485208333333,0,0xC8,0xC8
3.068930875000000,0,0x2D,0x2D
3.070354375000000,0,0xD0,0xD0
3.071800041666667,0,0x80,0x80
3.073223500000000,0,0x00,0x00
3.074669125000000,0,0x24,0x24
3.076092708333333,0,0xD8,0xD8
3.077538291666666,0,0xFA,0xFA
3.078961791666667,0,0x00,0x00
3.080407416666667,0,0xDF,0xDF
3.081830916666667,0,0x00,0x00
3.083276541666667,0,0x07,0x07
3.084700041666667,0,0xF8,0xF8
3.086145708333333,0,0xF6,0xF6
3.087569208333333,0,0x01,0x01
3.089014791666667,0,0xA7,0xA7
3.090438333333333,0,0x01,0x01
3.091883916666667,0,0x59,0x59
3.093307458333333,0,0x07,0x07
3.094753041666667,0,0x01,0x01
3.096237666666667,0,0x07,0x07
3.097683208333333,0,0x13,0x13
3.099106791666667,0,0x05,0x05
3.100552333333333,0,0x21,0x21
3.101975916666666,0,0x07,0x07
3.103421458333333,0,0x5B,0x5B
3.104845083333333,0,0x25,0x25
3.106290625000000,0,0x5D,0x5D
3.107714208333333,0,0x23,0x23
3.109159750000000,0,0xE9,0xE9
3.110583333333333,0,0x15,0x15
3.112028875000000,0,0xB0,0xB0
3.113452583333333,0,0xC3,0xC3
3.114898000000000,0,0xB4,0xB4
3.116321666666667,0,0xC3,0xC3
3.117767166666667,0,0xA4,0xA4
3.119190875000000,0,0xC3,0xC3
3.120636291666667,0,0xFF,0xFF
3.122059916666667,0,0xFF,0xFF
3.123505416666667,0,0x00,0x00
3.124929083333333,0,0x00,0x00
3.126374541666667,0,0x00,0x00
3.127798208333334,0,0x00,0x00
3.129243666666667,0,0x00,0x00
3.130667333333333,0,0x00,0x00
3.132112791666667,0,0x00,0x00
3.133536500000000,0,0x00,0x00
3.134981958333333,0,0x2F,0x2F
3.136405625000000,0,0xE0,0xE0
3.137851083333334,0,0x70,0x70
3.139274875000000,0,0xEF,0xEF
3.140720208333333,0,0x26,0x26
3.142144000000000,0,0xE0,0xE0
3.143589375000000,0,0xFF,0xFF
3.145013041666667,0,0xFF,0xFF
3.146458458333333,0,0x00,0x00
3.147882208333333,0,0x00,0x00
3.149327583333333,0,0x00,0x00
3.150751333333333,0,0x00,0x00
3.152196750000000,0,0x00,0x00
3.153620458333333,0,0x00,0x00
3.155065875000000,0,0x00,0x00
3.156489625000000,0,0x00,0x00
3.157935041666667,0,0xFE,0xFE
3.159358750000000,0,0x01,0x01
3.160804125000000,0,0x06,0x06
3.162227958333333,0,0xF9,0xF9
3.163673250000000,0,0x0F,0x0F
3.165097000000000,0,0x00,0x00
3.166542458333333,0,0xFF,0xFF
3.167966166666667,0,0xFF,0xFF
3.169411500000000,0,0x00,0x00
3.170835333333333,0,0x00,0x00
3.172280666666667,0,0x00,0x00
3.173704458333333,0,0x00,0x00
3.175149791666667,0,0x00,0x00
3.176573583333334,0,0x00,0x00
3.178018916666667,0,0x00,0x00
3.179442750000000,0,0x00,0x00
3.180888041666666,0,0x23,0x23
3.182311875000000,0,0xD1,0xD1
3.183757166666667,0,0x3F,0x3F
3.185181000000000,0,0xB1,0xB1
3.186626291666667,0,0x7F,0x7F
3.188050125000000,0,0x01,0x01
3.189495458333333,0,0xFF,0xFF
3.190919291666667,0,0xFF,0xFF
3.192364583333333,0,0x00,0x00
3.193788416666667,0,0x00,0x00
3.195233708333333,0,0x00,0x00
3.196718625000000,0,0x00,0x00
3.198163875000000,0,0x00,0x00
3.199587750000000,0,0x00,0x00
3.201033041666667,0,0x00,0x00
3.202456916666667,0,0x00,0x00
3.203902208333334,0,0xFF,0xFF
3.205326041666666,0,0xFF,0xFF
3.206771291666667,0,0xC0,0xC0
3.208195250000000,0,0xFF,0xFF
3.209640416666667,0,0x87,0x87
3.211064333333333,0,0xF8,0xF8
3.212509583333333,0,0xAB,0xAB
3.213933458333333,0,0xD4,0xD4
3.215378750000000,0,0xFF,0xFF
3.216802583333333,0,0x80,0x80
3.218247875000000,0,0xFD,0xFD
3.219671750000000,0,0x80,0x80
3.221117000000000,0,0xE0,0xE0
3.222540958333334,0,0x80,0x80
3.223986125000000,0,0xD5,0xD5
3.225410041666667,0,0x80,0x80
3.226855250000000,0,0xFF,0xFF
3.228279166666667,0,0xFF,0xFF
3.229724333333333,0,0x2A,0x2A
3.231148375000000,0,0xD5,0xD5
3.232593458333333,0,0xFF,0xFF
3.234017416666667,0,0x00,0x00
3.235462666666667,0,0xFD,0xFD
3.236886583333333,0,0x00,0x00
3.238331791666667,0,0x80,0x80
3.239755708333333,0,0x00,0x00
3.241200875000000,0,0x55,0x55
3.242624833333333,0,0x00,0x00
3.244070000000000,0,0x00,0x00
3.245494000000000,0,0x00,0x00
3.246939125000000,0,0x40,0x40
3.248363166666667,0,0x00,0x00
3.249808333333333,0,0xFF,0xFF
3.251232291666667,0,0xFF,0xFF
3.252677416666667,0,0xF6,0xF6
3.254101416666667,0,0x01,0x01
3.255546541666666,0,0xE0,0xE0
3.256970583333333,0,0x03,0x03
3.258415666666667,0,0x51,0x51
3.259839708333333,0,0x07,0x07
3.261284791666667,0,0x03,0x03
3.262708833333333,0,0x07,0x07
3.264153916666667,0,0x07,0x07
3.265577958333334,0,0x07,0x07
3.267023041666667,0,0x07,0x07
3.268447125000000,0,0x07,0x07
3.269892166666667,0,0x07,0x07
3.271316250000000,0,0x07,0x07
3.272761333333333,0,0xFF,0xFF
3.274185416666667,0,0xFF,0xFF
3.275630458333334,0,0x01,0x01
3.277054541666667,0,0x01,0x01
3.278499583333333,0,0x5F,0x5F
3.279923666666666,0,0x21,0x21
3.281368708333333,0,0x7F,0x7F
3.282792833333333,0,0x01,0x01
3.284237833333334,0,0x01,0x01
3.285661958333333,0,0x01,0x01
3.287106958333333,0,0x6F,0x6F
3.288531083333333,0,0x11,0x11
3.289976125000000,0,0x81,0x81
3.291400250000000,0,0x01,0x01
3.292845250000000,0,0x3D,0x3D
3.294269375000000,0,0x81,0x81
3.295714375000000,0,0x80,0x80
3.297199666666667,0,0x80,0x80
3.298644625000000,0,0xD9,0xD9
3.300068708333333,0,0x80,0x80
3.301513750000000,0,0xBB,0xBB
3.302937875000000,0,0x80,0x80
3.304382875000000,0,0xB3,0xB3
3.305807000000000,0,0x9C,0x9C
3.307252000000000,0,0xAC,0xAC
3.308676208333333,0,0x90,0x90
3.310121125000000,0,0xAC,0xAC
3.311545375000000,0,0x90,0x90
3.312990250000000,0,0xC7,0xC7
3.314414416666667,0,0x80,0x80
3.315859416666667,0,0xE5,0xE5
3.317283583333333,0,0x80,0x80
3.318728500000000,0,0x00,0x00
3.320152708333334,0,0x00,0x00
3.321597625000000,0,0x05,0x05
3.323021833333333,0,0x00,0x00
3.324466791666667,0,0x81,0x81
3.325890958333333,0,0x00,0x00
3.327335875000000,0,0x44,0x44
3.328760125000000,0,0x01,0x01
3.330205000000000,0,0x65,0x65
3.331629250000000,0,0x00,0x00
3.333074208333333,0,0xC4,0xC4
3.334498416666666,0,0x21,0x21
3.335943250000000,0,0x61,0x61
3.337367541666667,0,0x00,0x00
3.338812416666667,0,0x50,0x50
3.340236666666667,0,0x01,0x01
3.341681541666667,0,0x06,0x06
3.343105833333333,0,0x07,0x07
3.344550666666667,0,0x07,0x07
3.345974958333333,0,0x07,0x07
3.347419791666667,0,0x0B,0x0B
3.348844083333333,0,0x07,0x07
3.350288916666667,0,0xD7,0xD7
3.351713208333333,0,0x07,0x07
3.353158083333333,0,0x8B,0x8B
3.354582375000000,0,0x07,0x07
3.356027166666667,0,0x5F,0x5F
3.357451541666667,0,0x87,0x87
3.358896333333333,0,0x0B,0x0B
3.360320666666667,0,0x87,0x87
3.361765458333333,0,0x5F,0x5F
3.363189791666667,0,0x87,0x87
3.364634583333333,0,0x81,0x81
3.366058958333333,0,0xBF,0xBF
3.367503708333333,0,0xB5,0xB5
3.368928083333333,0,0x81,0x81
3.370372875000000,0,0xBF,0xBF
3.371797208333333,0,0x81,0x81
3.373242000000000,0,0x89,0x89
3.374666375000000,0,0xB7,0xB7
3.376111125000000,0,0xAB,0xAB
3.377535500000000,0,0x85,0x85
3.378980250000000,0,0xBB,0xBB
3.380404666666667,0,0x85,0x85
3.381849375000000,0,0xB1,0xB1
3.383273791666667,0,0x8F,0x8F
3.384718500000000,0,0x15,0x15
3.386142916666667,0,0x81,0x81
3.387587666666667,0,0xBD,0xBD
3.389012083333333,0,0x80,0x80
3.390456833333333,0,0xD4,0xD4
3.391881291666667,0,0x80,0x80
3.393325958333334,0,0xEC,0xEC
3.394750416666667,0,0x90,0x90
3.396195083333333,0,0xD1,0xD1
3.397680541666667,0,0xE0,0xE0
3.399125250000000,0,0xC0,0xC0
3.400549750000000,0,0x80,0x80
3.401994416666667,0,0x80,0x80
3.403418916666667,0,0x80,0x80
3.404863541666667,0,0xDF,0xDF
3.406287958333333,0,0xA0,0xA0
3.407732666666667,0,0xC1,0xC1
3.409157083333333,0,0xFD,0xFD
3.410601750000000,0,0x12,0x12
3.412026250000000,0,0x00,0x00
3.413470875000000,0,0x43,0x43
3.414895375000000,0,0x00,0x00
3.416340000000000,0,0x02,0x02
3.417764500000000,0,0x00,0x00
3.419209166666667,0,0x4A,0x4A
3.420633666666667,0,0x01,0x01
3.422078250000000,0,0x03,0x03
3.423502791666666,0,0x00,0x00
3.424947416666666,0,0x02,0x02
3.426371958333333,0,0x01,0x01
3.427816541666667,0,0x81,0x81
3.429241041666667,0,0x02,0x02
3.430685666666667,0,0x05,0x05
3.432110208333333,0,0x02,0x02
3.433554875000000,0,0x9B,0x9B
3.434979333333333,0,0x07,0x07
3.436423958333333,0,0xCB,0xCB
3.437848500000000,0,0x07,0x07
3.439293041666667,0,0x03,0x03
3.440717625000000,0,0x8F,0x8F
3.442162208333333,0,0x47,0x47
3.443586791666667,0,0x87,0x87
3.445031333333333,0,0x1B,0x1B
3.446455916666667,0,0xC7,0xC7
3.447900458333333,0,0x0F,0x0F
3.449325083333334,0,0xC7,0xC7
3.450769583333333,0,0xF7,0xF7
3.452194166666667,0,0x4F,0x4F
3.453638750000000,0,0xE7,0xE7
3.455063333333333,0,0x4F,0x4F
3.456507833333333,0,0x3D,0x3D
3.457932500000000,0,0x83,0x83
3.459377000000000,0,0x01,0x01
3.460801625000000,0,0xBF,0xBF
3.462246125000000,0,0x03,0x03
3.463670750000000,0,0x81,0x81
3.465115250000000,0,0x41,0x41
3.466539916666667,0,0xBF,0xBF
3.467984375000000,0,0x3F,0x3F
3.469409041666667,0,0x81,0x81
3.470853500000000,0,0x1F,0x1F
3.472278166666667,0,0x81,0x81
3.473722625000000,0,0x01,0x01
3.475147333333333,0,0xBF,0xBF
3.476591791666667,0,0xBF,0xBF
3.478016458333333,0,0x01,0x01
3.479460916666667,0,0xD8,0xD8
3.480885666666667,0,0x80,0x80
3.482330083333333,0,0xDC,0xDC
3.483754833333333,0,0x80,0x80
3.485199250000000,0,0xFD,0xFD
3.486623875000000,0,0x80,0x80
3.488068375000000,0,0xFF,0xFF
3.489493041666667,0,0xFF,0xFF
3.490937416666667,0,0x00,0x00
3.492362166666667,0,0x00,0x00
3.493806583333333,0,0x00,0x00
3.495231291666667,0,0x00,0x00
3.496675708333334,0,0x00,0x00
3.498161500000000,0,0x00,0x00
3.499605875000000,0,0x00,0x00
3.501030625000000,0,0x00,0x00
3.502475041666667,0,0x01,0x01
3.503899750000000,0,0x00,0x00
3.505344166666667,0,0x01,0x01
3.506768916666667,0,0x00,0x00
3.508213291666667,0,0x00,0x00
3.509638041666667,0,0x00,0x00
3.511082458333334,0,0xFF,0xFF
3.512507208333334,0,0xFF,0xFF
3.513951541666667,0,0x00,0x00
3.515376333333333,0,0x00,0x00
3.516820666666667,0,0x00,0x00
3.518245458333333,0,0x00,0x00
3.519689833333334,0,0x00,0x00
3.521114625000000,0,0x00,0x00
3.522558958333333,0,0x00,0x00
3.523983750000000,0,0x00,0x00
3.525428125000000,0,0xA7,0xA7
3.526852875000000,0,0x4F,0x4F
3.528297208333333,0,0x77,0x77
3.529722000000000,0,0x0F,0x0F
3.531166333333333,0,0x07,0x07
3.532591166666667,0,0x0F,0x0F
3.534035458333333,0,0xFF,0xFF
3.535460333333333,0,0xFF,0xFF
3.536904583333333,0,0x00,0x00
3.538329458333333,0,0x00,0x00
3.539773750000000,0,0x00,0x00
3.541198583333333,0,0x00,0x00
3.542642875000000,0,0x00,0x00
3.544067750000000,0,0x00,0x00
3.545512000000000,0,0x00,0x00
3.546936875000000,0,0x00,0x00
3.548381166666667,0,0xBD,0xBD
3.549806000000000,0,0x03,0x03
3.551250250000000,0,0x8B,0x8B
3.552675125000000,0,0x75,0x75
3.554119416666667,0,0xBF,0xBF
3.555544291666667,0,0x01,0x01
3.556988541666667,0,0xFF,0xFF
3.558413458333333,0,0xFF,0xFF
3.559857666666667,0,0x00,0x00
3.561282583333333,0,0x00,0x00
3.562726791666667,0,0x00,0x00
3.564151708333333,0,0x00,0x00
3.565595916666667,0,0x00,0x00
3.567020875000000,0,0x00,0x00
3.568465041666667,0,0x00,0x00
3.569890000000000,0,0x00,0x00
3.571334250000000,0,0xFF,0xFF
3.572759125000000,0,0xFF,0xFF
3.574203333333333,0,0x80,0x80
3.575628375000000,0,0x80,0x80
3.577072500000000,0,0x80,0x80
3.578497500000000,0,0x80,0x80
3.579941625000000,0,0x80,0x80
3.581366625000000,0,0x80,0x80
3.582810750000000,0,0x80,0x80
3.584235791666667,0,0x80,0x80
3.585679875000000,0,0x80,0x80
3.587104916666667,0,0x80,0x80
3.588549041666667,0,0xFC,0xFC
3.589974083333333,0,0x80,0x80
3.591418166666667,0,0xBF,0xBF
3.592843125000000,0,0xC0,0xC0
3.594287291666667,0,0xFF,0xFF
3.595712250000000,0,0xFF,0xFF
3.597156375000000,0,0x00,0x00
3.598581416666667,0,0x00,0x00
3.600025500000000,0,0x00,0x00
3.601450541666666,0,0x00,0x00
3.602894625000000,0,0x00,0x00
3.604319666666667,0,0x00,0x00
3.605763791666666,0,0x00,0x00
3.607188833333333,0,0x00,0x00
3.608632916666667,0,0x00,0x00
3.610057958333333,0,0x00,0x00
3.611502041666667,0,0x20,0x20
3.612927125000000,0,0x00,0x00
3.614371166666666,0,0x7D,0x7D
3.615796208333333,0,0x00,0x00
3.617240333333333,0,0xFF,0xFF
3.618665375000000,0,0xFF,0xFF
3.620109416666667,0,0x00,0x00
3.621534541666667,0,0x00,0x00
3.622978583333333,0,0x00,0x00
3.624403666666667,0,0x00,0x00
3.625847708333333,0,0x00,0x00
3.627272791666666,0,0x00,0x00
3.628716833333333,0,0x00,0x00
3.630141958333333,0,0x00,0x00
3.631585958333333,0,0x02,0x02
3.633011083333333,0,0x01,0x01
3.634455083333333,0,0x00,0x00
3.635880208333333,0,0x0F,0x0F
3.637324208333333,0,0x45,0x45
3.638749333333333,0,0x1F,0x1F
3.640193375000000,0,0xFF,0xFF
3.641618500000000,0,0xFF,0xFF
3.643062458333334,0,0x01,0x01
3.644487625000000,0,0x01,0x01
3.645931625000000,0,0x01,0x01
3.647356791666667,0,0x01,0x01
3.648800750000000,0,0x01,0x01
3.650225916666667,0,0x01,0x01
3.651669875000000,0,0x01,0x01
3.653095041666667,0,0x01,0x01
3.654539000000000,0,0xC1,0xC1
3.655964208333333,0,0x01,0x01
3.657408125000000,0,0x01,0x01
3.658833333333333,0,0xE1,0xE1
3.660277250000000,0,0x41,0x41
3.661702500000000,0,0xF1,0xF1
3.663146416666667,0,0xEE,0xEE
3.664571708333333,0,0x90,0x90
3.666015583333333,0,0x83,0x83
3.667440750000000,0,0xFC,0xFC
3.668884708333333,0,0xAF,0xAF
3.670309916666667,0,0xC0,0xC0
3.671753875000000,0,0xFA,0xFA
3.673179125000000,0,0x85,0x85
3.674622958333333,0,0xC5,0xC5
3.676048208333333,0,0xBA,0xBA
3.677492125000000,0,0x8F,0x8F
3.678917333333333,0,0xF0,0xF0
3.680361250000000,0,0xA0,0xA0
3.681786541666667,0,0xC0,0xC0
3.683230375000000,0,0xCB,0xCB
3.684655625000000,0,0xF4,0xF4
3.686099500000000,0,0xFE,0xFE
3.687524750000000,0,0x00,0x00
3.688968666666667,0,0xFA,0xFA
3.690393875000000,0,0x05,0x05
3.691837750000000,0,0xCE,0xCE
3.693263041666667,0,0x01,0x01
3.694706833333333,0,0x68,0x68
3.696132250000000,0,0x97,0x97
3.697576000000000,0,0xFE,0xFE
3.699062375000000,0,0x01,0x01
3.700506166666667,0,0xAD,0xAD
3.701931500000000,0,0x53,0x53
3.703375291666667,0,0x79,0x79
3.704800625000000,0,0x06,0x06
3.706244458333333,0,0x3A,0x3A
3.707669875000000,0,0xC5,0xC5
3.709113541666667,0,0x11,0x11
3.710538916666667,0,0x0F,0x0F
3.711982708333333,0,0xCF,0xCF
3.713408041666667,0,0x11,0x11
3.714851833333333,0,0xB6,0xB6
3.716277208333334,0,0x09,0x09
3.717720958333333,0,0xAA,0xAA
3.719146333333333,0,0x55,0x55
3.720590083333333,0,0xB0,0xB0
3.722015500000000,0,0x4F,0x4F
3.723459250000000,0,0xE4,0xE4
3.724884625000000,0,0x5F,0x5F
3.726328375000000,0,0xB6,0xB6
3.727753750000000,0,0x4F,0x4F
3.729197500000000,0,0x84,0x84
3.730622916666666,0,0x7F,0x7F
3.732066625000000,0,0x3D,0x3D
3.733492041666667,0,0xC1,0xC1
3.734935750000000,0,0xFD,0xFD
3.736361166666667,0,0xC1,0xC1
3.737804875000000,0,0x69,0x69
3.739230333333333,0,0xC1,0xC1
3.740674000000000,0,0x37,0x37
3.742099458333333,0,0x41,0x41
3.743543125000000,0,0x11,0x11
3.744968583333333,0,0xE7,0xE7
3.746412291666667,0,0x39,0x39
3.747837750000000,0,0xC7,0xC7
3.749281416666667,0,0x95,0x95
3.750706875000000,0,0x63,0x63
3.752150541666667,0,0x8D,0x8D
3.753576000000000,0,0x71,0x71
3.755019666666667,0,0xB0,0xB0
3.756445250000000,0,0xC3,0xC3
3.757888833333333,0,0xE5,0xE5
3.759314291666667,0,0xC3,0xC3
3.760757958333333,0,0xCB,0xCB
3.762183458333333,0,0x80,0x80
3.763627125000000,0,0x84,0x84
3.765052666666667,0,0xC3,0xC3
3.766496208333333,0,0xC0,0xC0
3.767921791666667,0,0xA0,0xA0
3.769365375000000,0,0xD1,0xD1
3.770790875000000,0,0xEE,0xEE
3.772234541666667,0,0xAF,0xAF
3.773660000000000,0,0xD0,0xD0
3.775103666666667,0,0x86,0x86
3.776529208333333,0,0x81,0x81
3.777972708333333,0,0x3B,0x3B
3.779398291666667,0,0xC4,0xC4
3.780841875000000,0,0x1D,0x1D
3.782267416666667,0,0xE6,0xE6
3.783711000000000,0,0x0B,0x0B
3.785136583333333,0,0xC4,0xC4
3.786580166666667,0,0xB3,0xB3
3.788005708333333,0,0x5C,0x5C
3.789449250000000,0,0x59,0x59
3.790874833333334,0,0x06,0x06
3.792318416666667,0,0x07,0x07
3.793743958333333,0,0x1C,0x1C
3.795187583333334,0,0xCC,0xCC
3.796613125000000,0,0x38,0x38
3.798056708333333,0,0xFA,0xFA
3.799543333333333,0,0x11,0x11
3.800986833333333,0,0xC0,0xC0
3.802412458333333,0,0x30,0x30
3.803856000000000,0,0xB5,0xB5
3.805281583333334,0,0x40,0x40
3.806725125000000,0,0x1D,0x1D
3.808150750000000,0,0xC2,0xC2
3.809594250000000,0,0x16,0x16
3.811019958333334,0,0xC1,0xC1
3.812463375000000,0,0x88,0x88
3.813889000000000,0,0x00,0x00
3.815332500000000,0,0x55,0x55
3.816758125000000,0,0x00,0x00
3.818201625000000,0,0x00,0x00
3.819627291666666,0,0x00,0x00
3.821070750000000,0,0x00,0x00
3.822496458333333,0,0x00,0x00
3.823939916666667,0,0x01,0x01
3.825365583333333,0,0x01,0x01
3.826809041666666,0,0xDF,0xDF
3.828234708333333,0,0x01,0x01
3.829678166666667,0,0x19,0x19
3.831103833333333,0,0x01,0x01
3.832547291666667,0,0x1F,0x1F
3.833973000000000,0,0x01,0x01
3.835416416666667,0,0x1D,0x1D
3.836842125000000,0,0x01,0x01
3.838285541666667,0,0xDB,0xDB
3.839711250000000,0,0x25,0x25
3.841154666666667,0,0x1F,0x1F
3.842580416666667,0,0x01,0x01
3.844023791666667,0,0x6D,0x6D
3.845449541666667,0,0x11,0x11
3.846892958333333,0,0x89,0x89
3.848318708333333,0,0x86,0x86
3.849762125000000,0,0xF5,0xF5
3.851187833333333,0,0x9F,0x9F
3.852631208333333,0,0x80,0x80
3.854057041666667,0,0xFF,0xFF
3.855500333333334,0,0xFF,0xFF
3.856926125000000,0,0xFF,0xFF
3.858369458333333,0,0x00,0x00
3.859795250000000,0,0x00,0x00
3.861238625000000,0,0x00,0x00
3.862664416666667,0,0x00,0x00
3.864107750000000,0,0x00,0x00
3.865533541666667,0,0x00,0x00
3.866976875000000,0,0x00,0x00
3.868402666666667,0,0x00,0x00
3.869846041666666,0,0x8A,0x8A
3.871271833333333,0,0x67,0x67
3.872715125000000,0,0x1F,0x1F
3.874140958333333,0,0xFF,0xFF
3.875584250000000,0,0x3E,0x3E
3.877010208333334,0,0xFF,0xFF
3.878453416666667,0,0xFF,0xFF
3.879879250000000,0,0xFF,0xFF
3.881322541666667,0,0x00,0x00
3.882748375000000,0,0x00,0x00
3.884191666666667,0,0x00,0x00
3.885617541666667,0,0x00,0x00
3.887060791666667,0,0x00,0x00
3.888486666666667,0,0x00,0x00
3.889929916666667,0,0x00,0x00
3.891355791666667,0,0x00,0x00
3.892799083333333,0,0x00,0x00
3.894224958333333,0,0x00,0x00
3.895668250000000,0,0xE1,0xE1
3.897094083333333,0,0x00,0x00
3.898537333333334,0,0x22,0x22
3.900024375000000,0,0xC1,0xC1
3.901467500000000,0,0xFF,0xFF
3.902893416666667,0,0xFF,0xFF
3.904336625000000,0,0x00,0x00
3.905762541666667,0,0x00,0x00
3.907205750000000,0,0x00,0x00
3.908631708333334,0,0x00,0x00
3.910074916666667,0,0x00,0x00
3.911500833333333,0,0x00,0x00
3.912944041666667,0,0x00,0x00
3.914369958333333,0,0x00,0x00
3.915813166666667,0,0x1D,0x1D
3.917239083333333,0,0x63,0x63
3.918682291666667,0,0x29,0x29
3.920108250000000,0,0xD7,0xD7
3.921551416666667,0,0x11,0x11
3.922977375000000,0,0xEF,0xEF
3.924420541666667,0,0xFF,0xFF
3.925846541666667,0,0xFF,0xFF
3.927289666666667,0,0x00,0x00
3.928715666666667,0,0x00,0x00
3.930158833333333,0,0x00,0x00
3.931584833333333,0,0x00,0x00
3.933027958333333,0,0x00,0x00
3.934453958333333,0,0x00,0x00
3.935897083333333,0,0x00,0x00
3.937323083333333,0,0x00,0x00
3.938766250000000,0,0xFF,0xFF
3.940192250000000,0,0xFF,0xFF
3.941635375000000,0,0x80,0x80
3.943061458333333,0,0x80,0x80
3.944504541666667,0,0x80,0x80
3.945930625000000,0,0x80,0x80
3.947373666666667,0,0x80,0x80
3.948799750000000,0,0x80,0x80
3.950242791666667,0,0x80,0x80
3.951668875000000,0,0x80,0x80
3.953111916666667,0,0x80,0x80
3.954538041666666,0,0x80,0x80
3.955981041666667,0,0xC0,0xC0
3.957407166666667,0,0x80,0x80
3.958850208333333,0,0x9E,0x9E
3.960276291666667,0,0xC1,0xC1
3.961719291666667,0,0xFF,0xFF
3.963145375000000,0,0xFF,0xFF
3.964588375000000,0,0x00,0x00
3.966014500000000,0,0x00,0x00
3.967457541666667,0,0x00,0x00
3.968883625000000,0,0x00,0x00
3.970326666666667,0,0x00,0x00
3.971752791666667,0,0x00,0x00
3.973195791666666,0,0x00,0x00
3.974621916666667,0,0x00,0x00
3.976064958333333,0,0x40,0x40
3.977491041666667,0,0x00,0x00
3.978934083333333,0,0x78,0x78
3.980360208333333,0,0x00,0x00
3.981803250000000,0,0xBB,0xBB
3.983229333333334,0,0x44,0x44
3.984672375000000,0,0xFF,0xFF
3.986098500000000,0,0xFF,0xFF
3.987541458333333,0,0x00,0x00
3.988967625000000,0,0x00,0x00
3.990410583333333,0,0x00,0x00
3.991836750000000,0,0x00,0x00
3.993279750000000,0,0x00,0x00
3.994705916666667,0,0x00,0x00
3.996148875000000,0,0x00,0x00
3.997575041666667,0,0x00,0x00
3.999018000000000,0,0x04,0x04
4.000505208333333,0,0x00,0x00
4.001948166666667,0,0x00,0x00
4.003374375000000,0,0x00,0x00
4.004817333333333,0,0xD5,0xD5
4.006243500000000,0,0x00,0x00
4.007686500000000,0,0xFF,0xFF
4.009112666666667,0,0xFF,0xFF
4.010555541666666,0,0x01,0x01
4.011981791666667,0,0x01,0x01
4.013424666666666,0,0x01,0x01
4.014850916666667,0,0x01,0x01
4.016293833333333,0,0x01,0x01
4.017720041666666,0,0x01,0x01
4.019162958333333,0,0x01,0x01
4.020589208333333,0,0x01,0x01
4.022032083333333,0,0x01,0x01
4.023458333333333,0,0x01,0x01
4.024901208333334,0,0x01,0x01
4.026327458333333,0,0x01,0x01
4.027770333333334,0,0x55,0x55
4.029196625000000,0,0x01,0x01
4.030639500000000,0,0xDF,0xDF
4.032065791666667,0,0x80,0x80
4.033508666666667,0,0xFF,0xFF
4.034934916666667,0,0x80,0x80
4.036377791666666,0,0xFD,0xFD
4.037804041666667,0,0x80,0x80
4.039246916666666,0,0xDF,0xDF
4.040673208333334,0,0x80,0x80
4.042116083333333,0,0x82,0x82
4.043542416666667,0,0x80,0x80
4.044985208333333,0,0xC5,0xC5
4.046411458333333,0,0x80,0x80
4.047854333333333,0,0x85,0x85
4.049280625000000,0,0x80,0x80
4.050723458333334,0,0xFF,0xFF
4.052149750000000,0,0x80,0x80
4.053592583333334,0,0xFF,0xFF
4.055018875000000,0,0x00,0x00
4.056461708333333,0,0xF6,0xF6
4.057888041666667,0,0x41,0x41
4.059330791666667,0,0xFF,0xFF
4.060757166666667,0,0x00,0x00
4.062200000000000,0,0xA2,0xA2
4.063626333333334,0,0x5D,0x5D
4.065069041666667,0,0x3E,0x3E
4.066495458333334,0,0x01,0x01
4.067938208333334,0,0x63,0x63
4.069364583333333,0,0x1C,0x1C
4.070807333333334,0,0x0E,0x0E
4.072233833333334,0,0xF1,0xF1
4.073676458333333,0,0x75,0x75
4.075102875000000,0,0x0F,0x0F
4.076545583333333,0,0xCC,0xCC
4.077972000000000,0,0x00,0x00
4.079414791666666,0,0xFF,0xFF
4.080841125000000,0,0x00,0x00
4.082283916666666,0,0xDC,0xDC
4.083710291666667,0,0x20,0x20
4.085153041666667,0,0x97,0x97
4.086579416666667,0,0x60,0x60
4.088022125000000,0,0x19,0x19
4.089448583333334,0,0xE6,0xE6
4.090891250000000,0,0x0B,0x0B
4.092317708333334,0,0xF4,0xF4
4.093760458333334,0,0xC0,0xC0
4.095186875000000,0,0x30,0x30
4.096629583333334,0,0x8E,0x8E
4.098056000000000,0,0x71,0x71
4.099498625000000,0,0x13,0x13
4.100986166666667,0,0x01,0x01
4.102428833333334,0,0x5F,0x5F
4.103855291666667,0,0x01,0x01
4.105297958333334,0,0xE1,0xE1
4.106724458333334,0,0x01,0x01
4.108167083333333,0,0xF7,0xF7
4.109593583333333,0,0x01,0x01
4.111036250000000,0,0xDB,0xDB
4.112462750000000,0,0x01,0x01
4.113905333333333,0,0x5D,0x5D
4.115331875000000,0,0x01,0x01
4.116774500000000,0,0x07,0x07
4.118201000000000,0,0x01,0x01
4.119643625000000,0,0x97,0x97
4.121070166666667,0,0x01,0x01
4.122512750000000,0,0xA0,0xA0
4.123939375000000,0,0x80,0x80
4.125381958333334,0,0xC1,0xC1
4.126808458333334,0,0x80,0x80
4.128251083333334,0,0xC0,0xC0
4.129677666666667,0,0x80,0x80
4.131120208333333,0,0xC1,0xC1
4.132546708333333,0,0x80,0x80
4.133989333333333,0,0xDF,0xDF
4.135415875000000,0,0x80,0x80
4.136858458333333,0,0xE8,0xE8
4.138285083333333,0,0x97,0x97
4.139727541666667,0,0xBC,0xBC
4.141154250000000,0,0x83,0x83
4.142596666666667,0,0x82,0x82
4.144023375000000,0,0x85,0x85
4.145465833333334,0,0xF8,0xF8
4.146892416666667,0,0x07,0x07
4.148334916666666,0,0x74,0x74
4.149761583333333,0,0x0F,0x0F
4.151204083333333,0,0x70,0x70
4.152630708333334,0,0x0F,0x0F
4.154073208333333,0,0xEF,0xEF
4.155499833333334,0,0x11,0x11
4.156942333333333,0,0x88,0x88
4.158369000000000,0,0x77,0x77
4.159811458333333,0,0x89,0x89
4.161238125000000,0,0x77,0x77
4.162680583333334,0,0x08,0x08
4.164107375000000,0,0xF7,0xF7
4.165549750000000,0,0x90,0x90
4.166976416666667,0,0x7F,0x7F
4.168418875000000,0,0x08,0x08
4.169845625000000,0,0xF0,0xF0
4.171288000000000,0,0x10,0x10
4.172714791666666,0,0xE0,0xE0
4.174157125000000,0,0x06,0x06
4.175583916666667,0,0xF8,0xF8
4.177026250000000,0,0x55,0x55
4.178452958333334,0,0xFC,0xFC
4.179895416666667,0,0x64,0x64
4.181322208333333,0,0xFA,0xFA
4.182764541666667,0,0x11,0x11
4.184191250000000,0,0xFE,0xFE
4.185633708333333,0,0xE4,0xE4
4.187060416666666,0,0x19,0x19
4.188502791666667,0,0xB0,0xB0
4.189929541666666,0,0x40,0x40
4.191371958333334,0,0xFF,0xFF
4.192798666666667,0,0x01,0x01
4.194241041666666,0,0xBF,0xBF
4.195667791666667,0,0x41,0x41
4.197110166666667,0,0x71,0x71
4.198536958333333,0,0x01,0x01
4.199979291666667,0,0x35,0x35
4.201467125000000,0,0x41,0x41
4.202909500000000,0,0x05,0x05
4.204336250000000,0,0x03,0x03
4.205778625000000,0,0x47,0x47
4.207205416666667,0,0x01,0x01
4.208647750000000,0,0x81,0x81
4.210074541666667,0,0x01,0x01
4.211516875000000,0,0x17,0x17
4.212943666666667,0,0x01,0x01
4.214386041666667,0,0x87,0x87
4.215812833333334,0,0x80,0x80
4.217255208333333,0,0xD2,0xD2
4.218682083333333,0,0x85,0x85
4.220124291666667,0,0x87,0x87
4.221551125000000,0,0x80,0x80
4.222993458333334,0,0xFF,0xFF
4.224420250000000,0,0xFF,0xFF
4.225862541666666,0,0x00,0x00
4.227289416666666,0,0x00,0x00
4.228731708333333,0,0x00,0x00
4.230158541666666,0,0x00,0x00
4.231600833333333,0,0x00,0x00
4.233027666666667,0,0x00,0x00
4.234469958333333,0,0x00,0x00
4.235896833333333,0,0x00,0x00
4.237339125000000,0,0x82,0x82
4.238765958333333,0,0x7D,0x7D
4.240208208333334,0,0x80,0x80
4.241635125000000,0,0x5F,0x5F
4.243077333333333,0,0xB0,0xB0
4.244504250000000,0,0x4F,0x4F
4.245946458333333,0,0xFF,0xFF
4.247373375000000,0,0xFF,0xFF
4.248815583333333,0,0x00,0x00
4.250242541666666,0,0x00,0x00
4.251684750000000,0,0x00,0x00
4.253111666666666,0,0x00,0x00
4.254553875000000,0,0x00,0x00
4.255980791666667,0,0x00,0x00
4.257423000000000,0,0x00,0x00
4.258849958333333,0,0x00,0x00
4.260292208333333,0,0x90,0x90
4.261719083333333,0,0x60,0x60
4.263161333333334,0,0x89,0x89
4.264588208333334,0,0x70,0x70
4.266030458333334,0,0x9D,0x9D
4.267457333333334,0,0x62,0x62
4.268899583333333,0,0xFF,0xFF
4.270326500000000,0,0xFF,0xFF
4.271768666666667,0,0x00,0x00
4.273195666666667,0,0x00,0x00
4.274637791666667,0,0x00,0x00
4.276064791666666,0,0x00,0x00
4.277506916666667,0,0x00,0x00
4.278933916666666,0,0x00,0x00
4.280376083333334,0,0x00,0x00
4.281803083333333,0,0x00,0x00
4.283245208333334,0,0x3F,0x3F
4.284672208333333,0,0x01,0x01
4.286114333333333,0,0x8B,0x8B
4.287541333333333,0,0x75,0x75
4.288983458333333,0,0xF5,0xF5
4.290410458333334,0,0x0B,0x0B
4.291852583333333,0,0xFF,0xFF
4.293279625000000,0,0xFF,0xFF
4.294721708333333,0,0x00,0x00
4.296148791666667,0,0x00,0x00
4.297590875000000,0,0x00,0x00
4.299017916666667,0,0x00,0x00
4.300460000000000,0,0x00,0x00
4.301948083333333,0,0x00,0x00
4.303390166666667,0,0x00,0x00
4.304817250000000,0,0x00,0x00
4.306259333333333,0,0xFF,0xFF
4.307686375000000,0,0xFF,0xFF
4.309128416666667,0,0x88,0x88
4.310555625000000,0,0xF7,0xF7
4.311997541666667,0,0xA4,0xA4
4.313424750000000,0,0xFB,0xFB
4.314866708333334,0,0xB2,0xB2
4.316293875000000,0,0xDD,0xDD
4.317735833333334,0,0xD4,0xD4
4.319163041666667,0,0xAB,0xAB
4.320604958333333,0,0x84,0x84
4.322032166666666,0,0xFF,0xFF
4.323474083333333,0,0xB3,0xB3
4.324901208333333,0,0xCC,0xCC
4.326343250000000,0,0xA1,0xA1
4.327770375000000,0,0xDF,0xDF
4.329212375000000,0,0xFF,0xFF
4.330639500000000,0,0xFF,0xFF
4.332081458333334,0,0x2A,0x2A
4.333508708333333,0,0xD5,0xD5
4.334950625000000,0,0x40,0x40
4.336377875000000,0,0xBF,0xBF
4.337819750000000,0,0x29,0x29
4.339246916666666,0,0xF7,0xF7
4.340688875000000,0,0x0E,0x0E
4.342116166666667,0,0xF1,0xF1
4.343558000000000,0,0x02,0x02
4.344985291666666,0,0xFD,0xFD
4.346427166666667,0,0xD2,0xD2
4.347854333333333,0,0x2D,0x2D
4.349296250000000,0,0x4A,0x4A
4.350723583333333,0,0xF5,0xF5
4.352165416666667,0,0xFF,0xFF
4.353592625000000,0,0xFF,0xFF
4.355034541666667,0,0x77,0x77
4.356461750000000,0,0xD8,0xD8
4.357903666666667,0,0x0F,0x0F
4.359330916666667,0,0xF0,0xF0
4.360772791666666,0,0x4E,0x4E
4.362200125000000,0,0xF1,0xF1
4.363641916666666,0,0x1F,0x1F
4.365069166666666,0,0xE0,0xE0
4.366511083333333,0,0x5B,0x5B
4.367938333333333,0,0xE4,0xE4
4.369380208333333,0,0x3F,0x3F
4.370807458333333,0,0xC0,0xC0
4.372249375000000,0,0xA0,0xA0
4.373676625000000,0,0x5F,0x5F
4.375118458333334,0,0xFF,0xFF
4.376545750000000,0,0xFF,0xFF
4.377987583333334,0,0xF9,0xF9
4.379414875000000,0,0x17,0x17
4.380856750000000,0,0xCF,0xCF
4.382284000000000,0,0x31,0x31
4.383725875000000,0,0xB3,0xB3
4.385153166666667,0,0x4D,0x4D
4.386595000000000,0,0xFB,0xFB
4.388022291666666,0,0x05,0x05
4.389464125000000,0,0xA5,0xA5
4.390891416666666,0,0x5F,0x5F
4.392333250000000,0,0x01,0x01
4.393760583333333,0,0xFF,0xFF
4.395202375000000,0,0x01,0x01
4.396629708333333,0,0xFF,0xFF
4.398071541666667,0,0xBF,0xBF
4.399498875000000,0,0xC0,0xC0
4.400940708333334,0,0xBD,0xBD
4.402368000000000,0,0xC0,0xC0
4.403809833333334,0,0xF0,0xF0
4.405237250000000,0,0x80,0x80
4.406678958333333,0,0xB4,0xB4
4.408106375000000,0,0xC0,0xC0
4.409548083333333,0,0xE0,0xE0
4.410975500000000,0,0x80,0x80
4.412417208333333,0,0x8B,0x8B
4.413844583333334,0,0xF4,0xF4
4.415286375000000,0,0x81,0x81
4.416713708333333,0,0xFE,0xFE
4.418155500000000,0,0x82,0x82
4.419582958333334,0,0xFD,0xFD
4.421024583333334,0,0xFE,0xFE
4.422452000000000,0,0x01,0x01
4.423893708333333,0,0x55,0x55
4.425321125000000,0,0x00,0x00
4.426762833333333,0,0x60,0x60
4.428190291666667,0,0x00,0x00
4.429631958333333,0,0x41,0x41
4.431059416666667,0,0x00,0x00
4.432501125000000,0,0x00,0x00
4.433928541666667,0,0x00,0x00
4.435370291666667,0,0xD4,0xD4
4.436797708333334,0,0x00,0x00
4.438239416666667,0,0xFF,0xFF
4.439666833333333,0,0x00,0x00
4.441108541666667,0,0xBE,0xBE
4.442535958333333,0,0x41,0x41
4.443977625000000,0,0x07,0x07
4.445405125000000,0,0xF8,0xF8
4.446846750000000,0,0x5A,0x5A
4.448274250000000,0,0x05,0x05
4.449715875000000,0,0x10,0x10
4.451143416666667,0,0x00,0x00
4.452585041666667,0,0x57,0x57
4.454012500000000,0,0x00,0x00
4.455454166666667,0,0x40,0x40
4.456881666666667,0,0x00,0x00
4.458323291666667,0,0x00,0x00
4.459750833333334,0,0x00,0x00
4.461192458333334,0,0xFF,0xFF
4.462619958333334,0,0x00,0x00
4.464061625000000,0,0xA0,0xA0
4.465489083333333,0,0x5F,0x5F
4.466930708333333,0,0xFD,0xFD
4.468358208333333,0,0x03,0x03
4.469799791666667,0,0x11,0x11
4.471227375000000,0,0xFF,0xFF
4.472668958333333,0,0xF9,0xF9
4.474096500000000,0,0x07,0x07
4.475538083333333,0,0xD9,0xD9
4.476965625000000,0,0x07,0x07
4.478407208333334,0,0x05,0x05
4.479834791666667,0,0x03,0x03
4.481276333333334,0,0x15,0x15
4.482703916666667,0,0x03,0x03
4.484145500000000,0,0xC1,0xC1
4.485573041666667,0,0x03,0x03
4.487014583333333,0,0x05,0x05
4.488442208333334,0,0xFF,0xFF
4.489883750000000,0,0xBF,0xBF
4.491311375000000,0,0xC0,0xC0
4.492752916666666,0,0x85,0x85
4.494180500000000,0,0x80,0x80
4.495622041666667,0,0xFE,0xFE
4.497049750000000,0,0x80,0x80
4.498491208333333,0,0xAB,0xAB
4.499918791666667,0,0xD4,0xD4
4.501360333333333,0,0x80,0x80
4.502849041666667,0,0x80,0x80
4.504290500000000,0,0xC0,0xC0
4.505718208333334,0,0x80,0x80
4.507159625000000,0,0x80,0x80
4.508587333333334,0,0x80,0x80
4.510028750000000,0,0x80,0x80
4.511456458333333,0,0x80,0x80
4.512897875000000,0,0xFF,0xFF
4.514325500000000,0,0x00,0x00
4.515767000000000,0,0x7F,0x7F
4.517194666666667,0,0x00,0x00
4.518636125000000,0,0x00,0x00
4.520063791666667,0,0x00,0x00
4.521505291666666,0,0xFF,0xFF
4.522932916666667,0,0x00,0x00
4.524374375000000,0,0x77,0x77
4.525802083333334,0,0x00,0x00
4.527243500000000,0,0x00,0x00
4.528671208333333,0,0x00,0x00
4.530112625000000,0,0x00,0x00
4.531540375000000,0,0x00,0x00
4.532981791666667,0,0x00,0x00
4.534409500000000,0,0x00,0x00
4.535850958333334,0,0xFC,0xFC
4.537278666666666,0,0x03,0x03
4.538720041666667,0,0xAA,0xAA
4.540147791666667,0,0x55,0x55
4.541589166666666,0,0x03,0x03
4.543016916666667,0,0x00,0x00
4.544458333333333,0,0xFA,0xFA
4.545886083333333,0,0x05,0x05
4.547327416666667,0,0xFF,0xFF
4.548755208333334,0,0x00,0x00
4.550196583333333,0,0x05,0x05
4.551624333333334,0,0x00,0x00
4.553065708333333,0,0x03,0x03
4.554493458333333,0,0x00,0x00
4.555934833333334,0,0x15,0x15
4.557362625000000,0,0x00,0x00
4.558803958333334,0,0x01,0x01
4.560231791666666,0,0xFF,0xFF
4.561673083333333,0,0x35,0x35
4.563100916666667,0,0xDF,0xDF
4.564542208333333,0,0xFD,0xFD
4.565970041666667,0,0x03,0x03
4.567411375000000,0,0xA1,0xA1
4.568839166666667,0,0x5F,0x5F
4.570280500000000,0,0xC1,0xC1
4.571708333333333,0,0x3F,0x3F
4.573149625000000,0,0xFB,0xFB
4.574577458333334,0,0x05,0x05
4.576018750000000,0,0xFF,0xFF
4.577446583333334,0,0x01,0x01
4.578887875000000,0,0xFB,0xFB
4.580315750000000,0,0x05,0x05
4.581757000000000,0,0x80,0x80
4.583185000000000,0,0x80,0x80
4.584626208333333,0,0x80,0x80
4.586054125000000,0,0x80,0x80
4.587495333333333,0,0x80,0x80
4.588923250000000,0,0x80,0x80
4.590364458333333,0,0xFF,0xFF
4.591792333333333,0,0xFF,0xFF
4.593233541666667,0,0x00,0x00
4.594661458333333,0,0x00,0x00
4.596102666666667,0,0x00,0x00
4.597530583333334,0,0x00,0x00
4.598971791666667,0,0x00,0x00
4.600399750000000,0,0x00,0x00
4.601840958333334,0,0x00,0x00
4.603329916666667,0,0x00,0x00
4.604771125000000,0,0x00,0x00
4.606199083333333,0,0x00,0x00
4.607640250000000,0,0x00,0x00
4.609068208333333,0,0x00,0x00
4.610509375000000,0,0x00,0x00
4.611937333333334,0,0x00,0x00
4.613378541666667,0,0xFF,0xFF
4.614806500000000,0,0xFF,0xFF
4.616247625000000,0,0x00,0x00
4.617675625000000,0,0x00,0x00
4.619116791666666,0,0x00,0x00
4.620544750000000,0,0x00,0x00
4.621985916666667,0,0x00,0x00
4.623413916666666,0,0x00,0x00
4.624855041666667,0,0x00,0x00
4.626283041666666,0,0x00,0x00
4.627724166666667,0,0x00,0x00
4.629152166666667,0,0x00,0x00
4.630593291666667,0,0x00,0x00
4.632021333333333,0,0x00,0x00
4.633462458333334,0,0x00,0x00
4.634890458333333,0,0x00,0x00
4.636331625000000,0,0xFF,0xFF
4.637759625000000,0,0xFF,0xFF
4.639200666666667,0,0x00,0x00
4.640628750000000,0,0x00,0x00
4.642069833333333,0,0x00,0x00
4.643497875000000,0,0x00,0x00
4.644938958333333,0,0x00,0x00
4.646367041666666,0,0x00,0x00
4.647808083333334,0,0x00,0x00
4.649236166666666,0,0x00,0x00
4.650677250000000,0,0x01,0x01
4.652105291666667,0,0x01,0x01
4.653546333333333,0,0x01,0x01
4.654974416666667,0,0x01,0x01
4.656415500000000,0,0x01,0x01
4.657843583333333,0,0x01,0x01
4.659284625000000,0,0xFF,0xFF
4.660712708333334,0,0xFF,0xFF
4.662153750000000,0,0x00,0x00
4.663581875000000,0,0x00,0x00
4.665022875000000,0,0x00,0x00
4.666451000000000,0,0x00,0x00
4.667892041666667,0,0x00,0x00
4.669320166666667,0,0x00,0x00
4.670761166666667,0,0x00,0x00
4.672189291666666,0,0x00,0x00
4.673630333333334,0,0xFF,0xFF
4.675058416666666,0,0xFF,0xFF
4.676499416666666,0,0xFF,0xFF
4.677927583333333,0,0xFF,0xFF
4.679368541666666,0,0xFF,0xFF
4.680796708333333,0,0xFF,0xFF
4.682237666666667,0,0xFC,0xFC
4.683665958333333,0,0xFF,0xFF
4.685106833333333,0,0xFA,0xFA
4.686535083333333,0,0xFC,0xFC
4.687976000000000,0,0xF7,0xF7
4.689404125000000,0,0xF8,0xF8
4.690845125000000,0,0xFA,0xFA
4.692273375000000,0,0xF0,0xF0
4.693714250000000,0,0xE4,0xE4
4.695142500000000,0,0xF0,0xF0
4.696583375000000,0,0xFF,0xFF
4.698011541666666,0,0xFF,0xFF
4.699452458333333,0,0xC9,0xC9
4.700880708333333,0,0xF7,0xF7
4.702321583333333,0,0x22,0x22
4.703810958333333,0,0xC1,0xC1
4.705251791666667,0,0xC4,0xC4
4.706680000000000,0,0x00,0x00
4.708120916666667,0,0x03,0x03
4.709549125000000,0,0x00,0x00
4.710990041666666,0,0x75,0x75
4.712418291666666,0,0x03,0x03
4.713859166666666,0,0xC0,0xC0
4.715287458333333,0,0x3F,0x3F
4.716728291666667,0,0x17,0x17
4.718156583333333,0,0x7F,0x7F
4.719597458333333,0,0xFF,0xFF
4.721025708333333,0,0xFF,0xFF
4.722466541666667,0,0x1F,0x1F
4.723894875000000,0,0xFF,0xFF
4.725335708333334,0,0x61,0x61
4.726764000000000,0,0x9F,0x9F
4.728204833333334,0,0x77,0x77
4.729633125000000,0,0x19,0x19
4.731073958333333,0,0x46,0x46
4.732502375000000,0,0xB9,0xB9
4.733943083333333,0,0x57,0x57
4.735371416666666,0,0xFC,0xFC
4.736812250000000,0,0x2D,0x2D
4.738240583333333,0,0xC0,0xC0
4.739681375000000,0,0x04,0x04
4.741109791666666,0,0xC0,0xC0
4.742550541666667,0,0xFF,0xFF
4.743978833333333,0,0xFF,0xFF
4.745419625000000,0,0xFF,0xFF
4.746848000000000,0,0xFF,0xFF
4.748288750000000,0,0xFF,0xFF
4.749717125000000,0,0xFF,0xFF
4.751157875000000,0,0xFF,0xFF
4.752586250000000,0,0xFF,0xFF
4.754027000000000,0,0x7F,0x7F
4.755455416666667,0,0xFF,0xFF
4.756896166666666,0,0xBF,0xBF
4.758324541666667,0,0x7F,0x7F
4.759765291666667,0,0x1F,0x1F
4.761193666666666,0,0x3F,0x3F
4.762634416666667,0,0x3F,0x3F
4.764062791666666,0,0x1F,0x1F
4.765503541666667,0,0xF0,0xF0
4.766932041666666,0,0xE0,0xE0
4.768372750000000,0,0xD9,0xD9
4.769801125000000,0,0xE0,0xE0
4.771241875000000,0,0xDF,0xDF
4.772670250000000,0,0xE0,0xE0
4.774111000000000,0,0xE2,0xE2
4.775539458333333,0,0xD5,0xD5
4.776980083333333,0,0xF8,0xF8
4.778408583333333,0,0xC7,0xC7
4.779849208333333,0,0xFD,0xFD
4.781277666666667,0,0xC7,0xC7
4.782718333333333,0,0xE0,0xE0
4.784146916666667,0,0xCF,0xCF
4.785587500000000,0,0xF8,0xF8
4.787016041666667,0,0xC7,0xC7
4.788456625000000,0,0x82,0x82
4.789885083333333,0,0x7F,0x7F
4.791325750000000,0,0xD1,0xD1
4.792754208333333,0,0x7F,0x7F
4.794194875000000,0,0xC3,0xC3
4.795623375000000,0,0x3C,0x3C
4.797064041666666,0,0xA7,0xA7
4.798492500000000,0,0x5C,0x5C
4.799933166666666,0,0xE2,0xE2
4.801361666666667,0,0x1C,0x1C
4.802802291666667,0,0x63,0x63
4.804291833333333,0,0xDC,0xDC
4.805732458333333,0,0x01,0x01
4.807160958333333,0,0xFE,0xFE
4.808601583333333,0,0x27,0x27
4.810030125000000,0,0xDC,0xDC
4.811470708333333,0,0x3E,0x3E
4.812899333333333,0,0xC0,0xC0
4.814339833333333,0,0x76,0x76
4.815768500000000,0,0x80,0x80
4.817208958333334,0,0x00,0x00
4.818637541666667,0,0x00,0x00
4.820078125000000,0,0x40,0x40
4.821506666666667,0,0x00,0x00
4.822947250000000,0,0x00,0x00
4.824375833333334,0,0x00,0x00
4.825816375000000,0,0x00,0x00
4.827244958333333,0,0x00,0x00
4.828685500000000,0,0x00,0x00
4.830114083333333,0,0x00,0x00
4.831554625000000,0,0x40,0x40
4.832983250000000,0,0x00,0x00
4.834423750000000,0,0x0F,0x0F
4.835852375000000,0,0x1F,0x1F
4.837292875000000,0,0x0F,0x0F
4.838721500000000,0,0x1F,0x1F
4.840162000000000,0,0x07,0x07
4.841590625000000,0,0x0F,0x0F
4.843031166666667,0,0x07,0x07
4.844459791666667,0,0x0F,0x0F
4.845900291666666,0,0x0F,0x0F
4.847328916666667,0,0x07,0x07
4.848769416666666,0,0x0F,0x0F
4.850198083333333,0,0x07,0x07
4.851638541666667,0,0x0F,0x0F
4.853067208333333,0,0x07,0x07
4.854507666666667,0,0x0F,0x0F
4.855936333333333,0,0x07,0x07
4.857376833333333,0,0xED,0xED
4.858805500000000,0,0xC2,0xC2
4.860246000000000,0,0xC2,0xC2
4.861674750000000,0,0xF5,0xF5
4.863115083333334,0,0xDF,0xDF
4.864543791666667,0,0xE0,0xE0
4.865984250000000,0,0xEE,0xEE
4.867413041666667,0,0xF1,0xF1
4.868853333333333,0,0xE5,0xE5
4.870282083333334,0,0xF8,0xF8
4.871722541666666,0,0xF2,0xF2
4.873151291666667,0,0xFD,0xFD
4.874591625000000,0,0xF0,0xF0
4.876020458333334,0,0xFF,0xFF
4.877460750000000,0,0xFC,0xFC
4.878889583333334,0,0xFF,0xFF
4.880329875000000,0,0x72,0x72
4.881758708333333,0,0x8C,0x8C
4.883199041666667,0,0xD2,0xD2
4.884627750000000,0,0x0D,0x0D
4.886068125000000,0,0x9F,0x9F
4.887496875000000,0,0x00,0x00
4.888937333333334,0,0xBA,0xBA
4.890366041666667,0,0x45,0x45
4.891806416666666,0,0xB4,0xB4
4.893235166666667,0,0x0B,0x0B
4.894675541666667,0,0xE2,0xE2
4.896104333333334,0,0x1D,0x1D
4.897544666666667,0,0xF7,0xF7
4.898973458333334,0,0x08,0x08
4.900413833333333,0,0xA9,0xA9
4.901842583333333,0,0x54,0x54
4.903282958333333,0,0x00,0x00
4.904772791666667,0,0x00,0x00
4.906213125000000,0,0x00,0x00
4.907642041666667,0,0xC0,0xC0
4.909082291666667,0,0xB0,0xB0
4.910511083333334,0,0x40,0x40
4.911951416666667,0,0x80,0x80
4.913380208333334,0,0x70,0x70
4.914820541666667,0,0xF0,0xF0
4.916249375000000,0,0x00,0x00
4.917689708333334,0,0xE0,0xE0
4.919118500000000,0,0x00,0x00
4.920558791666667,0,0x50,0x50
4.921987625000000,0,0x00,0x00
4.923427916666666,0,0x00,0x00
4.924856875000000,0,0xC0,0xC0
4.926297041666666,0,0x0F,0x0F
4.927725916666667,0,0x07,0x07
4.929166166666667,0,0x07,0x07
4.930595041666667,0,0x0F,0x0F
4.932035291666667,0,0x07,0x07
4.933464166666667,0,0x0F,0x0F
4.934904416666667,0,0x1F,0x1F
4.936333333333334,0,0x0F,0x0F
4.937773541666667,0,0x0F,0x0F
4.939202458333333,0,0x1F,0x1F
4.940642666666666,0,0x3F,0x3F
4.942071583333333,0,0x1F,0x1F
4.943511833333333,0,0x1F,0x1F
4.944940750000000,0,0x3F,0x3F
4.946380958333333,0,0x7F,0x7F
4.947809875000000,0,0x7F,0x7F
4.949250083333333,0,0xFD,0xFD
4.950679041666667,0,0xFE,0xFE
4.952119291666667,0,0xFF,0xFF
4.953548166666667,0,0xFF,0xFF
4.954988375000000,0,0xFF,0xFF
4.956417333333333,0,0xFF,0xFF
4.957857500000000,0,0xFF,0xFF
4.959286458333334,0,0xFF,0xFF
4.960726625000000,0,0x00,0x00
4.962155583333334,0,0x00,0x00
4.963595750000000,0,0x00,0x00
4.965024750000000,0,0x00,0x00
4.966464875000000,0,0x00,0x00
4.967893875000000,0,0x00,0x00
4.969334000000000,0,0x00,0x00
4.970763041666666,0,0x00,0x00
4.972203208333333,0,0xBC,0xBC
4.973632166666667,0,0x40,0x40
4.975072291666667,0,0x7C,0x7C
4.976501291666667,0,0x00,0x00
4.977941458333333,0,0xB0,0xB0
4.979370541666666,0,0xC0,0xC0
4.980810583333334,0,0xFF,0xFF
4.982239583333333,0,0xFF,0xFF
4.983679666666666,0,0x00,0x00
4.985108708333334,0,0x00,0x00
4.986548791666666,0,0x00,0x00
4.987977875000000,0,0x00,0x00
4.989417958333333,0,0x00,0x00
4.990847000000000,0,0x00,0x00
4.992287083333333,0,0x00,0x00
4.993716125000000,0,0x00,0x00
4.995156250000000,0,0x80,0x80
4.996585291666666,0,0x00,0x00
4.998025333333334,0,0x07,0x07
4.999454416666667,0,0x01,0x01
5.000894458333334,0,0x0B,0x0B
5.002323541666667,0,0x07,0x07
5.003763583333333,0,0xFF,0xFF
5.005253750000000,0,0xFF,0xFF
5.006693750000000,0,0x00,0x00
5.008122875000000,0,0x00,0x00
5.009562916666667,0,0x00,0x00
5.010992041666666,0,0x00,0x00
5.012432041666667,0,0x00,0x00
5.013861166666667,0,0x00,0x00
5.015301166666666,0,0x00,0x00
5.016730291666667,0,0x00,0x00
5.018170291666666,0,0x7F,0x7F
5.019599458333333,0,0xFF,0xFF
5.021039458333333,0,0xFF,0xFF
5.022468583333334,0,0xFF,0xFF
5.023908583333333,0,0xFF,0xFF
5.025337750000000,0,0xFF,0xFF
5.026777708333333,0,0xFF,0xFF
5.028206875000000,0,0xFF,0xFF
5.029646833333334,0,0x00,0x00
5.031076000000000,0,0x00,0x00
5.032515958333334,0,0x00,0x00
5.033945166666666,0,0x00,0x00
5.035385083333333,0,0x00,0x00
5.036814291666666,0,0x00,0x00
5.038254250000000,0,0x00,0x00
5.039683416666667,0,0x00,0x00
8.606905083333332,0,0xFF,0x00
8.608283541666667,0,0x00,0x99
8.609713125000001,0,0x00,0x00
8.611091625000000,0,0x00,0x00
8.612521208333334,0,0x00,0x00
8.613899750000000,0,0x00,0x00
8.615329291666667,0,0x00,0x00
8.616707833333333,0,0x00,0x00
8.618137375000000,0,0x00,0x00
8.619515916666666,0,0x00,0x00
8.620945458333333,0,0x00,0x00
8.622324000000001,0,0x00,0x00
8.623753583333333,0,0x00,0x00
8.625132125000000,0,0x00,0x00
8.626561666666667,0,0x00,0x00
8.627940208333333,0,0x00,0x00
8.629369750000000,0,0x00,0x00
8.630748291666666,0,0x00,0x00
8.632177833333333,0,0x00,0x00
8.633556416666666,0,0x00,0x00
8.634985916666666,0,0x00,0x00
8.636364500000001,0,0x00,0x00
8.637794000000000,0,0x00,0x00
8.639172583333334,0,0x00,0x00
8.640602083333333,0,0x00,0x00
8.641980666666667,0,0x00,0x00
8.643410166666667,0,0x00,0x00
8.644788791666667,0,0x00,0x00
8.646218250000000,0,0x01,0x00
8.647596875000000,0,0x00,0x01
8.649026375000000,0,0xFF,0xFF
8.650466000000000,0,0xFF,0xFF
8.651895458333334,0,0xD5,0xC0
8.653335166666666,0,0xFF,0xFF
8.654764625000000,0,0xA0,0x83
8.656204291666667,0,0xFF,0xFC
8.657633750000000,0,0xF5,0xAB
8.659073416666667,0,0xFF,0xD4
8.660502875000001,0,0x80,0xFF
8.661942583333333,0,0xFF,0x80
8.663372000000001,0,0xD4,0xBD
8.664811750000000,0,0xFF,0xC0
8.666241166666667,0,0xC0,0xF8
8.667680916666667,0,0xFF,0x80
8.669110291666666,0,0xD4,0xD5
8.670550000000000,0,0xFF,0x80
8.671979416666666,0,0xFF,0xFF
8.673419125000001,0,0xFF,0xFF
8.674848500000000,0,0x54,0x2A
8.676288375000000,0,0xFF,0xD5
8.677717666666666,0,0x01,0xFF
8.679157416666667,0,0xFE,0x00
8.680586791666666,0,0x54,0xFF
8.682026583333334,0,0xFF,0x00
8.683455916666666,0,0x01,0xE0
8.684895708333332,0,0xFE,0x00
8.686325041666667,0,0x53,0x55
8.687764833333333,0,0xFC,0x00
8.689194208333333,0,0x2B,0x00
8.690633958333333,0,0xD4,0x00
8.692063333333333,0,0x00,0x40
8.693503124999999,0,0xDF,0x00
8.694932458333334,0,0xFF,0xFF
8.696372250000000,0,0xFF,0xFF
8.697801583333334,0,0x93,0xF0
8.699241375000000,0,0x6C,0x00
8.700670750000000,0,0x10,0xF3
8.702110541666666,0,0xEE,0x04
8.703539833333334,0,0x4D,0x43
8.704979666666667,0,0xF6,0x34
8.706409000000001,0,0x01,0x10
8.707848833333333,0,0xFE,0x20
8.709278125000001,0,0xD4,0x43
8.710717958333333,0,0x7F,0x34
8.712147249999999,0,0xE9,0x08
8.713587083333334,0,0x16,0x30
8.715016416666666,0,0x88,0x1F
8.716456250000000,0,0x77,0x30
8.717885541666666,0,0xFF,0xFF
8.719325375000000,0,0xFF,0xFF
8.720754625000000,0,0xD9,0x03
8.722194500000001,0,0x07,0x01
8.723623750000000,0,0x11,0xE1
8.725063625000001,0,0x0F,0x01
8.726492916666666,0,0x05,0xE1
8.727932791666667,0,0x7F,0x01
8.729362041666667,0,0x01,0x01
8.730801916666667,0,0xFF,0x01
8.732231166666667,0,0x55,0xA1
8.733671083333334,0,0xFF,0x41
8.735100291666667,0,0x61,0x01
8.736540208333333,0,0xDF,0x01
8.737969416666667,0,0x25,0xF5
8.739470416666666,0,0xDF,0x01
8.740899625000001,0,0x80,0xC0
8.742339625000000,0,0xFF,0x80
8.743768749999999,0,0xC2,0x85
8.745208708333333,0,0xFD,0x80
8.746637874999999,0,0x88,0xFA
8.748077916666666,0,0xF0,0x81
8.749507041666666,0,0xC0,0xB6
8.750947041666667,0,0xF0,0xC1
8.752376166666666,0,0xA0,0xE7
8.753816125000000,0,0xF0,0x80
8.755245333333333,0,0xC0,0xFC
8.756685333333333,0,0xF0,0xC0
8.758114458333333,0,0xC5,0x9E
8.759554416666667,0,0xF8,0x80
8.760983583333333,0,0xD4,0xB0
8.762423625000000,0,0xFF,0x84
8.763852666666667,0,0x43,0x00
8.765292666666667,0,0x9C,0x00
8.766721791666667,0,0x40,0x02
8.768161833333334,0,0x9F,0x00
8.769590958333334,0,0x90,0x80
8.771030958333334,0,0x0F,0x00
8.772460041666667,0,0x11,0x44
8.773900083333332,0,0x0F,0x01
8.775329166666667,0,0x18,0x21
8.776769208333333,0,0x07,0x00
8.778198333333334,0,0x1A,0x64
8.779638374999999,0,0x04,0x01
8.781067458333334,0,0x18,0x61
8.782507499999999,0,0x00,0x00
8.783936625000001,0,0xDC,0x10
8.785376666666666,0,0x00,0x41
8.786805708333333,0,0x0B,0x0F
8.788245791666666,0,0xF4,0x30
8.789674874999999,0,0x66,0x1D
8.791114916666666,0,0x10,0x30
8.792543999999999,0,0xB0,0x1B
8.793984083333333,0,0x00,0x30
8.795413125000000,0,0x2A,0xDA
8.796853250000000,0,0xD4,0x35
8.798282291666666,0,0x8E,0x98
8.799722333333333,0,0x30,0x30
8.801151375000000,0,0x0A,0x5F
8.802591500000000,0,0x34,0xB0
8.804020500000000,0,0x0A,0x1F
8.805460625000000,0,0x34,0xB0
8.806889666666667,0,0x0B,0x58
8.808329750000000,0,0x34,0xB0
8.809758833333333,0,0xC1,0x9D
8.811198916666667,0,0x3F,0x63
8.812627875000000,0,0x6B,0x75
8.814068041666667,0,0x15,0x01
8.815497041666667,0,0x7D,0xFF
8.816937166666667,0,0x03,0x01
8.818366166666667,0,0x31,0x8B
8.819806333333334,0,0x4F,0x75
8.821235291666667,0,0x7F,0xC1
8.822675458333334,0,0x01,0x01
8.824104458333334,0,0xBF,0xAB
8.825544583333333,0,0x41,0x55
8.826973583333332,0,0xFF,0x9F
8.828413749999999,0,0x01,0x61
8.829842708333333,0,0xBF,0x65
8.831282874999999,0,0x41,0x01
8.832711833333333,0,0xC0,0xA9
8.834152041666666,0,0xFF,0xC0
8.835580999999999,0,0xD2,0xB6
8.837021249999999,0,0xFD,0x81
8.838450083333333,0,0x89,0xE3
8.839951375000000,0,0xF0,0x80
8.841380333333333,0,0xC0,0x98
8.842820583333333,0,0xF0,0x86
8.844249458333334,0,0x80,0x84
8.845689750000000,0,0x80,0x80
8.847118583333334,0,0x80,0xD4
8.848558875000000,0,0x80,0x88
8.849987708333334,0,0x80,0xB0
8.851428000000000,0,0x80,0xC8
8.852856833333334,0,0xD0,0xE1
8.854297083333334,0,0xA0,0xD0
8.855725958333334,0,0x7C,0x82
8.857166208333334,0,0x80,0x00
8.858595083333332,0,0xF8,0x72
8.860035333333334,0,0x00,0x00
8.861464208333333,0,0x10,0x02
8.862904500000001,0,0x00,0x00
8.864333333333333,0,0x00,0x72
8.865773624999999,0,0x00,0x01
8.867202458333333,0,0x00,0x03
8.868642749999999,0,0x00,0x00
8.870071583333333,0,0x01,0x06
8.871511874999999,0,0x00,0x41
8.872940708333333,0,0x07,0x04
8.874381041666666,0,0x00,0x02
8.875809875000000,0,0x19,0x87
8.877250166666666,0,0x07,0x04
8.878679000000000,0,0x0F,0xDF
8.880119291666666,0,0x30,0x30
8.881548125000000,0,0x08,0x9A
8.882988458333333,0,0x37,0x35
8.884417250000000,0,0x3B,0x18
8.885857583333333,0,0x04,0xB0
8.887286375000000,0,0x18,0x1A
8.888726750000000,0,0x07,0xB5
8.890155500000001,0,0x32,0x3F
8.891595875000000,0,0x0D,0x90
8.893024666666667,0,0xA0,0x5D
8.894465041666667,0,0x5F,0xB0
8.895893791666667,0,0x0D,0x5F
8.897334166666667,0,0xF2,0xB0
8.898762916666668,0,0x00,0x1D
8.900203333333334,0,0xFF,0xF0
8.901632041666666,0,0x9B,0xF3
8.903072416666667,0,0x65,0x0D
8.904501166666666,0,0x29,0xAF
8.905941583333334,0,0xD7,0x51
8.907370291666666,0,0x87,0x0B
8.908810708333334,0,0x79,0x01
8.910239416666666,0,0x43,0x23
8.911679875000001,0,0xFD,0xDD
8.913108583333333,0,0x05,0xF3
8.914548999999999,0,0xFB,0x01
8.915977708333333,0,0x0F,0xEB
8.917418166666666,0,0xF1,0x15
8.918846833333333,0,0x89,0x43
8.920287291666666,0,0x73,0xBD
8.921715958333333,0,0x05,0x57
8.923156416666666,0,0xFF,0x01
8.924585083333334,0,0xBD,0x80
8.926025583333333,0,0xC0,0x80
8.927454291666667,0,0x92,0x80
8.928894791666666,0,0xED,0x81
8.930323375000000,0,0x80,0xB3
8.931763875000000,0,0xFF,0xC0
8.933192500000001,0,0xFF,0xFF
8.934633000000000,0,0xFF,0xFF
8.936061625000001,0,0x00,0x00
8.937502125000000,0,0x00,0x00
8.938930750000001,0,0x00,0x00
8.940432333333334,0,0x00,0x00
8.941860958333333,0,0x00,0x00
8.943301458333334,0,0x00,0x00
8.944730083333333,0,0x00,0x00
8.946170583333334,0,0x00,0x00
8.947599250000000,0,0xE4,0x05
8.949039750000001,0,0x1B,0x00
8.950468333333333,0,0x15,0x41
8.951908875000001,0,0xFB,0x00
8.953337458333333,0,0x07,0x01
8.954777999999999,0,0xFB,0x00
8.956206625000000,0,0xFF,0xFF
8.957647166666666,0,0xFF,0xFF
8.959075708333334,0,0x00,0x00
8.960516291666666,0,0x00,0x00
8.961944875000000,0,0x00,0x00
8.963385458333333,0,0x00,0x00
8.964814000000001,0,0x00,0x00
8.966254583333333,0,0x00,0x00
8.967683125000001,0,0x00,0x00
8.969123708333333,0,0x00,0x00
8.970552250000001,0,0x08,0x5F
8.971992875000000,0,0xF7,0xB0
8.973421374999999,0,0x5D,0x9A
8.974862000000000,0,0xF7,0x75
8.976290499999999,0,0x1C,0x1A
8.977731166666667,0,0xF7,0x30
8.979159666666666,0,0xFF,0xFF
8.980600291666667,0,0xFF,0xFF
8.982028791666666,0,0x00,0x00
8.983469416666667,0,0x00,0x00
8.984897916666666,0,0x00,0x00
8.986338583333334,0,0x00,0x00
8.987767041666666,0,0x00,0x00
8.989207708333334,0,0x00,0x00
8.990636166666667,0,0x00,0x00
8.992076833333334,0,0x00,0x00
8.993505333333333,0,0x01,0xC3
8.994946000000001,0,0xFF,0x3D
8.996374458333333,0,0xF5,0xAB
8.997815125000001,0,0xFF,0x55
8.999243583333334,0,0x11,0xF7
9.000684250000001,0,0xEF,0x01
9.002112708333334,0,0xFF,0xFF
9.003553416666668,0,0xFF,0xFF
9.004981833333334,0,0x00,0x00
9.006422541666666,0,0x00,0x00
9.007850958333334,0,0x00,0x00
9.009291666666666,0,0x00,0x00
9.010720125000001,0,0x00,0x00
9.012160833333333,0,0x00,0x00
9.013589250000001,0,0x00,0x00
9.015029958333333,0,0x00,0x00
9.016458416666667,0,0xFF,0xFF
9.017899125000000,0,0xFF,0xFF
9.019327499999999,0,0xBD,0x80
9.020768250000000,0,0xC0,0x80
9.022196666666666,0,0xBF,0x80
9.023637416666666,0,0xC0,0x80
9.025065833333333,0,0xD7,0x80
9.026506541666667,0,0xFC,0x80
9.027934958333333,0,0x87,0x80
9.029375666666667,0,0xF8,0x80
9.030804083333333,0,0xDE,0x80
9.032244875000000,0,0xF1,0x80
9.033673166666667,0,0x83,0x80
9.035113958333334,0,0xF0,0x80
9.036542333333333,0,0xC3,0x80
9.037983083333334,0,0xF0,0x80
9.039411458333333,0,0xFF,0xFF
9.040913291666667,0,0xFF,0xFF
9.042341583333334,0,0x00,0x00
9.043782416666666,0,0x00,0x00
9.045210750000001,0,0xC3,0x00
9.046651541666666,0,0x00,0x00
9.048079875000001,0,0x77,0x00
9.049520666666666,0,0x00,0x00
9.050948999999999,0,0x00,0x00
9.052389833333333,0,0x03,0x00
9.053818124999999,0,0xB6,0x00
9.055258958333333,0,0x01,0x00
9.056687250000000,0,0x04,0x00
9.058128125000000,0,0x01,0x00
9.059556375000000,0,0x13,0x00
9.060997250000000,0,0x00,0x00
9.062425583333333,0,0xFF,0xFF
9.063866416666666,0,0xFF,0xFF
9.065294625000000,0,0x16,0x00
9.066735541666667,0,0x01,0x00
9.068163791666667,0,0xC0,0x00
9.069604666666667,0,0x03,0x00
9.071032916666667,0,0xE7,0x00
9.072473791666667,0,0x11,0x00
9.073902041666667,0,0xDE,0x00
9.075342958333334,0,0x01,0x00
9.076771208333334,0,0xC8,0x00
9.078212083333334,0,0x17,0x00
9.079640333333334,0,0x90,0x00
9.081081250000000,0,0x0F,0x00
9.082509458333334,0,0xC7,0x00
9.083950375000001,0,0x19,0x00
9.085378583333334,0,0xFF,0xFF
9.086819500000001,0,0xFF,0xFF
9.088247708333334,0,0xC5,0x01
9.089688625000001,0,0x7F,0x01
9.091116833333333,0,0x81,0x01
9.092557791666666,0,0x7F,0x01
9.093985958333333,0,0x55,0x01
9.095426958333332,0,0xFF,0x01
9.096855083333333,0,0x01,0x01
9.098296083333333,0,0xFF,0x01
9.099724250000000,0,0x55,0x01
9.101165208333333,0,0xFF,0x01
9.102593375000000,0,0x01,0x01
9.104034374999999,0,0xFF,0x01
9.105462500000000,0,0x55,0x01
9.106903500000000,0,0xFF,0x01
9.108331625000000,0,0x92,0x80
9.109772749999999,0,0xE0,0x80
9.111200833333333,0,0xB6,0x94
9.112641875000000,0,0xC0,0x80
9.114069958333333,0,0xF3,0xFC
9.115510916666667,0,0x80,0x80
9.116939083333333,0,0xA7,0xEF
9.118380041666667,0,0xD0,0x90
9.119808208333334,0,0x92,0xED
9.121249208333333,0,0xE0,0x90
9.122677333333334,0,0x8D,0xE2
9.124118333333334,0,0xF0,0x9D
9.125546458333334,0,0x8D,0xA3
9.126987500000000,0,0xF0,0xDC
9.128415625000001,0,0xDE,0x82
9.129856708333334,0,0xF0,0xFD
9.131284666666666,0,0x47,0x00
9.132725750000001,0,0x00,0x00
9.134153833333333,0,0x07,0x01
9.135594875000001,0,0x00,0x00
9.137022958333333,0,0x23,0xCF
9.138464041666667,0,0xC0,0x00
9.139892083333333,0,0x67,0x73
9.141394208333333,0,0x10,0x0C
9.142822291666667,0,0x1F,0x93
9.144263375000000,0,0x00,0x6C
9.145691416666667,0,0x33,0x40
9.147132500000000,0,0x1C,0xFF
9.148560541666667,0,0x04,0x00
9.150001749999999,0,0xF8,0xFF
9.151429666666667,0,0x4C,0xAD
9.152870791666667,0,0x70,0x5E
9.154298833333334,0,0x8A,0x00
9.155739916666667,0,0x01,0x00
9.157167916666667,0,0xD4,0x57
9.158609083333333,0,0x03,0x00
9.160037041666667,0,0x21,0xCC
9.161478208333333,0,0x06,0x00
9.162906208333334,0,0x04,0x75
9.164347333333334,0,0x09,0x0A
9.165775333333332,0,0x0E,0xFF
9.167216500000000,0,0x00,0x00
9.168644458333333,0,0x75,0xB3
9.170085625000000,0,0x00,0x44
9.171513583333333,0,0x21,0xFB
9.172954750000001,0,0x00,0x04
9.174382708333333,0,0x05,0x68
9.175823916666667,0,0x00,0x17
9.177251833333333,0,0x01,0x01
9.178693041666667,0,0xFF,0x01
9.180120958333333,0,0x15,0x75
9.181562208333334,0,0xFF,0x01
9.182990083333333,0,0x01,0x4D
9.184431333333333,0,0xFF,0x01
9.185859250000000,0,0x11,0xD5
9.187300458333333,0,0xFF,0x01
9.188728375000000,0,0x01,0x4F
9.190169583333333,0,0x7F,0x01
9.191597500000000,0,0x95,0xA7
9.193038749999999,0,0x7F,0x51
9.194466625000000,0,0xC1,0xDF
9.195907875000000,0,0x3F,0x21
9.197335791666667,0,0xDD,0xCB
9.198777000000000,0,0x7F,0x05
9.200204916666667,0,0x8D,0xC4
9.201646208333333,0,0xF0,0xBB
9.203074083333334,0,0xDE,0xD9
9.204515333333333,0,0xF1,0xB7
9.205943166666666,0,0x8B,0x9F
9.207384458333333,0,0xF0,0xE1
9.208812333333332,0,0xD8,0xE8
9.210253666666667,0,0xF7,0xE7
9.211681416666666,0,0xC7,0xC9
9.213122750000000,0,0xF8,0xE4
9.214550624999999,0,0xF6,0xD9
9.215991916666667,0,0xF9,0xE4
9.217419708333333,0,0xE7,0x99
9.218861000000000,0,0xF8,0xE0
9.220288875000000,0,0xD4,0xC3
9.221730166666667,0,0xFF,0xFC
9.223157958333333,0,0x44,0x0D
9.224599291666667,0,0x38,0xFE
9.226027125000000,0,0x86,0x3D
9.227468458333334,0,0x79,0xDE
9.228896250000000,0,0xC7,0x26
9.230337583333334,0,0x38,0xD9
9.231765333333334,0,0xD6,0x55
9.233206708333332,0,0x39,0x83
9.234634458333334,0,0xC3,0x7E
9.236075833333333,0,0x3C,0x81
9.237503666666667,0,0xCC,0xEB
9.238944999999999,0,0x30,0x14
9.240372791666667,0,0xE7,0x38
9.241875166666667,0,0x18,0x04
9.243302958333333,0,0xAD,0x13
9.244744291666667,0,0x50,0x1C
9.246172083333333,0,0x00,0xAE
9.247613458333333,0,0x00,0x11
9.249041208333333,0,0x7F,0x71
9.250482583333334,0,0x00,0x8F
9.251910333333333,0,0xFF,0x1F
9.253351750000000,0,0x00,0xE0
9.254779500000000,0,0xC0,0xAB
9.256220875000000,0,0x7F,0xD4
9.257648625000000,0,0x80,0x9E
9.259090041666667,0,0x7F,0x60
9.260517708333333,0,0x05,0xBF
9.261959166666667,0,0x7E,0x40
9.263386875000000,0,0xF8,0x67
9.264828291666667,0,0x07,0x00
9.266256000000000,0,0x84,0x56
9.267697458333334,0,0x7F,0x01
9.269125125000000,0,0x89,0xFF
9.270566583333334,0,0x7F,0x01
9.271994250000001,0,0x95,0xE7
9.273435708333333,0,0x7F,0x11
9.274863375000001,0,0x61,0xBD
9.276304874999999,0,0x9F,0x01
9.277732500000001,0,0x77,0xC3
9.279173999999999,0,0x9F,0x15
9.280601624999999,0,0x01,0xE1
9.282043166666666,0,0x9F,0x01
9.283470749999999,0,0xFF,0x53
9.284912291666666,0,0x1F,0x05
9.286339916666666,0,0x33,0x47
9.287781416666666,0,0x9F,0x81
9.289209041666666,0,0x8D,0x43
9.290650541666666,0,0x1F,0xFD
9.292078166666666,0,0x88,0xE4
9.293519791666666,0,0xFF,0xF8
9.294947333333333,0,0xD7,0xDC
9.296388875000000,0,0xFC,0xF0
9.297816500000000,0,0xB1,0xD8
9.299258000000000,0,0xFE,0x80
9.300685625000000,0,0xFF,0xFF
9.302127125000000,0,0xFF,0xFF
9.303554708333333,0,0x00,0x00
9.304996291666667,0,0x00,0x00
9.306423833333334,0,0x00,0x00
9.307865416666667,0,0x00,0x00
9.309292958333334,0,0x00,0x00
9.310734541666667,0,0x00,0x00
9.312162083333334,0,0x00,0x00
9.313603708333334,0,0x00,0x00
9.315031250000001,0,0x56,0x10
9.316472875000001,0,0xB8,0x00
9.317900375000001,0,0x10,0x31
9.319341958333334,0,0x3F,0x00
9.320769500000001,0,0x81,0x19
9.322211083333332,0,0x3E,0x00
9.323638666666668,0,0xFF,0xFF
9.325080249999999,0,0xFF,0xFF
9.326507749999999,0,0x00,0x00
9.327949416666666,0,0x00,0x00
9.329376874999999,0,0x00,0x00
9.330818541666666,0,0x00,0x00
9.332246041666666,0,0x00,0x00
9.333687666666666,0,0x00,0x00
9.335115166666666,0,0x00,0x00
9.336556833333333,0,0x00,0x00
9.337984291666666,0,0x79,0xE2
9.339425958333333,0,0x06,0x01
9.340853416666667,0,0x2C,0x37
9.342356166666667,0,0xD7,0x41
9.343783583333334,0,0x80,0x4E
9.345225291666667,0,0x7F,0x01
9.346652750000001,0,0xFF,0xFF
9.348094416666667,0,0xFF,0xFF
9.349521833333334,0,0x00,0x00
9.350963583333334,0,0x00,0x00
9.352391000000001,0,0x00,0x00
9.353832708333334,0,0x00,0x00
9.355260124999999,0,0x00,0x00
9.356701833333334,0,0x00,0x00
9.358129249999999,0,0x00,0x00
9.359571000000001,0,0x00,0x00
9.360998416666666,0,0x89,0x41
9.362440124999999,0,0x1F,0xFF
9.363867500000000,0,0x4D,0xCD
9.365309249999999,0,0x9F,0xE1
9.366736666666666,0,0x59,0xCF
9.368178416666666,0,0x8F,0x81
9.369605791666666,0,0xFF,0xFF
9.371047541666666,0,0xFF,0xFF
9.372474916666667,0,0x00,0x00
9.373916708333333,0,0x00,0x00
9.375344041666667,0,0x00,0x00
9.376785833333333,0,0x00,0x00
9.378213166666667,0,0x00,0x00
9.379654958333333,0,0x00,0x00
9.381082333333334,0,0x00,0x00
9.382524125000000,0,0x00,0x00
9.383951500000000,0,0xFF,0xFF
9.385393250000000,0,0xFF,0xFF
9.386820583333334,0,0xDD,0xFF
9.388262375000000,0,0xFF,0xFF
9.389689708333334,0,0x80,0xC0
9.391131625000000,0,0xFF,0xFF
9.392558833333334,0,0xF1,0xD4
9.394000666666667,0,0xFE,0xFF
9.395428000000001,0,0x80,0x80
9.396869875000000,0,0x80,0xFF
9.398297124999999,0,0x80,0xC0
9.399739041666667,0,0x80,0xFF
9.401166249999999,0,0x80,0x83
9.402608125000000,0,0x80,0xFC
9.404035416666666,0,0x80,0x8A
9.405477291666667,0,0x80,0xF5
9.406904541666666,0,0xFF,0xFF
9.408346375000001,0,0xFF,0xFF
9.409773625000000,0,0x5F,0x53
9.411215500000001,0,0xFF,0xFC
9.412642750000000,0,0x3E,0x02
9.414084750000001,0,0xC1,0xFC
9.415511875000000,0,0x60,0x40
9.416953791666666,0,0x00,0xFC
9.418381041666667,0,0x20,0x18
9.419822958333333,0,0x00,0xE4
9.421250166666667,0,0x25,0x2C
9.422692041666666,0,0x10,0xD4
9.424119291666667,0,0x01,0xE4
9.425561208333333,0,0x00,0x00
9.426988458333334,0,0x10,0xE4
9.428430333333333,0,0x00,0x00
9.429857625000000,0,0xFF,0xFF
9.431299500000000,0,0xFF,0xFF
9.432726708333334,0,0xFF,0xF8
9.434168625000000,0,0xFF,0x07
9.435595791666668,0,0xD8,0x04
9.437037791666667,0,0x27,0x0B
9.438464958333334,0,0x52,0x0A
9.439906916666667,0,0x7D,0x05
9.441334083333333,0,0x43,0xC7
9.442776041666667,0,0x2C,0x00
9.444203208333333,0,0x42,0x43
9.445645208333334,0,0x01,0x04
9.447072333333333,0,0x00,0x85
9.448514333333334,0,0x80,0x00
9.449941500000000,0,0x01,0x05
9.451383458333334,0,0xC0,0x00
9.452810666666666,0,0xFF,0xFF
9.454252625000001,0,0xFF,0xFF
9.455679750000000,0,0xFF,0x0B
9.457121750000001,0,0xFF,0xF5
9.458548875000000,0,0x0F,0x09
9.459990916666667,0,0xF1,0xF7
9.461418000000000,0,0x05,0xAB
9.462860041666667,0,0xC3,0x55
9.464287125000000,0,0xCD,0xFF
9.465729166666666,0,0x33,0x01
9.467156250000000,0,0x31,0xFB
9.468598333333333,0,0xDD,0x05
9.470025416666667,0,0x33,0xFF
9.471467458333333,0,0x0D,0x01
9.472894541666667,0,0x47,0x55
9.474336583333333,0,0x01,0x01
9.475763666666667,0,0x80,0xFF
9.477205750000000,0,0x80,0x80
9.478632833333334,0,0x94,0xFD
9.480074916666666,0,0xC0,0x80
9.481502000000001,0,0xC1,0xF0
9.482944041666666,0,0x80,0x80
9.484371124999999,0,0xDE,0xD5
9.485813166666667,0,0x80,0x80
9.487240249999999,0,0x92,0x80
9.488682375000000,0,0x80,0x80
9.490109374999999,0,0xC1,0xD5
9.491551416666667,0,0xF1,0x80
9.492978458333333,0,0xC8,0x83
9.494420583333333,0,0xF0,0x80
9.495847625000000,0,0xE7,0x87
9.497289708333334,0,0xD8,0xC0
9.498716750000000,0,0xB0,0xCA
9.500158875000000,0,0x40,0x25
9.501585833333333,0,0x7C,0x4F
9.503028000000000,0,0x40,0x20
9.504455000000000,0,0xDE,0x4C
9.505897125000001,0,0x60,0x20
9.507324125000000,0,0x22,0x5A
9.508766291666667,0,0x1D,0x25
9.510193250000000,0,0x55,0x50
9.511635416666667,0,0x2E,0x20
9.513062375000001,0,0x0F,0x5A
9.514504541666666,0,0xD3,0x25
9.515931500000001,0,0x09,0x41
9.517373666666666,0,0x07,0x2E
9.518800666666667,0,0x48,0xD4
9.520242833333333,0,0x17,0x20
9.521669791666667,0,0xBC,0x00
9.523111999999999,0,0x40,0xC0
9.524538916666666,0,0x7E,0xC1
9.525981124999999,0,0x05,0x00
9.527408041666666,0,0x26,0x00
9.528850250000000,0,0x19,0x00
9.530277208333333,0,0xB6,0x80
9.531719416666666,0,0x41,0x40
9.533146291666666,0,0xE7,0x00
9.534588541666666,0,0x00,0x00
9.536015500000000,0,0xB7,0xBC
9.537457666666667,0,0x41,0x40
9.538884583333333,0,0xA1,0x94
9.540326833333333,0,0x43,0x68
9.541753708333333,0,0x97,0x45
9.543257000000001,0,0x61,0x00
9.544683875000000,0,0x01,0x01
9.546126166666667,0,0xE1,0x01
9.547553000000001,0,0x35,0x41
9.548995291666667,0,0xC3,0x01
9.550422125000001,0,0x95,0x01
9.551864416666668,0,0x23,0x01
9.553291249999999,0,0x9D,0x01
9.554733541666666,0,0x61,0x01
9.556160416666666,0,0x1F,0x01
9.557602708333333,0,0xE1,0x01
9.559029541666666,0,0x4F,0x01
9.560471833333333,0,0xF1,0x01
9.561898666666666,0,0x0D,0x01
9.563340999999999,0,0xF1,0x01
9.564767791666666,0,0x41,0xD5
9.566210125000000,0,0xFD,0x01
9.567636958333333,0,0x80,0xE4
9.569079374999999,0,0xF8,0x80
9.570506125000000,0,0xD7,0xF1
9.571948416666666,0,0xF8,0x84
9.573375250000000,0,0x80,0xC9
9.574817583333333,0,0xFC,0xA4
9.576244375000000,0,0xD3,0x94
9.577686708333333,0,0xFC,0xE1
9.579113500000000,0,0x84,0xA1
9.580555875000000,0,0xFB,0xC0
9.581982625000000,0,0xD5,0x92
9.583425000000000,0,0xFF,0xC1
9.584851750000000,0,0xC8,0xD3
9.586294125000000,0,0xFF,0xA0
9.587720875000000,0,0xD5,0xB0
9.589163250000000,0,0xFF,0xC3
9.590590000000001,0,0xF9,0x63
9.592032375000000,0,0x00,0xAC
9.593459166666667,0,0x90,0x72
9.594901541666667,0,0x4F,0xED
9.596328249999999,0,0x71,0x21
9.597770666666667,0,0x0E,0xE0
9.599197374999999,0,0x22,0x70
9.600639833333334,0,0x1C,0xEF
9.602066499999999,0,0x49,0x2F
9.603508958333334,0,0xB6,0xE0
9.604935666666666,0,0x04,0x67
9.606378125000001,0,0xFF,0xE0
9.607804791666666,0,0x03,0xA0
9.609247249999999,0,0xFC,0x6F
9.610673916666666,0,0x48,0x2E
9.612116458333333,0,0xF4,0xE1
9.613543041666667,0,0xC5,0x35
9.614985500000000,0,0x32,0xC8
9.616412166666667,0,0x10,0x2D
9.617854666666666,0,0x0F,0xD0
9.619281333333333,0,0x08,0x80
9.620723791666666,0,0x07,0x00
9.622150458333333,0,0x12,0x24
9.623592958333333,0,0x05,0xD8
9.625019583333334,0,0x18,0xFA
9.626462083333333,0,0x07,0x00
9.627888708333334,0,0x02,0xDF
9.629331208333333,0,0x1D,0x00
9.630757833333334,0,0x07,0x07
9.632200333333333,0,0x00,0xF8
9.633627000000001,0,0x06,0xF6
9.635069500000000,0,0x01,0x01
9.636496083333334,0,0x1B,0xA7
9.637938625000000,0,0xE5,0x01
9.639365208333333,0,0x41,0x59
9.640807791666667,0,0xFF,0x07
9.642234374999999,0,0x01,0x01
9.643737958333332,0,0xFF,0x07
9.645164541666666,0,0x55,0x13
9.646607083333333,0,0xFF,0x05
9.648033666666667,0,0x01,0x21
9.649476249999999,0,0xFF,0x07
9.650902791666667,0,0x51,0x5B
9.652345374999999,0,0xFF,0x25
9.653771916666667,0,0x01,0x5D
9.655214541666666,0,0xFF,0x23
9.656641083333334,0,0xA1,0xE9
9.658083666666666,0,0x5F,0x15
9.659510208333334,0,0xC7,0xB0
9.660952833333333,0,0xFF,0xC3
9.662379333333334,0,0xF5,0xB4
9.663821958333333,0,0xFF,0xC3
9.665248458333334,0,0xC0,0xA4
9.666691166666666,0,0xFF,0xC3
9.668117583333334,0,0xFF,0xFF
9.669560208333333,0,0xFF,0xFF
9.670986708333333,0,0x00,0x00
9.672429375000000,0,0x00,0x00
9.673855874999999,0,0x00,0x00
9.675298500000000,0,0x00,0x00
9.676724999999999,0,0x00,0x00
9.678167666666667,0,0x00,0x00
9.679594124999999,0,0x00,0x00
9.681036791666667,0,0x00,0x00
9.682463250000000,0,0x08,0x2F
9.683905958333334,0,0xF0,0xE0
9.685332375000000,0,0x70,0x70
9.686775125000000,0,0xC0,0xEF
9.688201500000000,0,0x40,0x26
9.689644291666667,0,0x80,0xE0
9.691070708333333,0,0xFF,0xFF
9.692513333333334,0,0xFF,0xFF
9.693939791666667,0,0x00,0x00
9.695382499999999,0,0x00,0x00
9.696808916666667,0,0x00,0x00
9.698251624999999,0,0x00,0x00
9.699678041666667,0,0x00,0x00
9.701120791666666,0,0x00,0x00
9.702547166666667,0,0x00,0x00
9.703989916666666,0,0x00,0x00
9.705416333333334,0,0x03,0xFE
9.706859041666666,0,0x00,0x01
9.708285458333334,0,0x05,0x06
9.709728166666666,0,0x00,0xF9
9.711154583333334,0,0x00,0x0F
9.712597333333333,0,0x00,0x00
9.714023750000001,0,0xFF,0xFF
9.715466458333333,0,0xFF,0xFF
9.716892833333333,0,0x00,0x00
9.718335625000000,0,0x00,0x00
9.719761958333333,0,0x00,0x00
9.721204750000000,0,0x00,0x00
9.722631124999999,0,0x00,0x00
9.724073875000000,0,0x00,0x00
9.725500250000000,0,0x00,0x00
9.726943041666667,0,0x00,0x00
9.728369416666666,0,0xFD,0x23
9.729812166666667,0,0x03,0xD1
9.731238500000000,0,0xDF,0x3F
9.732681291666667,0,0x01,0xB1
9.734107625000000,0,0x01,0x7F
9.735550458333334,0,0x01,0x01
9.736976750000000,0,0xFF,0xFF
9.738419583333334,0,0xFF,0xFF
9.739845875000000,0,0x00,0x00
9.741288750000001,0,0x00,0x00
9.742715041666667,0,0x00,0x00
9.744218916666666,0,0x00,0x00
9.745645208333332,0,0x00,0x00
9.747088083333333,0,0x00,0x00
9.748514333333333,0,0x00,0x00
9.749957208333333,0,0x00,0x00
9.751383499999999,0,0xFF,0xFF
9.752826333333333,0,0xFF,0xFF
9.754252624999999,0,0xD5,0xC0
9.755695500000000,0,0xFE,0xFF
9.757121750000000,0,0xBE,0x87
9.758564625000000,0,0xC0,0xF8
9.759990916666666,0,0x81,0xAB
9.761433750000000,0,0xC0,0xD4
9.762860041666666,0,0x80,0xFF
9.764302916666667,0,0xC0,0x80
9.765729166666667,0,0xC0,0xFD
9.767172083333334,0,0xC0,0x80
9.768598291666667,0,0xA0,0xE0
9.770041250000000,0,0xC0,0x80
9.771467458333333,0,0xC0,0xD5
9.772910333333334,0,0xF0,0x80
9.774336583333334,0,0xFF,0xFF
9.775779458333334,0,0xFF,0xFF
9.777205666666667,0,0x00,0x2A
9.778648625000001,0,0x00,0xD5
9.780074791666667,0,0x00,0xFF
9.781517750000001,0,0x00,0x00
9.782943958333334,0,0x01,0xFD
9.784386874999999,0,0x00,0x00
9.785813083333334,0,0x00,0x80
9.787256041666666,0,0x00,0x00
9.788682208333332,0,0x10,0x55
9.790125166666666,0,0x00,0x00
9.791551333333333,0,0x00,0x00
9.792994291666666,0,0x00,0x00
9.794420458333333,0,0x01,0x40
9.795863416666666,0,0x00,0x00
9.797289624999999,0,0xFF,0xFF
9.798732583333333,0,0xFF,0xFF
9.800158708333333,0,0x00,0xF6
9.801601750000000,0,0x00,0x01
9.803027833333333,0,0x00,0xE0
9.804470875000000,0,0x00,0x03
9.805896958333333,0,0xC0,0x51
9.807340000000000,0,0x00,0x07
9.808766125000000,0,0x18,0x03
9.810209125000000,0,0x00,0x07
9.811635250000000,0,0x17,0x07
9.813078291666667,0,0x00,0x07
9.814504375000000,0,0x00,0x07
9.815947416666667,0,0x00,0x07
9.817373500000000,0,0x01,0x07
9.818816541666667,0,0x00,0x07
9.820242666666667,0,0xFF,0xFF
9.821685708333334,0,0xFF,0xFF
9.823111750000001,0,0x01,0x01
9.824554833333334,0,0x01,0x01
9.825980875000001,0,0x01,0x5F
9.827423958333334,0,0x01,0x21
9.828850041666668,0,0x41,0x7F
9.830293125000001,0,0x01,0x01
9.831719166666666,0,0x41,0x01
9.833162250000001,0,0x01,0x01
9.834588291666666,0,0xC1,0x6F
9.836031374999999,0,0x01,0x11
9.837457416666666,0,0xF1,0x81
9.838900541666666,0,0x01,0x01
9.840326541666666,0,0xDB,0x3D
9.841769666666666,0,0x05,0x81
9.843195708333333,0,0x8C,0x80
9.844699958333333,0,0xF0,0x80
9.846125916666667,0,0xF3,0xD9
9.847569000000000,0,0xFC,0x80
9.848995041666667,0,0xC2,0xBB
9.850438166666667,0,0xFC,0x80
9.851864166666667,0,0xD7,0xB3
9.853307291666667,0,0xFC,0x9C
9.854733333333334,0,0xA8,0xAC
9.856176500000000,0,0xFF,0x90
9.857602416666667,0,0xDC,0xAC
9.859045625000000,0,0xFF,0x90
9.860471541666668,0,0xC8,0xC7
9.861914750000000,0,0xFF,0x80
9.863340666666666,0,0xD5,0xE5
9.864783875000001,0,0xFF,0x80
9.866209791666666,0,0x00,0x00
9.867653000000001,0,0x00,0x00
9.869078916666666,0,0x50,0x05
9.870522125000001,0,0x00,0x00
9.871948083333333,0,0x00,0x81
9.873391291666668,0,0x00,0x00
9.874817208333333,0,0x14,0x44
9.876260416666666,0,0x00,0x01
9.877686333333333,0,0x00,0x65
9.879129541666666,0,0x00,0x00
9.880555500000000,0,0x81,0xC4
9.881998666666666,0,0x00,0x21
9.883424583333333,0,0xC0,0x61
9.884867833333333,0,0x00,0x00
9.886293708333334,0,0x21,0x50
9.887737000000000,0,0xC0,0x01
9.889162833333334,0,0x41,0x06
9.890606125000000,0,0x00,0x07
9.892031958333334,0,0x3D,0x07
9.893475250000000,0,0x00,0x07
9.894901125000001,0,0x0C,0x0B
9.896344416666667,0,0x00,0x07
9.897770250000001,0,0x02,0xD7
9.899213541666667,0,0x01,0x07
9.900639375000001,0,0x01,0x8B
9.902082666666667,0,0x00,0x07
9.903508499999999,0,0x41,0x5F
9.904951791666667,0,0x00,0x87
9.906377624999999,0,0x03,0x0B
9.907820958333334,0,0x00,0x87
9.909246749999999,0,0x07,0x5F
9.910690083333334,0,0x01,0x87
9.912115916666666,0,0x01,0x81
9.913559250000000,0,0x1F,0xBF
9.914985041666666,0,0x1B,0xB5
9.916428375000001,0,0x37,0x81
9.917854166666666,0,0x03,0xBF
9.919297500000001,0,0x37,0x81
9.920723291666667,0,0x4D,0x89
9.922166666666667,0,0x37,0xB7
9.923592458333333,0,0xD3,0xAB
9.925035791666666,0,0x2F,0x85
9.926461583333333,0,0x97,0xBB
9.927904916666666,0,0x7F,0x85
9.929330708333334,0,0xCF,0xB1
9.930774083333333,0,0x3F,0x8F
9.932199833333334,0,0x1F,0x15
9.933643208333333,0,0xFF,0x81
9.935068958333334,0,0x90,0xBD
9.936512375000000,0,0xFF,0x80
9.937938125000001,0,0xDD,0xD4
9.939381500000000,0,0xFF,0x80
9.940807250000001,0,0x8C,0xEC
9.942250708333333,0,0xFF,0x90
9.943676375000001,0,0xDD,0xD1
9.945180833333334,0,0xFF,0xE0
9.946606541666666,0,0xDF,0xC0
9.948049958333334,0,0xFF,0x80
9.949475666666666,0,0xDD,0x80
9.950919125000000,0,0xFF,0x80
9.952344833333333,0,0xDD,0xDF
9.953788250000001,0,0xFF,0xA0
9.955213958333333,0,0xD5,0xC1
9.956657375000001,0,0xFF,0xFD
9.958083041666667,0,0x30,0x12
9.959526541666667,0,0xC0,0x00
9.960952208333334,0,0x70,0x43
9.962395708333334,0,0xC0,0x00
9.963821333333334,0,0x18,0x02
9.965264833333332,0,0xE0,0x00
9.966690458333334,0,0x40,0x4A
9.968133958333333,0,0xFC,0x01
9.969559583333334,0,0x82,0x03
9.971003124999999,0,0xFC,0x00
9.972428750000001,0,0xD4,0x02
9.973872249999999,0,0xFF,0x01
9.975297833333334,0,0x00,0x81
9.976741375000000,0,0xFF,0x02
9.978166999999999,0,0x55,0x05
9.979610500000000,0,0xFF,0x02
9.981036124999999,0,0x48,0x9B
9.982479666666666,0,0x07,0x07
9.983905249999999,0,0x55,0xCB
9.985348791666667,0,0x0F,0x07
9.986774375000000,0,0x18,0x03
9.988217916666667,0,0x0F,0x8F
9.989643500000000,0,0x05,0x47
9.991087083333333,0,0x1F,0x87
9.992512625000000,0,0x18,0x1B
9.993956208333334,0,0x07,0xC7
9.995381750000000,0,0x5D,0x0F
9.996825333333334,0,0x07,0xC7
9.998250916666667,0,0x88,0xF7
9.999694500000000,0,0x07,0x4F
10.001120041666667,0,0x5F,0xE7
10.002563625000001,0,0x81,0x4F
10.003989166666667,0,0x8B,0x3D
10.005432791666667,0,0xFF,0x83
10.006858291666667,0,0x77,0x01
10.008301916666667,0,0xFF,0xBF
10.009727416666667,0,0xBF,0x03
10.011171041666667,0,0xFF,0x81
10.012596541666667,0,0xDF,0x41
10.014040208333334,0,0xFF,0xBF
10.015465708333334,0,0x77,0x3F
10.016909333333333,0,0xFF,0x81
10.018334833333334,0,0x7F,0x1F
10.019778499999999,0,0xFF,0x81
10.021203958333333,0,0x7F,0x01
10.022647624999999,0,0xFF,0xBF
10.024073083333333,0,0x7F,0xBF
10.025516750000000,0,0xFF,0x01
10.026942249999999,0,0xC0,0xD8
10.028385958333333,0,0xFF,0x80
10.029811375000000,0,0xCE,0xDC
10.031255083333333,0,0xF1,0x80
10.032680500000000,0,0xA0,0xFD
10.034124208333333,0,0xC0,0x80
10.035549666666666,0,0xFF,0xFF
10.036993333333333,0,0xFF,0xFF
10.038418750000000,0,0x00,0x00
10.039862458333333,0,0x00,0x00
10.041287875000000,0,0x00,0x00
10.042731625000000,0,0x00,0x00
10.044157041666667,0,0x00,0x00
10.045661791666667,0,0x00,0x00
10.047087208333334,0,0x00,0x00
10.048530916666667,0,0x00,0x00
10.049956333333334,0,0x00,0x01
10.051400083333334,0,0xFF,0x00
10.052825458333333,0,0xA0,0x01
10.054269208333332,0,0x5F,0x00
10.055694583333333,0,0x7C,0x00
10.057138333333333,0,0x03,0x00
10.058563749999999,0,0xFF,0xFF
10.060007499999999,0,0xFF,0xFF
10.061432833333333,0,0x00,0x00
10.062876624999999,0,0x00,0x00
10.064302000000000,0,0x00,0x00
10.065745791666666,0,0x00,0x00
10.067171125000000,0,0x00,0x00
10.068614916666666,0,0x00,0x00
10.070040250000000,0,0x00,0x00
10.071484041666666,0,0x00,0x00
10.072909416666667,0,0x30,0xA7
10.074353208333333,0,0xC1,0x4F
10.075778500000000,0,0x33,0x77
10.077222333333333,0,0xC1,0x0F
10.078647625000000,0,0x08,0x07
10.080091500000000,0,0xF3,0x0F
10.081516791666667,0,0xFF,0xFF
10.082960625000000,0,0xFF,0xFF
10.084385916666667,0,0x00,0x00
10.085829750000000,0,0x00,0x00
10.087255041666667,0,0x00,0x00
10.088698875000000,0,0x00,0x00
10.090124166666667,0,0x00,0x00
10.091568041666667,0,0x00,0x00
10.092993333333334,0,0x00,0x00
10.094437166666667,0,0x00,0x00
10.095862500000001,0,0xED,0xBD
10.097306291666667,0,0xFF,0x03
10.098731583333333,0,0xF7,0x8B
10.100175458333334,0,0xFF,0x75
10.101600708333333,0,0xAB,0xBF
10.103044583333334,0,0x7F,0x01
10.104469833333333,0,0xFF,0xFF
10.105913749999999,0,0xFF,0xFF
10.107338958333333,0,0x00,0x00
10.108782874999999,0,0x00,0x00
10.110208125000000,0,0x00,0x00
10.111651999999999,0,0x00,0x00
10.113077250000000,0,0x00,0x00
10.114521166666666,0,0x00,0x00
10.115946375000000,0,0x00,0x00
10.117390291666666,0,0x00,0x00
10.118815541666667,0,0xFF,0xFF
10.120259416666666,0,0xFF,0xFF
10.121684625000000,0,0xFF,0x80
10.123128583333333,0,0xFF,0x80
10.124553791666667,0,0xFF,0x80
10.125997708333333,0,0xFF,0x80
10.127422916666667,0,0xFD,0x80
10.128866875000000,0,0xFF,0x80
10.130292041666667,0,0xFE,0x80
10.131736041666667,0,0xFF,0x80
10.133161166666667,0,0xFE,0x80
10.134605208333333,0,0xFF,0x80
10.136030291666666,0,0xFA,0xFC
10.137474333333333,0,0xFC,0x80
10.138899458333333,0,0xF4,0xBF
10.140343458333334,0,0xF8,0xC0
10.141768624999999,0,0xFF,0xFF
10.143212541666667,0,0xFF,0xFF
10.144637666666666,0,0x55,0x00
10.146142749999999,0,0xFF,0x00
10.147567875000000,0,0x01,0x00
10.149011874999999,0,0xFF,0x00
10.150437000000000,0,0x5A,0x00
10.151881041666666,0,0xF5,0x00
10.153306125000000,0,0x40,0x00
10.154750166666666,0,0x80,0x00
10.156175250000000,0,0x00,0x00
10.157619291666666,0,0x00,0x00
10.159044416666667,0,0x00,0x20
10.160488458333333,0,0x00,0x00
10.161913541666667,0,0x00,0x7D
10.163357583333333,0,0x00,0x00
10.164782708333334,0,0xFF,0xFF
10.166226708333333,0,0xFF,0xFF
10.167651791666668,0,0x7F,0x00
10.169095875000000,0,0xFF,0x00
10.170520916666666,0,0xFF,0x00
10.171965000000000,0,0xFF,0x00
10.173390041666666,0,0x9F,0x00
10.174834125000000,0,0x7F,0x00
10.176259166666666,0,0x0B,0x00
10.177703291666667,0,0x07,0x00
10.179128333333333,0,0x47,0x02
10.180572416666667,0,0x01,0x01
10.181997458333333,0,0x01,0x00
10.183441541666667,0,0x00,0x0F
10.184866583333333,0,0x01,0x45
10.186310708333334,0,0x00,0x1F
10.187735750000000,0,0xFF,0xFF
10.189179833333334,0,0xFF,0xFF
10.190604833333333,0,0xFF,0x01
10.192049000000001,0,0xFF,0x01
10.193473958333334,0,0xFF,0x01
10.194918124999999,0,0xFF,0x01
10.196343083333334,0,0xFF,0x01
10.197787249999999,0,0xFF,0x01
10.199212250000000,0,0xFF,0x01
10.200656416666666,0,0xFF,0x01
10.202081375000001,0,0x7F,0xC1
10.203525541666666,0,0xFF,0x01
10.204950500000001,0,0x3F,0x01
10.206394708333333,0,0xFF,0xE1
10.207819625000001,0,0xBF,0x41
10.209263833333333,0,0x5F,0xF1
10.210688791666668,0,0xF8,0xEE
10.212133000000000,0,0xF0,0x90
10.213557958333332,0,0xE8,0x83
10.215002125000000,0,0xF0,0xFC
10.216427083333333,0,0xF0,0xAF
10.217871291666667,0,0xE0,0xC0
10.219296208333333,0,0xF0,0xFA
10.220740458333333,0,0xE0,0x85
10.222165333333333,0,0xFC,0xC5
10.223609541666667,0,0xE0,0xBA
10.225034458333333,0,0xF8,0x8F
10.226478708333334,0,0xFC,0xF0
10.227903625000000,0,0xE4,0xA0
10.229347875000000,0,0xF8,0xC0
10.230772750000000,0,0xF7,0xCB
10.232216958333334,0,0xFC,0xF4
10.233641833333333,0,0x00,0xFE
10.235086083333334,0,0x00,0x00
10.236510958333334,0,0x00,0xFA
10.237955250000001,0,0x00,0x05
10.239380083333334,0,0x00,0xCE
10.240824375000001,0,0x00,0x01
10.242249208333334,0,0x00,0x68
10.243693541666667,0,0x00,0x97
10.245118375000001,0,0x00,0xFE
10.246562666666666,0,0x00,0x01
10.247987500000001,0,0x40,0xAD
10.249431791666666,0,0x00,0x53
10.250856625000001,0,0x00,0x79
10.252300916666666,0,0x00,0x06
10.253725791666668,0,0xC1,0x3A
10.255170083333333,0,0x00,0xC5
10.256594874999999,0,0x01,0x11
10.258039208333333,0,0x00,0x0F
10.259463999999999,0,0x00,0xCF
10.260908375000000,0,0x01,0x11
10.262333125000000,0,0x00,0xB6
10.263777500000000,0,0x00,0x09
10.265202291666666,0,0x41,0xAA
10.266646625000000,0,0x00,0x55
10.268071416666666,0,0x00,0xB0
10.269515791666667,0,0x00,0x4F
10.270940583333333,0,0x85,0xE4
10.272384916666667,0,0x40,0x5F
10.273809708333333,0,0xC1,0xB6
10.275254041666667,0,0x00,0x4F
10.276678791666667,0,0x40,0x84
10.278123208333334,0,0x01,0x7F
10.279547916666667,0,0x9F,0x3D
10.280992333333334,0,0x0F,0xC1
10.282417083333334,0,0x97,0xFD
10.283861458333334,0,0x4F,0xC1
10.285286208333334,0,0xEB,0x69
10.286730625000001,0,0x07,0xC1
10.288155333333334,0,0x4F,0x37
10.289599750000001,0,0x03,0x41
10.291024458333334,0,0x01,0x11
10.292468875000001,0,0x03,0xE7
10.293893583333332,0,0x67,0x39
10.295338041666668,0,0x11,0xC7
10.296762708333333,0,0x19,0x95
10.298207166666666,0,0x01,0x63
10.299631874999999,0,0x0B,0x8D
10.301076291666666,0,0x01,0x71
10.302500999999999,0,0xFA,0xB0
10.303945499999999,0,0xFF,0xC3
10.305370125000000,0,0xFF,0xE5
10.306814583333333,0,0xFF,0xC3
10.308239250000000,0,0xFE,0xCB
10.309683750000000,0,0xFF,0x80
10.311108416666666,0,0xFF,0x84
10.312552875000000,0,0xFF,0xC3
10.313977541666667,0,0xFE,0xC0
10.315422083333333,0,0xFF,0xA0
10.316846666666667,0,0xFF,0xD1
10.318291166666667,0,0xFF,0xEE
10.319715791666667,0,0xBF,0xAF
10.321160291666667,0,0xFF,0xD0
10.322584916666667,0,0xFF,0x86
10.324029458333333,0,0xFF,0x81
10.325454041666667,0,0xC0,0x3B
10.326898583333334,0,0x00,0xC4
10.328323166666667,0,0x10,0x1D
10.329767750000000,0,0xC0,0xE6
10.331192333333334,0,0x02,0x0B
10.332636875000000,0,0xF0,0xC4
10.334061500000001,0,0xF2,0xB3
10.335506000000001,0,0xFC,0x5C
10.336930583333332,0,0xF7,0x59
10.338375125000001,0,0xFC,0x06
10.339799749999999,0,0xFD,0x07
10.341244291666667,0,0xFF,0x1C
10.342668874999999,0,0xFF,0xCC
10.344113416666668,0,0xFF,0x38
10.345537999999999,0,0xFF,0xFA
10.347043625000000,0,0xFF,0x11
10.348468166666667,0,0x02,0xC0
10.349912750000000,0,0x01,0x30
10.351337291666667,0,0x01,0xB5
10.352781875000000,0,0x00,0x40
10.354206416666667,0,0x01,0x1D
10.355651000000000,0,0x00,0xC2
10.357075541666667,0,0x17,0x16
10.358520166666667,0,0x00,0xC1
10.359944708333334,0,0xC9,0x88
10.361389291666667,0,0x30,0x00
10.362813833333334,0,0xF1,0x55
10.364258458333333,0,0xFC,0x00
10.365682958333334,0,0xF8,0x00
10.367127625000000,0,0xFF,0x00
10.368552083333332,0,0xFF,0x00
10.369996750000000,0,0xFF,0x00
10.371421208333333,0,0x83,0x01
10.372865875000000,0,0x01,0x01
10.374290333333333,0,0x45,0xDF
10.375735000000001,0,0x83,0x01
10.377159458333333,0,0xC5,0x19
10.378604125000001,0,0x03,0x01
10.380028583333333,0,0x13,0x1F
10.381473291666667,0,0xCF,0x01
10.382897708333333,0,0x33,0x1D
10.384342416666666,0,0xCF,0x01
10.385766875000000,0,0x1F,0xDB
10.387211583333332,0,0xFF,0x25
10.388636000000000,0,0x3D,0x1F
10.390080708333333,0,0xFF,0x01
10.391505125000000,0,0xFF,0x6D
10.392949833333333,0,0xFF,0x11
10.394374250000000,0,0xFF,0x89
10.395818999999999,0,0xFF,0x86
10.397243416666667,0,0xFF,0xF5
10.398688125000000,0,0xFF,0x9F
10.400112541666667,0,0xFF,0x80
10.401557291666666,0,0xFF,0xFF
10.402981666666667,0,0xFF,0xFF
10.404426416666666,0,0xFF,0xFF
10.405850791666667,0,0x00,0x00
10.407295541666667,0,0x00,0x00
10.408719916666668,0,0x00,0x00
10.410164708333333,0,0x00,0x00
10.411589041666666,0,0x00,0x00
10.413033833333333,0,0x00,0x00
10.414458208333333,0,0x00,0x00
10.415903000000000,0,0x00,0x00
10.417327374999999,0,0xFF,0x8A
10.418772125000000,0,0xFF,0x67
10.420196458333333,0,0xFF,0x1F
10.421641250000000,0,0xFF,0xFF
10.423065583333333,0,0xFF,0x3E
10.424510416666667,0,0xFF,0xFF
10.425934708333333,0,0xFF,0xFF
10.427379541666667,0,0xFF,0xFF
10.428803833333333,0,0x00,0x00
10.430248666666667,0,0x00,0x00
10.431673000000000,0,0x00,0x00
10.433117833333334,0,0x00,0x00
10.434542125000000,0,0x00,0x00
10.435986958333332,0,0x00,0x00
10.437411250000000,0,0x00,0x00
10.438856083333333,0,0x00,0x00
10.440280416666667,0,0xFF,0x00
10.441725249999999,0,0xFF,0x00
10.443149541666667,0,0xFF,0xE1
10.444594374999999,0,0xFF,0x00
10.446018625000001,0,0xFF,0x22
10.447524583333333,0,0xFF,0xC1
10.448948833333333,0,0xFF,0xFF
10.450393708333333,0,0xFF,0xFF
10.451817916666666,0,0x00,0x00
10.453262833333334,0,0x00,0x00
10.454687083333333,0,0x00,0x00
10.456132000000000,0,0x00,0x00
10.457556208333333,0,0x00,0x00
10.459001125000000,0,0x00,0x00
10.460425333333333,0,0x00,0x00
10.461870291666667,0,0x00,0x00
10.463294500000000,0,0xFF,0x1D
10.464739416666667,0,0xFF,0x63
10.466163583333334,0,0xFF,0x29
10.467608541666667,0,0xFF,0xD7
10.469032708333334,0,0xFF,0x11
10.470477708333334,0,0xFF,0xEF
10.471901875000000,0,0xFF,0xFF
10.473346833333334,0,0xFF,0xFF
10.474771000000000,0,0x00,0x00
10.476215958333333,0,0x00,0x00
10.477640125000001,0,0x00,0x00
10.479085124999999,0,0x00,0x00
10.480509250000001,0,0x00,0x00
10.481954249999999,0,0x00,0x00
10.483378416666667,0,0x00,0x00
10.484823375000000,0,0x00,0x00
10.486247583333334,0,0xFF,0xFF
10.487692541666666,0,0xFF,0xFF
10.489116666666666,0,0xFF,0x80
10.490561666666666,0,0xFF,0x80
10.491985791666666,0,0xBB,0x80
10.493430833333333,0,0xFF,0x80
10.494854958333333,0,0xFD,0x80
10.496299958333333,0,0xFF,0x80
10.497724083333333,0,0xF7,0x80
10.499169083333333,0,0xFF,0x80
10.500593208333333,0,0xFF,0x80
10.502038250000000,0,0xFF,0x80
10.503462333333333,0,0xFD,0xC0
10.504907375000000,0,0xFF,0x80
10.506331458333333,0,0xD7,0x9E
10.507776500000000,0,0xFF,0xC1
10.509200583333334,0,0xFF,0xFF
10.510645666666667,0,0xFF,0xFF
10.512069708333334,0,0xFF,0x00
10.513514791666667,0,0xFF,0x00
10.514938833333334,0,0xA9,0x00
10.516383916666667,0,0xFF,0x00
10.517808000000000,0,0xFF,0x00
10.519253083333334,0,0xFF,0x00
10.520677125000001,0,0x98,0x00
10.522122250000001,0,0xFF,0x00
10.523546250000001,0,0x77,0x40
10.524991375000001,0,0xFD,0x00
10.526415374999999,0,0x20,0x78
10.527860499999999,0,0xFD,0x00
10.529284541666666,0,0xD5,0xBB
10.530729624999999,0,0xF9,0x44
10.532153666666666,0,0xFF,0xFF
10.533598791666666,0,0xFF,0xFF
10.535022750000000,0,0x77,0x00
10.536467916666666,0,0xFF,0x00
10.537891916666666,0,0x30,0x00
10.539337083333333,0,0xFF,0x00
10.540761041666666,0,0x55,0x00
10.542206208333333,0,0xFF,0x00
10.543630166666667,0,0xAA,0x00
10.545075375000000,0,0xF7,0x00
10.546499291666667,0,0x75,0x04
10.548005541666667,0,0xFF,0x00
10.549429458333334,0,0x09,0x00
10.550874666666667,0,0xFF,0x00
10.552298625000001,0,0x55,0xD5
10.553743791666667,0,0xFF,0x00
10.555167750000001,0,0xFF,0xFF
10.556612958333334,0,0xFF,0xFF
10.558036875000001,0,0xFF,0x01
10.559482083333334,0,0xFF,0x01
10.560905999999999,0,0xB3,0x01
10.562351208333334,0,0xFF,0x01
10.563775124999999,0,0xFD,0x01
10.565220375000001,0,0xFF,0x01
10.566644250000000,0,0x45,0x01
10.568089499999999,0,0xFF,0x01
10.569513375000000,0,0xDF,0x01
10.570958624999999,0,0xFF,0x01
10.572382541666666,0,0xFB,0x01
10.573827791666666,0,0xFF,0x01
10.575251666666666,0,0xDF,0x55
10.576696916666666,0,0xFF,0x01
10.578120791666667,0,0xBD,0xDF
10.579566083333333,0,0xFF,0x80
10.580989958333333,0,0xFF,0xFF
10.582435208333333,0,0xFF,0x80
10.583859083333333,0,0xB2,0xFD
10.585304375000000,0,0xFF,0x80
10.586728208333334,0,0xD5,0xDF
10.588173500000000,0,0xFF,0x80
10.589597333333334,0,0xA8,0x82
10.591042708333333,0,0xFF,0x80
10.592466458333334,0,0xD5,0xC5
10.593911791666667,0,0xFE,0x80
10.595335625000001,0,0xC0,0x85
10.596780916666667,0,0xFE,0x80
10.598204750000001,0,0xD6,0xFF
10.599650083333334,0,0xFC,0x80
10.601073875000001,0,0x71,0xFF
10.602519208333334,0,0xF8,0x00
10.603942999999999,0,0x59,0xF6
10.605388333333334,0,0xF4,0x41
10.606812124999999,0,0x13,0xFF
10.608257458333334,0,0xE0,0x00
10.609681250000000,0,0x10,0xA2
10.611126625000001,0,0x80,0x5D
10.612550375000000,0,0x03,0x3E
10.613995750000001,0,0x00,0x01
10.615419500000000,0,0x00,0x63
10.616864874999999,0,0x01,0x1C
10.618288625000000,0,0x00,0x0E
10.619734041666666,0,0x00,0xF1
10.621157791666667,0,0x45,0x75
10.622603166666666,0,0x00,0x0F
10.624026916666667,0,0x9B,0xCC
10.625472291666666,0,0x7F,0x00
10.626896041666667,0,0x95,0xFF
10.628341458333333,0,0x7F,0x00
10.629765208333334,0,0x8C,0xDC
10.631210583333333,0,0x7F,0x20
10.632634333333334,0,0xF7,0x97
10.634079708333333,0,0x7F,0x60
10.635503416666667,0,0x04,0x19
10.636948875000000,0,0xFF,0xE6
10.638372583333334,0,0x57,0x0B
10.639818000000000,0,0xFF,0xF4
10.641241708333334,0,0x89,0xC0
10.642687125000000,0,0x77,0x30
10.644110833333333,0,0x9D,0x8E
10.645556291666667,0,0x67,0x71
10.646979958333333,0,0x6D,0x13
10.648486458333334,0,0xFF,0x01
10.649910125000000,0,0xFD,0x5F
10.651355625000001,0,0xFF,0x01
10.652779291666667,0,0xA7,0xE1
10.654224749999999,0,0xFF,0x01
10.655648416666667,0,0xD5,0xF7
10.657093916666666,0,0xFF,0x01
10.658517541666667,0,0x01,0xDB
10.659963041666666,0,0xFF,0x01
10.661386666666667,0,0x77,0x5D
10.662832166666666,0,0xFF,0x01
10.664255791666667,0,0x01,0x07
10.665701333333333,0,0xFF,0x01
10.667124916666667,0,0x5D,0x97
10.668570458333333,0,0xFF,0x01
10.669994083333334,0,0x82,0xA0
10.671439666666666,0,0xFC,0x80
10.672863250000001,0,0xD7,0xC1
10.674308750000000,0,0xFC,0x80
10.675732375000001,0,0x81,0xC0
10.677177875000000,0,0xFC,0x80
10.678601499999999,0,0xC2,0xC1
10.680047041666667,0,0xFD,0x80
10.681470624999999,0,0x83,0xDF
10.682916166666667,0,0xFC,0x80
10.684339791666666,0,0x88,0xE8
10.685785375000000,0,0xF7,0x97
10.687208875000000,0,0xF0,0xBC
10.688654500000000,0,0x80,0x83
10.690078000000000,0,0xD2,0x82
10.691523666666667,0,0x84,0x85
10.692947125000000,0,0x34,0xF8
10.694392708333334,0,0x42,0x07
10.695816250000000,0,0x74,0x74
10.697261875000001,0,0xC9,0x0F
10.698685375000000,0,0x09,0x70
10.700131000000001,0,0xF0,0x0F
10.701554541666667,0,0x13,0xEF
10.703000125000001,0,0xF0,0x11
10.704423666666667,0,0x53,0x88
10.705869291666666,0,0xA0,0x77
10.707292791666667,0,0x80,0x89
10.708738416666666,0,0x73,0x77
10.710161916666667,0,0x51,0x08
10.711607541666666,0,0x20,0xF7
10.713031041666667,0,0x51,0x90
10.714476708333333,0,0x20,0x7F
10.715900166666666,0,0x96,0x08
10.717345874999999,0,0x61,0xF0
10.718769333333332,0,0x80,0x10
10.720215000000000,0,0x71,0xE0
10.721638458333333,0,0x92,0x06
10.723084125000000,0,0x61,0xF8
10.724507583333333,0,0xCC,0x55
10.725953250000000,0,0x73,0xFC
10.727376708333333,0,0x94,0x64
10.728822416666667,0,0x63,0xFA
10.730245833333333,0,0xD4,0x11
10.731691541666667,0,0x61,0xFE
10.733114958333333,0,0x5C,0xE4
10.734560708333333,0,0x20,0x19
10.735984125000000,0,0x52,0xB0
10.737429833333334,0,0xFD,0x40
10.738853250000000,0,0x83,0xFF
10.740298958333334,0,0xFF,0x01
10.741722375000000,0,0xD5,0xBF
10.743168125000000,0,0xFF,0x41
10.744591500000000,0,0x01,0x71
10.746037250000001,0,0xFF,0x01
10.747460625000000,0,0xD5,0x35
10.748967416666666,0,0x7F,0x41
10.750390791666666,0,0x81,0x05
10.751836541666666,0,0x3F,0x03
10.753259916666666,0,0x37,0x47
10.754705708333333,0,0xDF,0x01
10.756129083333333,0,0xAB,0x81
10.757574833333333,0,0xDF,0x01
10.758998208333333,0,0x1F,0x17
10.760444000000000,0,0xFF,0x01
10.761867333333333,0,0xA2,0x87
10.763313166666666,0,0x80,0x80
10.764736500000000,0,0xFF,0xD2
10.766182291666667,0,0x80,0x85
10.767605625000000,0,0xFE,0x87
10.769051458333333,0,0x81,0x80
10.770474750000000,0,0xFF,0xFF
10.771920541666667,0,0xFF,0xFF
10.773343833333334,0,0x00,0x00
10.774789708333333,0,0x00,0x00
10.776213000000000,0,0x00,0x00
10.777658833333334,0,0x00,0x00
10.779082125000000,0,0x00,0x00
10.780527958333334,0,0x00,0x00
10.781951250000001,0,0x00,0x00
10.783397125000000,0,0x00,0x00
10.784820416666667,0,0x40,0x82
10.786266250000001,0,0x20,0x7D
10.787689541666667,0,0x80,0x80
10.789135416666667,0,0x71,0x5F
10.790558666666668,0,0x10,0xB0
10.792004541666667,0,0xE1,0x4F
10.793427791666666,0,0xFF,0xFF
10.794873666666666,0,0xFF,0xFF
10.796296916666666,0,0x00,0x00
10.797742833333333,0,0x00,0x00
10.799166041666666,0,0x00,0x00
10.800611958333333,0,0x00,0x00
10.802035166666666,0,0x00,0x00
10.803481083333333,0,0x00,0x00
10.804904333333333,0,0x00,0x00
10.806350249999999,0,0x00,0x00
10.807773458333333,0,0x00,0x90
10.809219416666666,0,0xFF,0x60
10.810642583333333,0,0x55,0x89
10.812088500000000,0,0xFF,0x70
10.813511708333333,0,0x00,0x9D
10.814957666666666,0,0xFF,0x62
10.816380875000000,0,0xFF,0xFF
10.817826791666667,0,0xFF,0xFF
10.819249958333334,0,0x00,0x00
10.820695958333333,0,0x00,0x00
10.822119125000000,0,0x00,0x00
10.823565083333333,0,0x00,0x00
10.824988250000001,0,0x00,0x00
10.826434208333334,0,0x00,0x00
10.827857375000001,0,0x00,0x00
10.829303375000000,0,0x00,0x00
10.830726500000001,0,0x41,0x3F
10.832172500000000,0,0xFF,0x01
10.833595624999999,0,0xF5,0x8B
10.835041625000001,0,0xFF,0x75
10.836464749999999,0,0x09,0xF5
10.837910791666667,0,0xFF,0x0B
10.839333916666666,0,0xFF,0xFF
10.840779916666667,0,0xFF,0xFF
10.842203000000000,0,0x00,0x00
10.843649083333334,0,0x00,0x00
10.845072166666666,0,0x00,0x00
10.846518208333332,0,0x00,0x00
10.847941291666666,0,0x00,0x00
10.849448375000000,0,0x00,0x00
10.850871458333334,0,0x00,0x00
10.852317541666666,0,0x00,0x00
10.853740666666667,0,0xFF,0xFF
10.855186666666667,0,0xFF,0xFF
10.856609750000001,0,0xFD,0x88
10.858055833333333,0,0xFF,0xF7
10.859478875000001,0,0xC6,0xA4
10.860925000000000,0,0xB9,0xFB
10.862348000000001,0,0xE2,0xB2
10.863794125000000,0,0x9D,0xDD
10.865217124999999,0,0xE3,0xD4
10.866663250000000,0,0x90,0xAB
10.868086291666666,0,0xE3,0x84
10.869532375000000,0,0x94,0xFF
10.870955416666666,0,0xBF,0xB3
10.872401500000000,0,0x80,0xCC
10.873824583333333,0,0x85,0xA1
10.875270666666667,0,0xB2,0xDF
10.876693666666666,0,0xFF,0xFF
10.878139791666667,0,0xFF,0xFF
10.879562791666666,0,0xCD,0x2A
10.881008916666667,0,0x12,0xD5
10.882431916666667,0,0xDF,0x40
10.883878083333334,0,0x00,0xBF
10.885301041666667,0,0x04,0x29
10.886747250000001,0,0xD1,0xF7
10.888170166666667,0,0xB3,0x0E
10.889616333333333,0,0x00,0xF1
10.891039291666667,0,0x8F,0x02
10.892485499999999,0,0x74,0xFD
10.893908458333334,0,0x38,0xD2
10.895354625000000,0,0x07,0x2D
10.896777583333334,0,0x73,0x4A
10.898223750000000,0,0x0C,0xF5
10.899646750000000,0,0xFF,0xFF
10.901092916666666,0,0xFF,0xFF
10.902515833333334,0,0xE0,0x77
10.903962041666666,0,0x13,0xD8
10.905385000000001,0,0xFA,0x0F
10.906831208333333,0,0x05,0xF0
10.908254124999999,0,0x1E,0x4E
10.909700333333333,0,0x01,0xF1
10.911123249999999,0,0x63,0x1F
10.912569458333333,0,0x04,0xE0
10.913992416666666,0,0xBC,0x5B
10.915438625000000,0,0x40,0xE4
10.916861541666666,0,0xB8,0x3F
10.918307750000000,0,0x40,0xC0
10.919730666666666,0,0xA3,0xA0
10.921176875000000,0,0x5C,0x5F
10.922599791666666,0,0xFF,0xFF
10.924046041666667,0,0xFF,0xFF
10.925468916666667,0,0xAB,0xF9
10.926915166666667,0,0x55,0x17
10.928338041666667,0,0xAF,0xCF
10.929784291666667,0,0x11,0x31
10.931207166666667,0,0x57,0xB3
10.932653458333334,0,0x09,0x4D
10.934076291666667,0,0xAB,0xFB
10.935522583333332,0,0x45,0x05
10.936945416666667,0,0xCB,0xA5
10.938391708333333,0,0x05,0x5F
10.939814541666667,0,0x5B,0x01
10.941260874999999,0,0x05,0xFF
10.942683666666667,0,0x3D,0x01
10.944129999999999,0,0x43,0xFF
10.945552833333334,0,0x9C,0xBF
10.946999166666666,0,0xA2,0xC0
10.948422000000001,0,0x8D,0xBD
10.949929333333333,0,0xF2,0xC0
10.951352166666666,0,0x86,0xF0
10.952798541666667,0,0xE8,0x80
10.954221333333333,0,0x98,0xB4
10.955667666666667,0,0xC4,0xC0
10.957090458333333,0,0xBF,0xE0
10.958536791666667,0,0x80,0x80
10.959959583333333,0,0xEE,0x8B
10.961405916666667,0,0x91,0xF4
10.962828666666667,0,0xFD,0x81
10.964275041666667,0,0x80,0xFE
10.965697833333333,0,0xA4,0x82
10.967144250000000,0,0xDB,0xFD
10.968566916666667,0,0x2E,0xFE
10.970013333333334,0,0x51,0x01
10.971436041666667,0,0x9B,0x55
10.972882458333334,0,0x64,0x00
10.974305208333334,0,0x1C,0x60
10.975751624999999,0,0x20,0x00
10.977174333333334,0,0x9E,0x41
10.978620749999999,0,0x60,0x00
10.980043458333334,0,0x3E,0x00
10.981489916666666,0,0xC0,0x00
10.982912625000001,0,0x97,0xD4
10.984359000000000,0,0x60,0x00
10.985781749999999,0,0xB2,0xFF
10.987228166666666,0,0x08,0x00
10.988650916666666,0,0xD9,0xBE
10.990097291666666,0,0x26,0x41
10.991519958333333,0,0xFA,0x07
10.992966458333333,0,0x04,0xF8
10.994389125000000,0,0xCB,0x5A
10.995835583333333,0,0x14,0x05
10.997258250000000,0,0x38,0x10
10.998704750000000,0,0x06,0x00
11.000127375000000,0,0x1C,0x57
11.001573875000000,0,0x03,0x00
11.002996500000000,0,0x39,0x40
11.004443000000000,0,0x06,0x00
11.005865666666667,0,0x31,0x00
11.007312125000000,0,0x0E,0x00
11.008734833333333,0,0xBD,0xFF
11.010181291666667,0,0x02,0x00
11.011603958333334,0,0x8F,0xA0
11.013050416666667,0,0x74,0x5F
11.014473083333334,0,0x97,0xFD
11.015919541666667,0,0x49,0x03
11.017342166666667,0,0xBD,0x11
11.018788708333334,0,0x01,0xFF
11.020211291666667,0,0x1D,0xF9
11.021657833333334,0,0x01,0x07
11.023080416666666,0,0x09,0xD9
11.024527000000001,0,0x95,0x07
11.025949541666666,0,0x95,0x05
11.027396124999999,0,0x01,0x03
11.028818708333333,0,0x71,0x15
11.030265249999999,0,0x09,0x03
11.031687833333333,0,0x4D,0xC1
11.033134416666666,0,0x23,0x03
11.034556958333333,0,0xAB,0x05
11.036003541666666,0,0x05,0xFF
11.037426083333333,0,0xEE,0xBF
11.038872708333333,0,0x90,0xC0
11.040295291666666,0,0xE7,0x85
11.041741833333333,0,0xD8,0x80
11.043164416666666,0,0xB5,0xFE
11.044611000000000,0,0xC2,0x80
11.046033541666667,0,0x93,0xAB
11.047480125000000,0,0xE4,0xD4
11.048902666666667,0,0x8B,0x80
11.050349250000000,0,0xE4,0x80
11.051771791666667,0,0xD9,0xC0
11.053218416666667,0,0xE4,0x80
11.054640916666667,0,0x9B,0x80
11.056087541666667,0,0xE0,0x80
11.057510083333334,0,0x80,0x80
11.058956750000000,0,0xDF,0x80
11.060379166666667,0,0x77,0xFF
11.061825791666667,0,0x08,0x00
11.063248291666667,0,0x21,0x7F
11.064694958333334,0,0x5E,0x00
11.066117416666666,0,0x5D,0x00
11.067564083333334,0,0x02,0x00
11.068986583333333,0,0xB7,0xFF
11.070433208333334,0,0x04,0x00
11.071855666666666,0,0x5A,0x77
11.073302416666667,0,0xA4,0x00
11.074724833333333,0,0x74,0x00
11.076171541666668,0,0x80,0x00
11.077593958333333,0,0x77,0x00
11.079040666666666,0,0x80,0x00
11.080463083333333,0,0x6E,0x00
11.081909833333333,0,0xD1,0x00
11.083332208333333,0,0x63,0xFC
11.084778958333333,0,0x9C,0x03
11.086201375000000,0,0x8B,0xAA
11.087648083333333,0,0x74,0x55
11.089070458333333,0,0x3C,0x03
11.090517250000000,0,0xC0,0x00
11.091939625000000,0,0x05,0xFA
11.093386333333333,0,0x72,0x05
11.094808750000000,0,0x31,0xFF
11.096255500000000,0,0x02,0x00
11.097677875000000,0,0xE3,0x05
11.099124625000000,0,0x04,0x00
11.100547000000001,0,0x2A,0x03
11.101993791666667,0,0x85,0x00
11.103416125000001,0,0x8F,0x15
11.104862916666667,0,0x70,0x00
11.106285250000001,0,0x3F,0x01
11.107732041666667,0,0x01,0xFF
11.109154374999999,0,0x33,0x35
11.110601208333334,0,0x05,0xDF
11.112023541666666,0,0x7B,0xFD
11.113470333333334,0,0x01,0x03
11.114892666666666,0,0x03,0xA1
11.116339500000000,0,0xD1,0x5F
11.117761791666666,0,0xF1,0xC1
11.119208625000001,0,0x03,0x3F
11.120630916666666,0,0x91,0xFB
11.122077750000001,0,0x47,0x05
11.123500041666667,0,0x51,0xFF
11.124946916666667,0,0xAD,0x01
11.126369166666667,0,0x47,0xFB
11.127816041666666,0,0xB9,0x05
11.129238333333333,0,0xB0,0x80
11.130685250000001,0,0x8F,0x80
11.132107458333333,0,0xA1,0x80
11.133554333333333,0,0x97,0x80
11.134976583333334,0,0xA4,0x80
11.136423541666666,0,0x83,0x80
11.137845750000000,0,0xFF,0xFF
11.139292625000000,0,0xFF,0xFF
11.140714833333334,0,0x00,0x00
11.142161750000000,0,0x00,0x00
11.143584000000001,0,0x00,0x00
11.145030875000000,0,0x00,0x00
11.146453125000001,0,0x00,0x00
11.147900041666666,0,0x00,0x00
11.149322250000001,0,0x00,0x00
11.150830208333334,0,0x00,0x00
11.152252416666666,0,0x5C,0x00
11.153699375000000,0,0x81,0x00
11.155121541666666,0,0x26,0x00
11.156568500000001,0,0xD9,0x00
11.157990666666667,0,0x78,0x00
11.159437666666667,0,0x81,0x00
11.160859833333333,0,0xFF,0xFF
11.162306791666667,0,0xFF,0xFF
11.163728916666667,0,0x00,0x00
11.165175916666668,0,0x00,0x00
11.166598083333334,0,0x00,0x00
11.168045041666666,0,0x00,0x00
11.169467208333334,0,0x00,0x00
11.170914208333333,0,0x00,0x00
11.172336333333334,0,0x00,0x00
11.173783333333333,0,0x00,0x00
11.175205500000001,0,0xFA,0x00
11.176652458333333,0,0x04,0x00
11.178074625000001,0,0x58,0x00
11.179521625000000,0,0xC4,0x00
11.180943750000001,0,0xB9,0x00
11.182390750000000,0,0x40,0x00
11.183812916666668,0,0xFF,0xFF
11.185259916666666,0,0xFF,0xFF
11.186681999999999,0,0x00,0x00
11.188129041666667,0,0x00,0x00
11.189551124999999,0,0x00,0x00
11.190998166666667,0,0x00,0x00
11.192420250000000,0,0x00,0x00
11.193867333333333,0,0x00,0x00
11.195289416666666,0,0x00,0x00
11.196736458333334,0,0x00,0x00
11.198158541666666,0,0x0D,0x01
11.199605583333334,0,0xF1,0x01
11.201027666666667,0,0x4D,0x01
11.202474750000000,0,0xF1,0x01
11.203896791666667,0,0x3F,0x01
11.205343875000001,0,0xC1,0x01
11.206765916666667,0,0xFF,0xFF
11.208213041666667,0,0xFF,0xFF
11.209635041666667,0,0x00,0x00
11.211082166666667,0,0x00,0x00
11.212504208333334,0,0x00,0x00
11.213951291666667,0,0x00,0x00
11.215373333333334,0,0x00,0x00
11.216820458333334,0,0x00,0x00
11.218242458333334,0,0x00,0x00
11.219689583333333,0,0x00,0x00
11.221111625000001,0,0xFF,0xFF
11.222558708333333,0,0xFF,0xFF
11.223980708333333,0,0xD5,0xFF
11.225427874999999,0,0xFF,0xFF
11.226849874999999,0,0x80,0xFF
11.228297041666666,0,0xFF,0xFF
11.229718999999999,0,0xD4,0xFC
11.231166208333333,0,0xFF,0xFF
11.232588124999999,0,0x81,0xFA
11.234035291666666,0,0xFE,0xFC
11.235457291666666,0,0xC1,0xF7
11.236904416666667,0,0xFE,0xF8
11.238326416666666,0,0x87,0xFA
11.239773583333333,0,0xF8,0xF0
11.241195541666666,0,0xC3,0xE4
11.242642708333333,0,0xFC,0xF0
11.244064708333333,0,0xFF,0xFF
11.245511833333333,0,0xFF,0xFF
11.246933791666667,0,0x40,0xC9
11.248381000000000,0,0xFF,0xF7
11.249802916666667,0,0x10,0x22
11.251311208333334,0,0xEF,0xC1
11.252733083333334,0,0xF9,0xC4
11.254180291666666,0,0x00,0x00
11.255602250000001,0,0xFF,0x03
11.257049458333332,0,0x00,0x00
11.258471333333333,0,0x51,0x75
11.259918583333333,0,0x84,0x03
11.261340499999999,0,0xDA,0xC0
11.262787749999999,0,0x05,0x3F
11.264209583333333,0,0x0B,0x17
11.265656874999999,0,0x34,0x7F
11.267078791666666,0,0xFF,0xFF
11.268526000000000,0,0xFF,0xFF
11.269947875000000,0,0x85,0x1F
11.271395125000000,0,0x7F,0xFF
11.272817000000000,0,0x40,0x61
11.274264333333333,0,0xBF,0x9F
11.275686125000000,0,0x41,0x77
11.277133416666667,0,0xBF,0x19
11.278555250000000,0,0xF0,0x46
11.280002583333333,0,0x0F,0xB9
11.281424375000000,0,0x2D,0x57
11.282871708333333,0,0xD7,0xFC
11.284293541666667,0,0xA8,0x2D
11.285740875000000,0,0x17,0xC0
11.287162666666667,0,0x30,0x04
11.288610000000000,0,0x4F,0xC0
11.290031833333334,0,0xFF,0xFF
11.291479125000000,0,0xFF,0xFF
11.292900916666667,0,0xDF,0xFF
11.294348291666667,0,0xFF,0xFF
11.295770041666668,0,0x03,0xFF
11.297217416666667,0,0xFF,0xFF
11.298639208333332,0,0x15,0xFF
11.300086541666667,0,0xFF,0xFF
11.301508333333333,0,0x41,0x7F
11.302955708333334,0,0xBF,0xFF
11.304377458333333,0,0xB3,0xBF
11.305824833333334,0,0x5D,0x7F
11.307246583333333,0,0x49,0x1F
11.308693958333333,0,0xB1,0x3F
11.310115708333333,0,0xA9,0x3F
11.311563083333333,0,0x51,0x1F
11.312984875000000,0,0x87,0xF0
11.314432249999999,0,0xF8,0xE0
11.315854041666666,0,0x83,0xD9
11.317301416666666,0,0xFC,0xE0
11.318723166666667,0,0x8F,0xDF
11.320170541666666,0,0xF0,0xE0
11.321592291666667,0,0xCB,0xE2
11.323039666666666,0,0xF4,0xD5
11.324461416666667,0,0xBD,0xF8
11.325908833333333,0,0xC2,0xC7
11.327330541666667,0,0xC5,0xFD
11.328777958333333,0,0xFE,0xC7
11.330199666666667,0,0xA3,0xE0
11.331647125000000,0,0xDC,0xCF
11.333068791666667,0,0xD0,0xF8
11.334516291666667,0,0xEF,0xC7
11.335937916666667,0,0xB6,0x82
11.337385375000000,0,0x08,0x7F
11.338807041666668,0,0x2B,0xD1
11.340254500000000,0,0x14,0x7F
11.341676166666666,0,0x31,0xC3
11.343123666666667,0,0x0C,0x3C
11.344545333333333,0,0x53,0xA7
11.345992791666667,0,0x84,0x5C
11.347414499999999,0,0xB7,0xE2
11.348861916666667,0,0x00,0x1C
11.350283583333333,0,0x7F,0x63
11.351792124999999,0,0x80,0xDC
11.353213791666667,0,0xD0,0x01
11.354661249999999,0,0x09,0xFE
11.356082875000000,0,0xD9,0x27
11.357530375000000,0,0x67,0xDC
11.358952000000000,0,0x7D,0x3E
11.360399541666666,0,0x02,0xC0
11.361821166666667,0,0x62,0x76
11.363268708333333,0,0x1D,0x80
11.364690291666667,0,0x72,0x00
11.366137833333333,0,0x8C,0x00
11.367559416666667,0,0x8F,0x40
11.369006958333333,0,0x54,0x00
11.370428583333334,0,0xF0,0x00
11.371876125000000,0,0x1C,0x00
11.373297708333334,0,0xE3,0x00
11.374745250000000,0,0x5C,0x00
11.376166833333333,0,0xC5,0x00
11.377614375000000,0,0x38,0x00
11.379035958333333,0,0x87,0x40
11.380483500000000,0,0x78,0x00
11.381905083333333,0,0xE9,0x0F
11.383352666666667,0,0x11,0x1F
11.384774208333333,0,0xDD,0x0F
11.386221791666667,0,0x01,0x1F
11.387643333333333,0,0x79,0x07
11.389090958333334,0,0x01,0x0F
11.390512458333333,0,0x99,0x07
11.391960083333334,0,0x07,0x0F
11.393381583333333,0,0x49,0x0F
11.394829208333332,0,0x07,0x07
11.396250708333334,0,0x51,0x0F
11.397698374999999,0,0x07,0x07
11.399119833333334,0,0xE5,0x0F
11.400567499999999,0,0x03,0x07
11.401989000000000,0,0x51,0x0F
11.403436624999999,0,0x07,0x07
11.404858125000001,0,0xD4,0xED
11.406305833333333,0,0xAB,0xC2
11.407727291666667,0,0xDD,0xC2
11.409174958333333,0,0xFF,0xF5
11.410596375000001,0,0x91,0xDF
11.412044083333333,0,0xEE,0xE0
11.413465583333334,0,0xCA,0xEE
11.414913291666666,0,0xF5,0xF1
11.416334666666666,0,0x9B,0xE5
11.417782333333333,0,0xE4,0xF8
11.419203833333333,0,0xEA,0xF2
11.420651541666667,0,0xF5,0xFD
11.422072916666666,0,0xCB,0xF0
11.423520625000000,0,0xF4,0xFF
11.424942083333333,0,0xD3,0xFC
11.426389791666667,0,0xFC,0xFF
11.427811166666666,0,0x58,0x72
11.429258958333333,0,0xA7,0x8C
11.430680333333333,0,0x54,0xD2
11.432128083333334,0,0xFF,0x0D
11.433549458333333,0,0x18,0x9F
11.434997208333334,0,0xE7,0x00
11.436418583333333,0,0xFF,0xBA
11.437866333333334,0,0x00,0x45
11.439287750000000,0,0xDA,0xB4
11.440735458333334,0,0x01,0x0B
11.442156833333334,0,0x57,0xE2
11.443604583333334,0,0x00,0x1D
11.445025958333334,0,0x6E,0xF7
11.446473749999999,0,0x00,0x08
11.447895125000001,0,0x1F,0xA9
11.449342874999999,0,0x00,0x54
11.450764250000001,0,0x03,0x00
11.452273083333333,0,0xFC,0x00
11.453694458333333,0,0x91,0x00
11.455142208333333,0,0x7C,0xC0
11.456563541666666,0,0x40,0xB0
11.458011375000000,0,0xBE,0x40
11.459432708333333,0,0x87,0x80
11.460880500000000,0,0x7C,0x70
11.462301875000000,0,0xD7,0xF0
11.463749625000000,0,0x08,0x00
11.465170958333333,0,0x51,0xE0
11.466618750000000,0,0x06,0x00
11.468040083333333,0,0xCA,0x50
11.469487916666667,0,0x01,0x00
11.470909208333333,0,0xD0,0x00
11.472357083333334,0,0x07,0xC0
11.473778333333334,0,0xE1,0x0F
11.475226208333334,0,0x07,0x07
11.476647458333334,0,0x5B,0x07
11.478095333333334,0,0x05,0x0F
11.479516583333334,0,0x2B,0x07
11.480964458333334,0,0x05,0x0F
11.482385708333334,0,0xF5,0x1F
11.483833625000001,0,0x0F,0x0F
11.485254833333334,0,0x51,0x0F
11.486702749999999,0,0x0F,0x1F
11.488123999999999,0,0x65,0x3F
11.489571916666666,0,0x9F,0x1F
11.490993124999999,0,0xF3,0x1F
11.492441041666666,0,0x0F,0x3F
11.493862249999999,0,0x85,0x7F
11.495310166666666,0,0x7F,0x7F
11.496731416666666,0,0x81,0xFD
11.498179333333333,0,0xFE,0xFE
11.499600583333333,0,0xD5,0xFF
11.501048458333333,0,0xFE,0xFF
11.502469666666666,0,0x81,0xFF
11.503917625000000,0,0xFE,0xFF
11.505338833333333,0,0xFF,0xFF
11.506786750000000,0,0xFF,0xFF
11.508207916666667,0,0x00,0x00
11.509655875000000,0,0x00,0x00
11.511077041666667,0,0x00,0x00
11.512525041666667,0,0x00,0x00
11.513946208333333,0,0x00,0x00
11.515394166666667,0,0x00,0x00
11.516815333333334,0,0x00,0x00
11.518263291666667,0,0x00,0x00
11.519684458333334,0,0x4F,0xBC
11.521132416666667,0,0x00,0x40
11.522553625000000,0,0x85,0x7C
11.524001583333334,0,0x00,0x00
11.525422750000001,0,0x80,0xB0
11.526870750000000,0,0x00,0xC0
11.528291875000001,0,0xFF,0xFF
11.529739875000001,0,0xFF,0xFF
11.531160958333333,0,0x00,0x00
11.532609000000001,0,0x00,0x00
11.534030124999999,0,0x00,0x00
11.535478166666667,0,0x00,0x00
11.536899249999999,0,0x00,0x00
11.538347291666666,0,0x00,0x00
11.539768375000000,0,0x00,0x00
11.541216416666666,0,0x00,0x00
11.542637541666666,0,0x08,0x80
11.544085583333333,0,0x01,0x00
11.545506625000000,0,0x37,0x07
11.546954708333333,0,0x00,0x01
11.548375750000000,0,0x0F,0x0B
11.549823833333333,0,0x00,0x07
11.551244916666667,0,0xFF,0xFF
11.552754041666667,0,0xFF,0xFF
11.554175083333334,0,0x00,0x00
11.555623166666667,0,0x00,0x00
11.557044208333334,0,0x00,0x00
11.558492333333334,0,0x00,0x00
11.559913333333334,0,0x00,0x00
11.561361458333334,0,0x00,0x00
11.562782458333333,0,0x00,0x00
11.564230583333334,0,0x00,0x00
11.565651624999999,0,0x61,0x7F
11.567099750000001,0,0x9F,0xFF
11.568520749999999,0,0x05,0xFF
11.569968875000001,0,0xFF,0xFF
11.571389874999999,0,0x81,0xFF
11.572838000000001,0,0x7F,0xFF
11.574259000000000,0,0xFF,0xFF
11.575707166666668,0,0xFF,0xFF
11.577128125000000,0,0x00,0x00
11.578576291666666,0,0x00,0x00
11.579997250000000,0,0x00,0x00
11.581445458333333,0,0x00,0x00
11.582866416666667,0,0x00,0x00
11.584314583333333,0,0x00,0x00
11.585735541666667,0,0x00,0x00
11.587183708333333,0,0x00,0x00
14.467809166666667,0,0xFF,0x00
14.469204625000000,0,0x00,0x9A
14.470617208333334,0,0x00,0x00
14.472012749999999,0,0x00,0x00
14.473425291666667,0,0x00,0x00
14.474820833333334,0,0x00,0x00
14.476233375000000,0,0x00,0x00
14.477628958333334,0,0x00,0x00
14.479041499999999,0,0x00,0x00
14.480437041666667,0,0x00,0x00
14.481849583333334,0,0x00,0x00
14.483245125000000,0,0x00,0x00
14.484657666666667,0,0x00,0x00
14.486053208333333,0,0x00,0x00
14.487465750000000,0,0x00,0x00
14.488861333333332,0,0x00,0x00
14.490273833333333,0,0x00,0x00
14.491669416666667,0,0x00,0x00
14.493081916666666,0,0x00,0x00
14.494477500000000,0,0x00,0x00
14.495889999999999,0,0x00,0x00
14.497285583333333,0,0x00,0x00
14.498698083333334,0,0x00,0x00
14.500093708333333,0,0x00,0x00
14.501506166666667,0,0x00,0x00
14.502901791666666,0,0x00,0x00
14.504314250000000,0,0x00,0x00
14.505709875000001,0,0x00,0x00
14.507122333333333,0,0x01,0x00
14.508517958333334,0,0x00,0x01
14.509930458333333,0,0xFF,0xFF
14.511326083333334,0,0xFF,0xFF
14.512738499999999,0,0xFF,0xD5
14.514134166666667,0,0xFF,0xFF
14.515546625000001,0,0xFB,0xA0
14.517125416666667,0,0xFF,0xFF
14.518537833333333,0,0xFC,0xF5
14.519933500000000,0,0xFF,0xFF
14.521345916666666,0,0x80,0x80
14.522741666666667,0,0xFE,0xFF
14.524154041666666,0,0xBA,0xD4
14.525549791666666,0,0xC4,0xFF
14.526962125000001,0,0xB4,0xC0
14.528357833333333,0,0xC8,0xFF
14.529770208333334,0,0xA5,0xD4
14.531165874999999,0,0xD8,0xFF
14.532578291666667,0,0xFF,0xFF
14.534034999999999,0,0xFF,0xFF
14.535447375000000,0,0x8D,0x54
14.536843125000001,0,0xC0,0xFF
14.538255458333333,0,0x17,0x01
14.539651208333334,0,0x88,0xFE
14.541063583333333,0,0x2D,0x54
14.542459291666667,0,0x10,0xFF
14.543871625000000,0,0xDF,0x01
14.545267375000000,0,0x20,0xFE
14.546679749999999,0,0x09,0x53
14.548075458333333,0,0x74,0xFC
14.549487875000001,0,0xB0,0x2B
14.550883583333333,0,0x48,0xD4
14.552295916666667,0,0x29,0x00
14.553691708333334,0,0xD0,0xDF
14.555104041666667,0,0xFF,0xFF
14.556499791666667,0,0xFF,0xFF
14.557912083333333,0,0x7C,0x93
14.559307875000000,0,0x00,0x6C
14.560720208333333,0,0xE0,0x10
14.562115958333333,0,0x1C,0xEE
14.563528291666668,0,0xEB,0x4D
14.564924041666666,0,0x14,0xF6
14.566336375000001,0,0xFD,0x01
14.567732124999999,0,0x02,0xFE
14.569144458333334,0,0x0E,0xD4
14.570540250000001,0,0x11,0x7F
14.571952500000000,0,0x83,0xE9
14.573348333333334,0,0x08,0x16
14.574760666666666,0,0xC7,0x88
14.576156416666667,0,0x18,0x77
14.577568708333333,0,0xFF,0xFF
14.578964541666666,0,0xFF,0xFF
14.580376791666666,0,0xC5,0xD9
14.581772624999999,0,0x7F,0x07
14.583184833333334,0,0x01,0x11
14.584641749999999,0,0x7F,0x0F
14.586054000000001,0,0x15,0x05
14.587449833333332,0,0x3F,0x7F
14.588862083333334,0,0x21,0x01
14.590257958333334,0,0x1F,0xFF
14.591670166666667,0,0x15,0x55
14.593066041666667,0,0x0F,0xFF
14.594478250000000,0,0x09,0x61
14.595874125000000,0,0x87,0xDF
14.597286333333333,0,0x5D,0x25
14.598682250000000,0,0x87,0xDF
14.600094416666666,0,0xF0,0x80
14.601490416666667,0,0x88,0xFF
14.602902541666667,0,0x88,0xC2
14.604298500000001,0,0xE4,0xFD
14.605710625000000,0,0xC8,0x88
14.607106625000000,0,0xA4,0xF0
14.608518750000000,0,0xB0,0xC0
14.609914708333333,0,0xC4,0xF0
14.611326833333333,0,0x99,0xA0
14.612722708333333,0,0xC2,0xF0
14.614134916666666,0,0x99,0xC0
14.615530833333333,0,0xC2,0xF0
14.616942999999999,0,0xAA,0xC5
14.618338916666668,0,0x81,0xF8
14.619751041666667,0,0xE5,0xD4
14.621147000000001,0,0x81,0xFF
14.622559125000000,0,0x11,0x43
14.623955083333334,0,0x48,0x9C
14.625367208333333,0,0x33,0x40
14.626763166666667,0,0x44,0x9F
14.628175291666667,0,0x5F,0x90
14.629571250000000,0,0x20,0x0F
14.630983375000000,0,0xCF,0x11
14.632379374999999,0,0x30,0x0F
14.633791458333333,0,0xA1,0x18
14.635187458333334,0,0x18,0x07
14.636599541666667,0,0x60,0x1A
14.637995583333334,0,0x1F,0x04
14.639407625000000,0,0x31,0x18
14.640803666666667,0,0x00,0x00
14.642215791666667,0,0xF3,0xDC
14.643611750000000,0,0x04,0x00
14.645023833333333,0,0x1E,0x0B
14.646419833333333,0,0x01,0xF4
14.647831916666666,0,0x3E,0x66
14.649227958333332,0,0x11,0x10
14.650639999999999,0,0xCD,0xB0
14.652036041666667,0,0x32,0x00
14.653448083333334,0,0x6B,0x2A
14.654844125000000,0,0x14,0xD4
14.656256208333334,0,0xD3,0x8E
14.657652208333333,0,0x0C,0x30
14.659064250000000,0,0x06,0x0A
14.660460333333333,0,0xF8,0x34
14.661872375000000,0,0x8D,0x0A
14.663268416666666,0,0x00,0x34
14.664680416666666,0,0x63,0x0B
14.666076500000001,0,0x04,0x34
14.667488541666666,0,0x89,0xC1
14.668884583333334,0,0x07,0x3F
14.670296583333334,0,0x55,0x6B
14.671692666666667,0,0x0B,0x15
14.673104666666667,0,0x69,0x7D
14.674500791666667,0,0x11,0x03
14.675912750000000,0,0x7D,0x31
14.677308875000000,0,0x11,0x4F
14.678720833333333,0,0x9F,0x7F
14.680116958333333,0,0x21,0x01
14.681528958333333,0,0x8B,0xBF
14.682925083333334,0,0x65,0x41
14.684459125000000,0,0xA7,0xFF
14.685855249999999,0,0x49,0x01
14.687267208333333,0,0x1B,0xBF
14.688663375000001,0,0xC1,0x41
14.690075291666666,0,0xC5,0xC0
14.691471458333334,0,0x80,0xFF
14.692883416666668,0,0xF1,0xD2
14.694279541666667,0,0xC4,0xFD
14.695691500000001,0,0x9C,0x89
14.697087666666667,0,0xC1,0xF0
14.698499583333334,0,0xDE,0xC0
14.699895791666666,0,0xE1,0xF0
14.701307666666667,0,0xD1,0x80
14.702703833333333,0,0xE2,0x80
14.704115791666666,0,0xE0,0x80
14.705512000000001,0,0xF6,0x80
14.706923874999999,0,0xC0,0x80
14.708320125000000,0,0xF4,0x80
14.709731958333334,0,0xD4,0xD0
14.711128208333333,0,0xF8,0xA0
14.712540000000001,0,0x4C,0x7C
14.713936291666666,0,0x80,0x80
14.715348125000000,0,0xD5,0xF8
14.716744291666666,0,0xFF,0x00
14.718156166666667,0,0x06,0x10
14.719552416666666,0,0x80,0x00
14.720964291666666,0,0xD4,0x00
14.722360500000001,0,0x00,0x00
14.723772333333333,0,0x18,0x00
14.725168583333334,0,0x00,0x00
14.726580416666666,0,0x73,0x01
14.727976666666667,0,0x1C,0x00
14.729388500000001,0,0x5E,0x07
14.730784791666666,0,0x20,0x00
14.732196583333334,0,0x38,0x19
14.733592874999999,0,0x44,0x07
14.735126749999999,0,0x63,0x0F
14.736523041666667,0,0x00,0x30
14.737934875000001,0,0x11,0x08
14.739331166666666,0,0xFF,0x37
14.740742916666667,0,0x7E,0x3B
14.742139249999999,0,0x01,0x04
14.743551041666667,0,0x4D,0x18
14.744947333333334,0,0x00,0x07
14.746359125000000,0,0x0C,0x32
14.747755458333334,0,0x00,0x0D
14.749167208333333,0,0x65,0xA0
14.750563541666667,0,0x18,0x5F
14.751975291666668,0,0x2B,0x0D
14.753371625000000,0,0x04,0xF2
14.754783375000001,0,0x19,0x00
14.756179708333333,0,0x06,0xFF
14.757591458333334,0,0x55,0x9B
14.758987833333334,0,0x81,0x65
14.760399541666667,0,0xE5,0x29
14.761795916666667,0,0x11,0xD7
14.763207625000000,0,0x13,0x87
14.764604000000000,0,0x81,0x79
14.766015708333333,0,0x43,0x43
14.767412125000000,0,0x9D,0xFD
14.768823791666666,0,0xAF,0x05
14.770220208333333,0,0x41,0xFB
14.771631875000001,0,0xB3,0x0F
14.773028291666666,0,0x41,0xF1
14.774439958333334,0,0x05,0x89
14.775836375000001,0,0x33,0x73
14.777248041666667,0,0x73,0x05
14.778644458333334,0,0x17,0xFF
14.780056166666666,0,0x84,0xBD
14.781452583333333,0,0xF8,0xC0
14.782864291666666,0,0xD6,0x92
14.784260750000000,0,0xFC,0xED
14.785672333333334,0,0x80,0x80
14.787068833333333,0,0xFF,0xFF
14.788480416666667,0,0xFF,0xFF
14.789876874999999,0,0xFF,0xFF
14.791288500000000,0,0x00,0x00
14.792684958333334,0,0x00,0x00
14.794096583333333,0,0x00,0x00
14.795493041666667,0,0x00,0x00
14.796904666666666,0,0x00,0x00
14.798301166666667,0,0x00,0x00
14.799712749999999,0,0x00,0x00
14.801109250000000,0,0x00,0x00
14.802520875000001,0,0xA8,0xE4
14.803917333333333,0,0x40,0x1B
14.805328916666667,0,0x7D,0x15
14.806725416666668,0,0x00,0xFB
14.808137000000000,0,0x34,0x07
14.809533541666667,0,0x00,0xFB
14.810945125000000,0,0xFF,0xFF
14.812341625000000,0,0xFF,0xFF
14.813753166666666,0,0x00,0x00
14.815149708333333,0,0x00,0x00
14.816561291666666,0,0x00,0x00
14.818140958333334,0,0x00,0x00
14.819552500000000,0,0x00,0x00
14.820949041666667,0,0x00,0x00
14.822360583333333,0,0x00,0x00
14.823757125000000,0,0x00,0x00
14.825168666666666,0,0x27,0x08
14.826565208333333,0,0x10,0xF7
14.827976749999999,0,0xDF,0x5D
14.829373333333333,0,0x01,0xF7
14.830784833333333,0,0x31,0x1C
14.832181416666666,0,0x02,0xF7
14.833592958333334,0,0xFF,0xFF
14.834989500000001,0,0xFF,0xFF
14.836401000000000,0,0x00,0x00
14.837797625000000,0,0x00,0x00
14.839209125000000,0,0x00,0x00
14.840605708333333,0,0x00,0x00
14.842017208333333,0,0x00,0x00
14.843413791666666,0,0x00,0x00
14.844825291666666,0,0x00,0x00
14.846221916666666,0,0x00,0x00
14.847633374999999,0,0x11,0x01
14.849029958333333,0,0x0F,0xFF
14.850441458333334,0,0xC5,0xF5
14.852082250000000,0,0x1F,0xFF
14.853493708333334,0,0x21,0x11
14.854890333333334,0,0x1F,0xEF
14.856301791666667,0,0xFF,0xFF
14.857698458333333,0,0xFF,0xFF
14.859109875000000,0,0x00,0x00
14.860506541666666,0,0x00,0x00
14.861917999999999,0,0x00,0x00
14.863314666666666,0,0x00,0x00
14.864726083333334,0,0x00,0x00
14.866122750000001,0,0x00,0x00
14.867534166666667,0,0x00,0x00
14.868930833333334,0,0x00,0x00
14.870342291666667,0,0xFF,0xFF
14.871738916666667,0,0xFF,0xFF
14.873150333333333,0,0xD4,0xBD
14.874547041666666,0,0xF8,0xC0
14.875958458333333,0,0xE4,0xBF
14.877355124999999,0,0xF8,0xC0
14.878766541666666,0,0xF2,0xD7
14.880163250000001,0,0xFD,0xFC
14.881574625000001,0,0xC0,0x87
14.882971333333334,0,0xFF,0xF8
14.884382708333334,0,0xF5,0xDE
14.885779416666667,0,0xFF,0xF1
14.887190750000000,0,0xC8,0x83
14.888587541666666,0,0xFF,0xF0
14.889998875000000,0,0xD5,0xC3
14.891395583333333,0,0xFF,0xF0
14.892806958333333,0,0xFF,0xFF
14.894203708333333,0,0xFF,0xFF
14.895614999999999,0,0xDD,0x00
14.897011750000001,0,0x7F,0x00
14.898423125000001,0,0x00,0xC3
14.899819875000000,0,0xFF,0x00
14.901231208333334,0,0x40,0x77
14.902628000000000,0,0xFF,0x00
14.904039291666667,0,0x18,0x00
14.905436083333333,0,0xE7,0x03
14.906847375000000,0,0x58,0xB6
14.908244166666666,0,0xE7,0x01
14.909655458333333,0,0x1F,0x04
14.911052249999999,0,0xE0,0x01
14.912463541666666,0,0x4A,0x13
14.913860375000001,0,0xF5,0x00
14.915271625000001,0,0xFF,0xFF
14.916668458333334,0,0xFF,0xFF
14.918079708333334,0,0x51,0x16
14.919476541666667,0,0xFF,0x01
14.920887791666667,0,0x00,0xC0
14.922284666666666,0,0xFF,0x03
14.923695875000000,0,0x15,0xE7
14.925092749999999,0,0xFF,0x11
14.926503958333333,0,0x20,0xDE
14.927900833333334,0,0xDF,0x01
14.929312083333333,0,0xE4,0xC8
14.930708916666667,0,0x1F,0x17
14.932120125000001,0,0x62,0x90
14.933517041666667,0,0x9D,0x0F
14.934928250000000,0,0x80,0xC7
14.936325125000000,0,0x7F,0x19
14.937736333333334,0,0xFF,0xFF
14.939133208333333,0,0xFF,0xFF
14.940544416666667,0,0x57,0xC5
14.941941291666666,0,0xFF,0x7F
14.943352500000000,0,0x01,0x81
14.944749375000001,0,0xFF,0x7F
14.946160583333333,0,0x15,0x55
14.947557500000000,0,0xFF,0xFF
14.948968666666667,0,0x01,0x01
14.950365583333333,0,0xFF,0xFF
14.951776750000001,0,0x11,0x55
14.953173666666666,0,0xFF,0xFF
14.954584833333334,0,0x69,0x01
14.955981791666666,0,0x97,0xFF
14.957392916666667,0,0x01,0x55
14.958789875000001,0,0xFF,0xFF
14.960201000000000,0,0x80,0x92
14.961598000000000,0,0xFF,0xE0
14.963009124999999,0,0xD4,0xB6
14.964406125000000,0,0xFF,0xC0
14.965817208333334,0,0x80,0xF3
14.967214166666666,0,0xFF,0x80
14.968625291666667,0,0xD5,0xA7
14.970083291666667,0,0xFF,0xD0
14.971494416666667,0,0x80,0x92
14.972891458333333,0,0xFF,0xE0
14.974302500000000,0,0xD5,0x8D
14.975699499999999,0,0xFF,0xF0
14.977110583333333,0,0x80,0x8D
14.978507583333334,0,0xFF,0xF0
14.979918666666666,0,0xD4,0xDE
14.981315708333334,0,0xFF,0xF0
14.982726749999999,0,0x1F,0x47
14.984123750000000,0,0xE0,0x00
14.985534833333332,0,0x77,0x07
14.986931875000000,0,0xC0,0x00
14.988342916666667,0,0x39,0x23
14.989739958333333,0,0xC0,0xC0
14.991151000000000,0,0x35,0x67
14.992548041666666,0,0xC0,0x10
14.993959083333333,0,0x20,0x1F
14.995356166666667,0,0xC0,0x00
14.996767166666666,0,0x20,0x33
14.998164250000000,0,0xC0,0x1C
14.999575291666666,0,0x20,0x04
15.000972375000000,0,0xC0,0xF8
15.002383375000001,0,0x00,0x4C
15.003780458333333,0,0xC0,0x70
15.005191458333334,0,0x62,0x8A
15.006588541666666,0,0x1D,0x01
15.007999541666667,0,0xA2,0xD4
15.009396625000001,0,0x5D,0x03
15.010807625000000,0,0x74,0x21
15.012204708333334,0,0x0B,0x06
15.013615708333333,0,0x60,0x04
15.015012791666667,0,0x1F,0x09
15.016423791666666,0,0x1C,0x0E
15.017820916666667,0,0x03,0x00
15.019353958333333,0,0x13,0x75
15.020751083333334,0,0x0C,0x00
15.022162041666666,0,0x1C,0x21
15.023559166666667,0,0x03,0x00
15.024970124999999,0,0x18,0x05
15.026367291666666,0,0x07,0x00
15.027778208333334,0,0x85,0x01
15.029175374999999,0,0x7B,0xFF
15.030586291666667,0,0x01,0x15
15.031983458333332,0,0xFF,0xFF
15.033394375000000,0,0x49,0x01
15.034791583333334,0,0xB7,0xFF
15.036202458333333,0,0x29,0x11
15.037599666666667,0,0xD7,0xFF
15.039010541666666,0,0x71,0x01
15.040407750000000,0,0x8F,0x7F
15.041818666666666,0,0xEF,0x95
15.043215833333333,0,0x11,0x7F
15.044626750000001,0,0x7F,0xC1
15.046023958333333,0,0x81,0x3F
15.047434833333334,0,0xA9,0xDD
15.048832041666667,0,0x57,0x7F
15.050242916666667,0,0x80,0x8D
15.051640166666667,0,0xFF,0xF0
15.053051041666667,0,0xD5,0xDE
15.054448250000000,0,0xFF,0xF1
15.055859083333333,0,0x80,0x8B
15.057256333333333,0,0xFF,0xF0
15.058667208333333,0,0xD1,0xD8
15.060064416666666,0,0xFF,0xF7
15.061475250000001,0,0xC0,0xC7
15.062872541666666,0,0xFF,0xF8
15.064283375000000,0,0xC5,0xF6
15.065680625000001,0,0xFF,0xF9
15.067091458333334,0,0xE0,0xE7
15.068488708333334,0,0xFF,0xF8
15.070021625000001,0,0xD5,0xD4
15.071418875000001,0,0xFF,0xFF
15.072829708333334,0,0x40,0x44
15.074227000000000,0,0x80,0x38
15.075637791666667,0,0x00,0x86
15.077035083333334,0,0xC0,0x79
15.078445875000000,0,0x20,0xC7
15.079843166666667,0,0xC0,0x38
15.081253999999999,0,0x20,0xD6
15.082651291666666,0,0xC0,0x39
15.084062041666666,0,0x20,0xC3
15.085459374999999,0,0xC0,0x3C
15.086870166666667,0,0x40,0xCC
15.088267458333334,0,0xE0,0x30
15.089678250000000,0,0x00,0xE7
15.091075583333334,0,0xE0,0x18
15.092486333333333,0,0x50,0xAD
15.093883666666667,0,0xE0,0x50
15.095294416666666,0,0x1E,0x00
15.096691750000000,0,0x01,0x00
15.098102458333333,0,0x12,0x7F
15.099499833333333,0,0x0D,0x00
15.100910583333333,0,0x1F,0xFF
15.102307916666666,0,0x00,0x00
15.103718666666667,0,0x10,0xC0
15.105116041666667,0,0x0F,0x7F
15.106526750000000,0,0x1E,0x80
15.107924125000000,0,0x01,0x7F
15.109334833333333,0,0x00,0x05
15.110732208333333,0,0x1F,0x7E
15.112142916666667,0,0x10,0xF8
15.113540291666666,0,0x0F,0x07
15.114951000000000,0,0x05,0x84
15.116348374999999,0,0x1F,0x7F
15.117759083333333,0,0x79,0x89
15.119156500000001,0,0x87,0x7F
15.120567166666667,0,0x2D,0x95
15.121964583333334,0,0xD3,0x7F
15.123375250000000,0,0xE5,0x61
15.124772666666667,0,0x1B,0x9F
15.126183333333334,0,0x83,0x77
15.127580750000000,0,0x7D,0x9F
15.128991416666667,0,0x7D,0x01
15.130388875000000,0,0x83,0x9F
15.131799541666666,0,0x81,0xFF
15.133196958333333,0,0x7F,0x1F
15.134607583333333,0,0x45,0x33
15.136005083333334,0,0xBB,0x9F
15.137415708333334,0,0x01,0x8D
15.138813166666667,0,0xFF,0x1F
15.140223791666667,0,0xEF,0x88
15.141621250000000,0,0xFF,0xFF
15.143031875000000,0,0xFF,0xD7
15.144429333333333,0,0xFF,0xFC
15.145839958333333,0,0xFF,0xB1
15.147237458333333,0,0xFF,0xFE
15.148648041666666,0,0xFF,0xFF
15.150045541666668,0,0xFF,0xFF
15.151456124999999,0,0x00,0x00
15.153036791666667,0,0x00,0x00
15.154447333333334,0,0x00,0x00
15.155844875000000,0,0x00,0x00
15.157255458333333,0,0x00,0x00
15.158652958333333,0,0x00,0x00
15.160063541666666,0,0x00,0x00
15.161461041666668,0,0x00,0x00
15.162871624999999,0,0xD0,0x56
15.164269208333334,0,0xE0,0xB8
15.165679708333334,0,0xF7,0x10
15.167077250000000,0,0xE0,0x3F
15.168487833333334,0,0xFF,0x81
15.169885333333333,0,0xE0,0x3E
15.171295916666667,0,0xFF,0xFF
15.172693416666666,0,0xFF,0xFF
15.174103958333333,0,0x00,0x00
15.175501541666666,0,0x00,0x00
15.176912041666666,0,0x00,0x00
15.178309625000001,0,0x00,0x00
15.179720124999999,0,0x00,0x00
15.181117708333334,0,0x00,0x00
15.182528208333334,0,0x00,0x00
15.183925833333333,0,0x00,0x00
15.185336291666667,0,0x00,0x79
15.186733916666666,0,0x1F,0x06
15.188144375000000,0,0xB1,0x2C
15.189541999999999,0,0x1F,0xD7
15.190952458333333,0,0xEC,0x80
15.192350083333332,0,0x1F,0x7F
15.193760583333333,0,0xFF,0xFF
15.195158208333334,0,0xFF,0xFF
15.196568624999999,0,0x00,0x00
15.197966291666667,0,0x00,0x00
15.199376750000001,0,0x00,0x00
15.200774375000000,0,0x00,0x00
15.202184833333334,0,0x00,0x00
15.203704583333334,0,0x00,0x00
15.205114999999999,0,0x00,0x00
15.206512666666667,0,0x00,0x00
15.207923083333334,0,0x01,0x89
15.209320750000000,0,0xFF,0x1F
15.210731166666667,0,0x05,0x4D
15.212128833333333,0,0xFF,0x9F
15.213539250000000,0,0x01,0x59
15.214936958333332,0,0xFF,0x8F
15.216347333333333,0,0xFF,0xFF
15.217745041666667,0,0xFF,0xFF
15.219155416666666,0,0x00,0x00
15.220553125000000,0,0x00,0x00
15.221963541666666,0,0x00,0x00
15.223361250000000,0,0x00,0x00
15.224771625000001,0,0x00,0x00
15.226169333333333,0,0x00,0x00
15.227579708333334,0,0x00,0x00
15.228977416666666,0,0x00,0x00
15.230387833333333,0,0xFF,0xFF
15.231785500000001,0,0xFF,0xFF
15.233195875000000,0,0xFF,0xDD
15.234593625000000,0,0xFF,0xFF
15.236003958333333,0,0xFF,0x80
15.237401708333334,0,0xFF,0xFF
15.238812041666666,0,0xFF,0xF1
15.240209791666667,0,0xFF,0xFE
15.241620125000001,0,0xFF,0x80
15.243017916666666,0,0xFF,0x80
15.244428208333334,0,0xFF,0x80
15.245825999999999,0,0xFF,0x80
15.247236333333333,0,0xFC,0x80
15.248634166666667,0,0xFF,0x80
15.250044416666666,0,0xF0,0x80
15.251442250000000,0,0xFF,0x80
15.252852499999999,0,0xFF,0xFF
15.254250291666667,0,0xFF,0xFF
15.255660541666666,0,0xF8,0x5F
15.257058375000000,0,0xFF,0xFF
15.258468625000001,0,0x84,0x3E
15.259866541666666,0,0xFB,0xC1
15.261276708333334,0,0x70,0x60
15.262674583333334,0,0xFF,0x00
15.264084833333333,0,0x00,0x20
15.265482666666667,0,0xFF,0x00
15.266892916666666,0,0x09,0x25
15.268290750000000,0,0xF7,0x10
15.269701000000000,0,0xFB,0x01
15.271098833333333,0,0x04,0x00
15.272509124999999,0,0xEB,0x10
15.273906916666666,0,0x14,0x00
15.275317208333334,0,0xFF,0xFF
15.276715041666666,0,0xFF,0xFF
15.278125250000000,0,0x5F,0xFF
15.279523125000001,0,0xFF,0xFF
15.280933333333333,0,0x01,0xD8
15.282331208333334,0,0xFF,0x27
15.283741416666667,0,0x54,0x52
15.285139333333333,0,0xFF,0x7D
15.286549500000000,0,0x3C,0x43
15.287947416666666,0,0xFF,0x2C
15.289357583333333,0,0x5F,0x42
15.290755500000000,0,0xFF,0x01
15.292165666666667,0,0x1F,0x00
15.293563625000001,0,0xFF,0x80
15.294973791666667,0,0x9F,0x01
15.296371666666667,0,0x7F,0xC0
15.297781875000000,0,0xFF,0xFF
15.299179791666667,0,0xFF,0xFF
15.300589958333333,0,0xFF,0xFF
15.301987875000000,0,0xFF,0xFF
15.303398000000000,0,0xFF,0x0F
15.304796000000000,0,0xFF,0xF1
15.306206124999999,0,0x7F,0x05
15.307604083333333,0,0xFF,0xC3
15.309014208333334,0,0x3F,0xCD
15.310412166666667,0,0xFF,0x33
15.311822291666667,0,0xBF,0x31
15.313220250000001,0,0xDF,0xDD
15.314630375000000,0,0x23,0x33
15.316028375000000,0,0xDF,0x0D
15.317438458333333,0,0x8F,0x47
15.318836458333333,0,0xF7,0x01
15.320246541666666,0,0xE0,0x80
15.321644583333333,0,0xFF,0x80
15.323054666666666,0,0xF0,0x94
15.324452708333334,0,0xFF,0xC0
15.325862750000001,0,0xF3,0xC1
15.327260750000001,0,0xFC,0x80
15.328670875000000,0,0xD3,0xDE
15.330068833333334,0,0xFC,0x80
15.331478958333333,0,0xD7,0x92
15.332876916666667,0,0xF8,0x80
15.334287041666666,0,0xD2,0xC1
15.335685041666666,0,0xFD,0xF1
15.337095083333333,0,0xC7,0xC8
15.338493124999999,0,0xF8,0xF0
15.339903208333334,0,0xC7,0xE7
15.341301208333334,0,0xF8,0xD8
15.342711291666667,0,0xFB,0xB0
15.344109291666667,0,0x00,0x40
15.345519375000000,0,0xF7,0x7C
15.346917375000000,0,0x00,0x40
15.348327458333333,0,0xE0,0xDE
15.349725500000000,0,0x00,0x60
15.351135541666666,0,0xC0,0x22
15.352533583333333,0,0x00,0x1D
15.353943583333333,0,0xC0,0x55
15.355341666666666,0,0x00,0x2E
15.356751708333332,0,0xC0,0x0F
15.358149791666667,0,0x00,0xD3
15.359559750000001,0,0x80,0x09
15.360957875000000,0,0x00,0x07
15.362367833333334,0,0xC0,0x48
15.363765958333333,0,0x00,0x17
15.365175958333333,0,0xC0,0xBC
15.366574083333333,0,0x3F,0x40
15.367984041666666,0,0xA0,0x7E
15.369382166666666,0,0x5F,0x05
15.370792083333333,0,0x7D,0x26
15.372190249999999,0,0x00,0x19
15.373600208333333,0,0x19,0xB6
15.374998333333334,0,0x00,0x41
15.376408291666667,0,0x00,0xE7
15.377806458333334,0,0x00,0x00
15.379216375000000,0,0x01,0xB7
15.380614541666667,0,0x00,0x41
15.382024458333333,0,0x01,0xA1
15.383422625000000,0,0x00,0x43
15.384832541666666,0,0x01,0x97
15.386230708333333,0,0x00,0x61
15.387762708333334,0,0x3B,0x01
15.389160916666667,0,0xC7,0xE1
15.390570791666667,0,0x1B,0x35
15.391969000000000,0,0xE7,0xC3
15.393378875000000,0,0x3D,0x95
15.394777083333333,0,0xC3,0x23
15.396186999999999,0,0x89,0x9D
15.397585166666667,0,0x77,0x61
15.398995041666666,0,0x51,0x1F
15.400393291666667,0,0xAF,0xE1
15.401803125000001,0,0x21,0x4F
15.403201375000000,0,0xDF,0xF1
15.404611208333334,0,0xC1,0x0D
15.406009458333333,0,0x3F,0xF1
15.407419333333333,0,0xA5,0x41
15.408817583333333,0,0x5F,0xFD
15.410227416666666,0,0xEF,0x80
15.411625666666666,0,0xF0,0xF8
15.413035541666666,0,0xE2,0xD7
15.414433791666667,0,0xF5,0xF8
15.415843583333332,0,0xDF,0x80
15.417241875000000,0,0xE0,0xFC
15.418651708333334,0,0xEA,0xD3
15.420049958333333,0,0xF5,0xFC
15.421459791666667,0,0xE4,0x84
15.422858124999999,0,0xFB,0xFB
15.424267833333333,0,0xFD,0xD5
15.425666166666666,0,0xF3,0xFF
15.427075916666666,0,0xF6,0xC8
15.428474291666667,0,0xF9,0xFF
15.429883999999999,0,0xFA,0xD5
15.431282375000000,0,0xFD,0xFF
15.432692125000001,0,0x80,0xF9
15.434090416666667,0,0x00,0x00
15.435500250000000,0,0x8D,0x90
15.436898500000000,0,0x00,0x4F
15.438430374999999,0,0xFF,0x71
15.439828708333334,0,0x00,0x0E
15.441238458333334,0,0x2A,0x22
15.442636833333333,0,0xD5,0x1C
15.444046541666667,0,0x03,0x49
15.445444916666666,0,0xFC,0xB6
15.446854625000000,0,0x50,0x04
15.448253041666666,0,0xFF,0xFF
15.449662708333333,0,0x90,0x03
15.451061125000001,0,0xFF,0xFC
15.452470791666666,0,0x74,0x48
15.453869250000000,0,0xFF,0xF4
15.455278874999999,0,0x01,0xC5
15.456677250000000,0,0x00,0x32
15.458086958333332,0,0x07,0x10
15.459485375000000,0,0x00,0x0F
15.460895041666667,0,0x07,0x08
15.462293458333333,0,0x00,0x07
15.463703125000000,0,0x7E,0x12
15.465101583333333,0,0x01,0x05
15.466511208333333,0,0x1F,0x18
15.467909625000001,0,0x00,0x07
15.469319333333333,0,0x6A,0x02
15.470717750000000,0,0x15,0x1D
15.472127416666666,0,0xBE,0x07
15.473525833333333,0,0x41,0x00
15.474935500000001,0,0x2B,0x06
15.476333958333333,0,0xD5,0x01
15.477743583333334,0,0xE1,0x1B
15.479142041666666,0,0x1F,0xE5
15.480551666666667,0,0xA5,0x41
15.481950124999999,0,0x5F,0xFF
15.483359750000000,0,0xF9,0x01
15.484758208333334,0,0x07,0xFF
15.486167833333333,0,0x8B,0x55
15.487566291666667,0,0x77,0xFF
15.488975916666666,0,0x83,0x01
15.490374416666667,0,0x7F,0xFF
15.491784000000001,0,0xD7,0x51
15.493182500000000,0,0x7F,0xFF
15.494592083333334,0,0x03,0x01
15.495990624999999,0,0xFF,0xFF
15.497400166666667,0,0x7F,0xA1
15.498798708333334,0,0xFF,0x5F
15.500208291666667,0,0xFE,0xC7
15.501606833333334,0,0xFF,0xFF
15.503016375000000,0,0xFF,0xF5
15.504414875000000,0,0xFF,0xFF
15.505824458333333,0,0xFF,0xC0
15.507223000000000,0,0xFF,0xFF
15.508632541666667,0,0xFF,0xFF
15.510031083333333,0,0xFF,0xFF
15.511440625000001,0,0x00,0x00
15.512839166666666,0,0x00,0x00
15.514248708333334,0,0x00,0x00
15.515647250000001,0,0x00,0x00
15.517056791666667,0,0x00,0x00
15.518455375000000,0,0x00,0x00
15.519864875000000,0,0x00,0x00
15.521446583333333,0,0x00,0x00
15.522856125000001,0,0x7C,0x08
15.524254750000001,0,0xFF,0xF0
15.525664208333334,0,0xFD,0x70
15.527062791666667,0,0xFF,0xC0
15.528472291666667,0,0xFC,0x40
15.529870916666667,0,0xFF,0x80
15.531280375000000,0,0xFF,0xFF
15.532678958333333,0,0xFF,0xFF
15.534088416666666,0,0x00,0x00
15.535487083333333,0,0x00,0x00
15.536896541666666,0,0x00,0x00
15.538295166666666,0,0x00,0x00
15.539704625000001,0,0x00,0x00
15.541103250000001,0,0x00,0x00
15.542512708333334,0,0x00,0x00
15.543911375000000,0,0x00,0x00
15.545320833333333,0,0xAC,0x03
15.546719458333333,0,0x53,0x00
15.548128875000000,0,0x2D,0x05
15.549527541666667,0,0xD7,0x00
15.550936958333333,0,0x30,0x00
15.552335666666666,0,0xCF,0x00
15.553745083333334,0,0xFF,0xFF
15.555143749999999,0,0xFF,0xFF
15.556553125000001,0,0x00,0x00
15.557951833333334,0,0x00,0x00
15.559361250000000,0,0x00,0x00
15.560759916666667,0,0x00,0x00
15.562169333333333,0,0x00,0x00
15.563568000000000,0,0x00,0x00
15.564977416666666,0,0x00,0x00
15.566376125000000,0,0x00,0x00
15.567785499999999,0,0x07,0xFD
15.569184208333333,0,0xFF,0x03
15.570593583333334,0,0x1F,0xDF
15.572114375000000,0,0xFF,0x01
15.573523750000000,0,0x7F,0x01
15.574922500000000,0,0xFF,0x01
15.576331833333333,0,0xFF,0xFF
15.577730583333333,0,0xFF,0xFF
15.579139916666668,0,0x00,0x00
15.580538666666667,0,0x00,0x00
15.581948000000001,0,0x00,0x00
15.583346791666667,0,0x00,0x00
15.584756083333334,0,0x00,0x00
15.586154875000000,0,0x00,0x00
15.587564166666667,0,0x00,0x00
15.588962958333333,0,0x00,0x00
15.590372333333333,0,0xFF,0xFF
15.591771041666666,0,0xFF,0xFF
15.593180374999999,0,0x80,0xD5
15.594579166666668,0,0xFF,0xFE
15.595988458333334,0,0x86,0xBE
15.597387291666667,0,0xF9,0xC0
15.598796541666667,0,0xA9,0x81
15.600195333333334,0,0xD6,0xC0
15.601604666666667,0,0x96,0x80
15.603003500000000,0,0xE9,0xC0
15.604412708333333,0,0xBF,0xC0
15.605811541666666,0,0xC0,0xC0
15.607220833333333,0,0x9E,0xA0
15.608619666666666,0,0xE1,0xC0
15.610028874999999,0,0x8F,0xC0
15.611427708333334,0,0xF0,0xF0
15.612837000000001,0,0xFF,0xFF
15.614235833333334,0,0xFF,0xFF
15.615645041666667,0,0xB6,0x00
15.617043916666667,0,0x4D,0x00
15.618453125000000,0,0x24,0x00
15.619852041666666,0,0x9B,0x00
15.621261208333333,0,0xA8,0x01
15.622660083333333,0,0x57,0x00
15.624069291666666,0,0xF9,0x00
15.625468166666666,0,0x06,0x00
15.626877416666666,0,0xB2,0x10
15.628276291666667,0,0x4D,0x00
15.629685500000001,0,0x9F,0x00
15.631084375000000,0,0x40,0x00
15.632493583333334,0,0xF2,0x01
15.633892458333333,0,0x0D,0x00
15.635301666666667,0,0xFF,0xFF
15.636700583333333,0,0xFF,0xFF
15.638109750000000,0,0x15,0x00
15.639508666666666,0,0xFF,0x00
15.640917833333333,0,0x00,0x00
15.642316791666667,0,0xFF,0x00
15.643725916666666,0,0x80,0xC0
15.645124875000000,0,0x7F,0x00
15.646534000000001,0,0x60,0x18
15.647932958333334,0,0x9F,0x00
15.649342083333334,0,0xA0,0x17
15.650741041666667,0,0x5F,0x00
15.652150166666667,0,0xFA,0x00
15.653549125000000,0,0x05,0x00
15.654958250000000,0,0xAA,0x01
15.656357249999999,0,0x55,0x00
15.657766375000000,0,0xFF,0xFF
15.659165333333334,0,0xFF,0xFF
15.660574416666666,0,0x55,0x01
15.661973416666667,0,0xFF,0x01
15.663382500000001,0,0x01,0x01
15.664781500000000,0,0xFF,0x01
15.666190583333334,0,0x1D,0x41
15.667589625000000,0,0xF7,0x01
15.668998666666667,0,0x11,0x41
15.670397708333333,0,0xEF,0x01
15.671806791666667,0,0x23,0xC1
15.673205791666666,0,0xDD,0x01
15.674614875000000,0,0x49,0xF1
15.676013916666667,0,0xB7,0x01
15.677422958333333,0,0x01,0xDB
15.678822000000000,0,0xFF,0x05
15.680231041666667,0,0xBF,0x8C
15.681630083333333,0,0xC0,0xF0
15.683039166666667,0,0xCE,0xF3
15.684438208333333,0,0xB1,0xFC
15.685847250000000,0,0xB5,0xC2
15.687246291666666,0,0xC0,0xFC
15.688655333333333,0,0xAF,0xD7
15.690054375000001,0,0xD0,0xFC
15.691463416666666,0,0xFA,0xA8
15.692862541666667,0,0x80,0xFF
15.694271499999999,0,0xAF,0xDC
15.695670583333333,0,0xD0,0xFF
15.697079583333334,0,0xFB,0xC8
15.698478666666666,0,0x80,0xFF
15.699887666666667,0,0xEE,0xD5
15.701286750000000,0,0x91,0xFF
15.702695708333334,0,0xDF,0x00
15.704094833333333,0,0x00,0x00
15.705503833333333,0,0xFE,0x50
15.706902958333334,0,0x01,0x00
15.708311916666666,0,0x5D,0x00
15.709711000000000,0,0x00,0x00
15.711119999999999,0,0x0F,0x14
15.712519125000000,0,0x50,0x00
15.713928125000001,0,0xAF,0x00
15.715327208333333,0,0x00,0x00
15.716736166666667,0,0x7C,0x81
15.718135333333333,0,0x01,0x00
15.719544250000000,0,0x55,0xC0
15.720943416666668,0,0x00,0x00
15.722352333333333,0,0x7F,0x21
15.723751500000001,0,0x00,0xC0
15.725160458333333,0,0xFE,0x41
15.726559583333334,0,0x01,0x00
15.727968499999999,0,0xEE,0x3D
15.729367708333333,0,0x11,0x00
15.730776583333334,0,0xFF,0x0C
15.732175791666666,0,0x00,0x00
15.733584708333334,0,0xDE,0x02
15.734983874999999,0,0x01,0x01
15.736392750000000,0,0x59,0x01
15.737791958333334,0,0x02,0x00
15.739200875000000,0,0x1F,0x41
15.740600041666667,0,0x40,0x00
15.742008958333333,0,0xF9,0x03
15.743408166666667,0,0x02,0x00
15.744817041666666,0,0xED,0x07
15.746216250000000,0,0x02,0x01
15.747625125000001,0,0xD7,0x01
15.749024333333333,0,0x29,0x1F
15.750433208333334,0,0xAB,0x1B
15.751832458333332,0,0x55,0x37
15.753241291666667,0,0xA9,0x03
15.754640541666667,0,0x57,0x37
15.756171458333334,0,0xA5,0x4D
15.757570708333333,0,0x5B,0x37
15.758979541666667,0,0xF5,0xD3
15.760378833333334,0,0x0B,0x2F
15.761787625000000,0,0xD7,0x97
15.763186916666667,0,0x29,0x7F
15.764595708333333,0,0x0B,0xCF
15.765995000000000,0,0xA5,0x3F
15.767403791666666,0,0x5F,0x1F
15.768803125000000,0,0xA5,0xFF
15.770211916666666,0,0xFF,0x90
15.771611208333333,0,0x80,0xFF
15.773020000000001,0,0xAF,0xDD
15.774419291666666,0,0xD0,0xFF
15.775828083333334,0,0xFF,0x8C
15.777227416666667,0,0x80,0xFF
15.778636208333333,0,0xAB,0xDD
15.780035500000000,0,0xD4,0xFF
15.781444291666666,0,0xFF,0xDF
15.782843583333333,0,0x80,0xFF
15.784252374999999,0,0xAA,0xDD
15.785651708333333,0,0xD5,0xFF
15.787060416666666,0,0xCF,0xDD
15.788459791666666,0,0xB0,0xFF
15.789868541666667,0,0x88,0xD5
15.791267875000001,0,0xF7,0xFF
15.792676583333334,0,0xAA,0x30
15.794075958333334,0,0x00,0xC0
15.795484708333333,0,0xF7,0x70
15.796884041666667,0,0x00,0xC0
15.798292791666666,0,0xD5,0x18
15.799692166666667,0,0x00,0xE0
15.801100874999999,0,0xFE,0x40
15.802500250000000,0,0x01,0xFC
15.803908958333333,0,0xFA,0x82
15.805308374999999,0,0x00,0xFC
15.806839166666666,0,0xA1,0xD4
15.808238541666666,0,0x54,0xFF
15.809647208333333,0,0xEB,0x00
15.811046624999999,0,0x00,0xFF
15.812455291666666,0,0xAB,0x55
15.813854708333333,0,0x54,0xFF
15.815263375000001,0,0xA9,0x48
15.816662791666667,0,0x02,0x07
15.818071458333334,0,0xE3,0x55
15.819470916666667,0,0x08,0x0F
15.820879541666667,0,0xB9,0x18
15.822279000000000,0,0x02,0x0F
15.823687625000000,0,0x7D,0x05
15.825087083333333,0,0x02,0x1F
15.826495708333333,0,0x6E,0x18
15.827895208333333,0,0x00,0x07
15.829303791666666,0,0xDB,0x5D
15.830703291666667,0,0x00,0x07
15.832111916666667,0,0xB1,0x88
15.833511375000000,0,0x02,0x07
15.834919958333334,0,0xA8,0x5F
15.836319500000000,0,0x47,0x81
15.837728083333333,0,0x79,0x8B
15.839127583333333,0,0x87,0xFF
15.840536166666666,0,0xE9,0x77
15.841935666666666,0,0x17,0xFF
15.843344249999999,0,0xED,0xBF
15.844743749999999,0,0x13,0xFF
15.846152333333333,0,0x8D,0xDF
15.847551833333334,0,0x53,0xFF
15.848960416666667,0,0xC3,0x77
15.850359958333334,0,0x19,0xFF
15.851768500000000,0,0x93,0x7F
15.853168041666667,0,0x4D,0xFF
15.854576583333333,0,0x79,0x7F
15.855976125000000,0,0x07,0xFF
15.857384666666666,0,0x4D,0x7F
15.858784208333333,0,0x33,0xFF
15.860192750000000,0,0x89,0xC0
15.861592333333334,0,0xF6,0xFF
15.863000874999999,0,0xC0,0xCE
15.864400500000000,0,0xFF,0xF1
15.865808958333334,0,0x80,0xA0
15.867208583333333,0,0xFF,0xC0
15.868617041666667,0,0xFF,0xFF
15.870016625000000,0,0xFF,0xFF
15.871425083333333,0,0x00,0x00
15.872824708333333,0,0x00,0x00
15.874233208333333,0,0x00,0x00
15.875632791666666,0,0x00,0x00
15.877041291666666,0,0x00,0x00
15.878440916666667,0,0x00,0x00
15.879849374999999,0,0x00,0x00
15.881249000000000,0,0x00,0x00
15.882657500000001,0,0xFE,0x00
15.884057083333333,0,0x01,0xFF
15.885465541666667,0,0x2B,0xA0
15.886865208333333,0,0xD4,0x5F
15.888273625000000,0,0x16,0x7C
15.889856458333334,0,0xE9,0x03
15.891264874999999,0,0xFF,0xFF
15.892664500000000,0,0xFF,0xFF
15.894072916666667,0,0x00,0x00
15.895472625000000,0,0x00,0x00
15.896881041666667,0,0x00,0x00
15.898280708333333,0,0x00,0x00
15.899689125000000,0,0x00,0x00
15.901088791666666,0,0x00,0x00
15.902497208333333,0,0x00,0x00
15.903896874999999,0,0x00,0x00
15.905305333333333,0,0x94,0x30
15.906705000000001,0,0x09,0xC1
15.908113374999999,0,0x97,0x33
15.909513083333334,0,0x60,0xC1
15.910921458333334,0,0xD9,0x08
15.912321166666667,0,0x06,0xF3
15.913729583333334,0,0xFF,0xFF
15.915129250000000,0,0xFF,0xFF
15.916537625000000,0,0x00,0x00
15.917937374999999,0,0x00,0x00
15.919345708333333,0,0x00,0x00
15.920745458333334,0,0x00,0x00
15.922153791666666,0,0x00,0x00
15.923553541666667,0,0x00,0x00
15.924961874999999,0,0x00,0x00
15.926361666666667,0,0x00,0x00
15.927770000000001,0,0x55,0xED
15.929169750000000,0,0x8B,0xFF
15.930578083333334,0,0xB9,0xF7
15.931977833333333,0,0x47,0xFF
15.933386166666667,0,0xC7,0xAB
15.934785916666666,0,0x39,0x7F
15.936194250000000,0,0xFF,0xFF
15.937594041666667,0,0xFF,0xFF
15.939002333333333,0,0x00,0x00
15.940524208333333,0,0x00,0x00
15.941932500000000,0,0x00,0x00
15.943332291666668,0,0x00,0x00
15.944740583333333,0,0x00,0x00
15.946140416666667,0,0x00,0x00
15.947548666666666,0,0x00,0x00
15.948948500000000,0,0x00,0x00
15.950356791666668,0,0xFF,0xFF
15.951756583333333,0,0xFF,0xFF
15.953164833333334,0,0xE5,0xFF
15.954564708333333,0,0xC0,0xFF
15.955972958333334,0,0xF8,0xFF
15.957372791666666,0,0x87,0xFF
15.958781041666667,0,0x82,0xFD
15.960180916666667,0,0xFC,0xFF
15.961589125000000,0,0xB4,0xFE
15.962989041666667,0,0x83,0xFF
15.964397208333333,0,0xC5,0xFE
15.965797083333333,0,0x98,0xFF
15.967205291666666,0,0x94,0xFA
15.968605208333333,0,0x83,0xFC
15.970013375000001,0,0xCB,0xF4
15.971413249999999,0,0x85,0xF8
15.972821458333334,0,0xFF,0xFF
15.974221333333332,0,0xFF,0xFF
15.975629541666667,0,0xF3,0x55
15.977029416666667,0,0x0C,0xFF
15.978437625000000,0,0x2C,0x01
15.979837541666667,0,0x03,0xFF
15.981245708333333,0,0x65,0x5A
15.982645625000000,0,0x1F,0xF5
15.984053791666666,0,0x83,0x40
15.985453708333333,0,0x7C,0x80
15.986861875000001,0,0x6A,0x00
15.988261833333333,0,0xF1,0x00
15.989669958333334,0,0x1B,0x00
15.991069916666667,0,0xE0,0x00
15.992478083333333,0,0xE4,0x00
15.993878041666667,0,0xD6,0x00
15.995286208333333,0,0xFF,0xFF
15.996686125000000,0,0xFF,0xFF
15.998094208333333,0,0x2B,0x7F
15.999494208333333,0,0x54,0xFF
16.000902333333332,0,0x39,0xFF
16.002302291666666,0,0x84,0xFF
16.003710416666667,0,0x4A,0x9F
16.005110416666668,0,0x84,0x7F
16.006518499999999,0,0x2E,0x0B
16.007918499999999,0,0xC0,0x07
16.009326583333333,0,0xD7,0x47
16.010726583333334,0,0x60,0x01
16.012134666666668,0,0x5A,0x01
16.013534708333335,0,0xA1,0x00
16.014942749999999,0,0x59,0x01
16.016342750000000,0,0x24,0x00
16.017750875000001,0,0xFF,0xFF
16.019150875000001,0,0xFF,0xFF
16.020558916666666,0,0xD7,0xFF
16.021958958333332,0,0x01,0xFF
16.023367000000000,0,0x93,0xFF
16.024767041666667,0,0x01,0xFF
16.026175083333332,0,0x03,0xFF
16.027575124999998,0,0x51,0xFF
16.028983166666666,0,0x13,0xFF
16.030383250000000,0,0x41,0xFF
16.031791250000001,0,0x5D,0x7F
16.033191333333335,0,0x41,0xFF
16.034599333333333,0,0x4D,0x3F
16.035999416666666,0,0x01,0xFF
16.037407458333334,0,0x03,0xBF
16.038807541666667,0,0xD1,0x5F
16.040215541666665,0,0xBB,0xF8
16.041615624999999,0,0x85,0xF0
16.043023625000000,0,0x8D,0xE8
16.044423750000000,0,0xD3,0xF0
16.045831708333335,0,0x85,0xF0
16.047231833333335,0,0xEB,0xE0
16.048639791666666,0,0xA1,0xF0
16.050039916666666,0,0xD7,0xE0
16.051447916666667,0,0x98,0xFC
16.052848041666667,0,0xA7,0xE0
16.054255999999999,0,0xDF,0xF8
16.055656124999999,0,0x87,0xFC
16.057064083333334,0,0x98,0xE4
16.058464208333334,0,0x87,0xF8
16.059872166666668,0,0xAB,0xF7
16.061272291666668,0,0x97,0xFC
16.062680208333333,0,0x6A,0x00
16.064080416666666,0,0xD4,0x00
16.065488333333334,0,0xF4,0x00
16.066888500000001,0,0xDF,0x00
16.068296374999999,0,0x20,0x00
16.069696583333332,0,0xDF,0x00
16.071104500000001,0,0x1A,0x00
16.072504708333334,0,0xC5,0x00
16.073912583333332,0,0xC1,0x00
16.075312749999998,0,0x82,0x00
16.076720666666667,0,0x0C,0x40
16.078120875000000,0,0xD7,0x00
16.079528750000001,0,0x05,0x00
16.080928958333335,0,0xD2,0x00
16.082336874999999,0,0xEC,0xC1
16.083737083333332,0,0xD7,0x00
16.085144916666668,0,0x42,0x01
16.086545125000001,0,0x24,0x00
16.087952999999999,0,0x40,0x00
16.089353249999998,0,0xF2,0x01
16.090761083333334,0,0x02,0x00
16.092161333333333,0,0xFC,0x00
16.093569208333335,0,0x94,0x41
16.094969416666668,0,0x70,0x00
16.096377291666666,0,0xCA,0x00
16.097777541666666,0,0x31,0x00
16.099185375000001,0,0x4C,0x85
16.100585625000001,0,0xB0,0x40
16.101993458333332,0,0x04,0xC1
16.103393708333332,0,0xF8,0x00
16.104801541666667,0,0xDD,0x40
16.106201791666667,0,0x72,0x01
16.107792750000002,0,0x13,0x9F
16.109193041666668,0,0x01,0x0F
16.110600833333333,0,0x49,0x97
16.112001124999999,0,0x81,0x4F
16.113408916666668,0,0x01,0xEB
16.114809208333334,0,0x01,0x07
16.116216999999999,0,0x41,0x4F
16.117617291666665,0,0x1D,0x03
16.119025083333334,0,0x03,0x01
16.120425416666667,0,0x3D,0x03
16.121833166666665,0,0x83,0x67
16.123233500000001,0,0x3D,0x11
16.124641250000000,0,0x17,0x19
16.126041583333333,0,0x29,0x01
16.127449333333335,0,0x69,0x0B
16.128849666666667,0,0x15,0x01
16.130257458333332,0,0xF8,0xFA
16.131657833333332,0,0x87,0xFF
16.133065541666667,0,0xBD,0xFF
16.134465875000000,0,0xC7,0xFF
16.135873624999999,0,0xD8,0xFE
16.137274041666668,0,0x87,0xFF
16.138681708333333,0,0x95,0xFF
16.140082083333333,0,0xC7,0xFF
16.141489791666668,0,0xA2,0xFE
16.142890208333334,0,0x87,0xFF
16.144297874999999,0,0xA9,0xFF
16.145698249999999,0,0x87,0xFF
16.147105958333334,0,0x8C,0xBF
16.148506375000000,0,0x87,0xFF
16.149914041666666,0,0xE5,0xFF
16.151314458333335,0,0x9F,0xFF
16.152722125000000,0,0x81,0xC0
16.154122541666666,0,0xFE,0x00
16.155530208333332,0,0x50,0x10
16.156930708333334,0,0xFF,0xC0
16.158521458333333,0,0x10,0x02
16.159921916666665,0,0xFF,0xF0
16.161329541666667,0,0x15,0xF2
16.162730000000000,0,0xDF,0xFC
16.164137624999999,0,0xC8,0xF7
16.165538083333335,0,0x9F,0xFC
16.166945708333333,0,0xF5,0xFD
16.168346166666666,0,0x0F,0xFF
16.169753791666668,0,0x40,0xFF
16.171154291666667,0,0x8F,0xFF
16.172561875000000,0,0x5D,0xFF
16.173962333333332,0,0xE7,0xFF
16.175369958333334,0,0x8E,0x02
16.176770458333333,0,0x70,0x01
16.178178041666666,0,0xCE,0x01
16.179578541666668,0,0x70,0x00
16.180986166666667,0,0xA7,0x01
16.182386624999999,0,0xC0,0x00
16.183794249999998,0,0xC9,0x17
16.185194750000001,0,0xC4,0x00
16.186602333333333,0,0x5B,0xC9
16.188002833333332,0,0xE0,0x30
16.189410416666668,0,0x51,0xF1
16.190810916666667,0,0xE4,0xFC
16.192218499999999,0,0x08,0xF8
16.193619083333335,0,0xE4,0xFF
16.195026583333334,0,0x48,0xFF
16.196427125000000,0,0xF5,0xFF
16.197834666666665,0,0x01,0x83
16.199235208333334,0,0x01,0x01
16.200642750000000,0,0x29,0x45
16.202043291666666,0,0x81,0x83
16.203450833333335,0,0x05,0xC5
16.204851375000001,0,0x01,0x03
16.206258916666666,0,0xE1,0x13
16.207659458333332,0,0x05,0xCF
16.209067000000001,0,0x59,0x33
16.210467583333333,0,0x01,0xCF
16.211875083333332,0,0xDD,0x1F
16.213275666666668,0,0x01,0xFF
16.214683166666667,0,0xA5,0x3D
16.216083749999999,0,0x01,0xFF
16.217491249999998,0,0xA5,0xFF
16.218891833333334,0,0x01,0xFF
16.220299333333333,0,0xE9,0xFF
16.221699958333332,0,0x9F,0xFF
16.223107416666668,0,0x95,0xFF
16.224508041666667,0,0xFF,0xFF
16.225915541666666,0,0xB9,0xFF
16.227316166666668,0,0xFF,0xFF
16.228723625000001,0,0xFF,0xFF
16.230124249999999,0,0xFF,0xFF
16.231531666666665,0,0x00,0x00
16.232932333333334,0,0x00,0x00
16.234339791666667,0,0x00,0x00
16.235740458333332,0,0x00,0x00
16.237147875000002,0,0x00,0x00
16.238548541666667,0,0x00,0x00
16.239955958333333,0,0x00,0x00
16.241478708333332,0,0x00,0x00
16.242886166666668,0,0x0C,0xFF
16.244286833333334,0,0xF3,0xFF
16.245694208333333,0,0xD0,0xFF
16.247094916666665,0,0xFD,0xFF
16.248502291666668,0,0x42,0xFF
16.249903041666666,0,0xFC,0xFF
16.251310416666666,0,0xFF,0xFF
16.252711083333335,0,0xFF,0xFF
16.254118458333334,0,0x00,0x00
16.255519208333332,0,0x00,0x00
16.256926583333332,0,0x00,0x00
16.258327291666667,0,0x00,0x00
16.259734666666667,0,0x00,0x00
16.261135374999999,0,0x00,0x00
16.262542750000001,0,0x00,0x00
16.263943458333333,0,0x00,0x00
16.265350833333333,0,0x1C,0xFF
16.266751583333335,0,0xE2,0xFF
16.268158916666668,0,0x0A,0xFF
16.269559666666666,0,0xF5,0xFF
16.270966999999999,0,0x1F,0xFF
16.272367750000001,0,0xE0,0xFF
16.273775125000000,0,0xFF,0xFF
16.275175874999999,0,0xFF,0xFF
16.276583166666665,0,0x00,0x00
16.277983958333333,0,0x00,0x00
16.279391250000000,0,0x00,0x00
16.280792041666668,0,0x00,0x00
16.282199333333335,0,0x00,0x00
16.283600125000000,0,0x00,0x00
16.285007416666666,0,0x00,0x00
16.286408250000001,0,0x00,0x00
16.287815583333334,0,0xA9,0xFF
16.289216333333332,0,0x01,0xFF
16.290623583333332,0,0x75,0xFF
16.292207541666667,0,0x09,0xFF
16.293614833333333,0,0x6D,0xFF
16.295015625000001,0,0x01,0xFF
16.296422916666668,0,0xFF,0xFF
16.297823749999999,0,0xFF,0xFF
16.299230999999999,0,0x00,0x00
16.300631833333334,0,0x00,0x00
16.302039083333334,0,0x00,0x00
16.303439958333332,0,0x00,0x00
16.304847166666665,0,0x00,0x00
16.306248041666667,0,0x00,0x00
16.307655250000000,0,0x00,0x00
16.309056125000001,0,0x00,0x00
16.310463375000001,0,0xFF,0xFF
16.311864208333333,0,0xFF,0xFF
16.313271416666666,0,0xFF,0xFF
16.314672333333334,0,0xFF,0xFF
16.316079500000001,0,0xFF,0xBB
16.317480416666665,0,0xFF,0xFF
16.318887624999999,0,0xFF,0xFD
16.320288500000000,0,0xFF,0xFF
16.321695708333333,0,0xFD,0xF7
16.323096583333335,0,0xFE,0xFF
16.324503791666668,0,0xFF,0xFF
16.325904708333333,0,0xFC,0xFF
16.327311874999999,0,0xFD,0xFD
16.328712791666668,0,0xF8,0xFF
16.330119958333334,0,0xD6,0xD7
16.331520916666665,0,0xF9,0xFF
16.332928041666666,0,0xFF,0xFF
16.334329000000000,0,0xFF,0xFF
16.335736125000000,0,0xCD,0xFF
16.337137083333332,0,0xF0,0xFF
16.338544208333332,0,0x4E,0xA9
16.339945208333333,0,0x81,0xFF
16.341352291666666,0,0xE3,0xFF
16.342753250000001,0,0x1D,0xFF
16.344160375000001,0,0x76,0x98
16.345561374999999,0,0x09,0xFF
16.346968458333333,0,0x80,0x77
16.348369458333334,0,0x7F,0xFD
16.349776541666667,0,0xCE,0x20
16.351177541666665,0,0x31,0xFD
16.352584624999999,0,0x0A,0xD5
16.353985666666667,0,0xF5,0xF9
16.355392750000000,0,0xFF,0xFF
16.356793750000001,0,0xFF,0xFF
16.358200791666668,0,0xD9,0x77
16.359601833333333,0,0x07,0xFF
16.361008875000000,0,0xA3,0x30
16.362409916666667,0,0x40,0xFF
16.363817000000001,0,0xB3,0x55
16.365217999999999,0,0x4C,0xFF
16.366625083333332,0,0x37,0xAA
16.368026125000000,0,0xC8,0xF7
16.369433166666667,0,0x82,0x75
16.370834208333335,0,0x7D,0xFF
16.372241249999998,0,0xF1,0x09
16.373642291666666,0,0x0E,0xFF
16.375049333333333,0,0xA8,0x55
16.376450416666668,0,0x57,0xFF
16.377857416666668,0,0xFF,0xFF
16.379258499999999,0,0xFF,0xFF
16.380665499999999,0,0xFF,0xFF
16.382066583333334,0,0xFF,0xFF
16.383473583333334,0,0x7F,0xB3
16.384874666666665,0,0xFF,0xFF
16.386281666666665,0,0xFF,0xFD
16.387682750000000,0,0x7F,0xFF
16.389089750000000,0,0x5F,0x45
16.390490875000001,0,0x3F,0xFF
16.391897875000002,0,0xFF,0xDF
16.393298958333332,0,0x1F,0xFF
16.394705958333333,0,0xDF,0xFB
16.396107041666667,0,0x0F,0xFF
16.397514041666668,0,0x37,0xDF
16.398915166666665,0,0xCF,0xFF
16.400322124999999,0,0xFF,0xBD
16.401723250000000,0,0xF0,0xFF
16.403130208333334,0,0xE8,0xFF
16.404531375000001,0,0xF7,0xFF
16.405938291666665,0,0xE6,0xB2
16.407339499999999,0,0xF1,0xFF
16.408746375000000,0,0xE6,0xD5
16.410147541666667,0,0xF1,0xFF
16.411554458333335,0,0xE8,0xA8
16.412955708333332,0,0xE7,0xFF
16.414362541666666,0,0xFA,0xD5
16.415763750000000,0,0xE5,0xFE
16.417170666666667,0,0xEE,0xC0
16.418571875000001,0,0xE1,0xFE
16.419978749999999,0,0xF8,0xD6
16.421379958333333,0,0xE7,0xFC
16.422786791666667,0,0x57,0x71
16.424188000000001,0,0xA8,0xF8
16.425594916666668,0,0x28,0x59
16.426996124999999,0,0xD7,0xF4
16.428402999999999,0,0xFF,0x13
16.429804208333334,0,0x00,0xE0
16.431211083333334,0,0x02,0x10
16.432612333333335,0,0xFD,0x80
16.434019166666666,0,0x7F,0x03
16.435420375000000,0,0x80,0x00
16.436827250000000,0,0xAA,0x00
16.438228500000001,0,0x55,0x01
16.439635333333332,0,0xAF,0x00
16.441036583333332,0,0x50,0x00
16.442443416666666,0,0x1B,0x45
16.443844666666667,0,0xE4,0x00
16.445251500000001,0,0x76,0x9B
16.446652791666665,0,0x89,0x7F
16.448059583333333,0,0x82,0x95
16.449460875000000,0,0x7D,0x7F
16.450867666666667,0,0xEF,0x8C
16.452268958333335,0,0x10,0x7F
16.453675791666665,0,0xA8,0xF7
16.455077041666666,0,0x57,0x7F
16.456483833333333,0,0xED,0x04
16.457885125000001,0,0x12,0xFF
16.459475083333334,0,0xA8,0x57
16.460876416666668,0,0xD7,0xFF
16.462283166666666,0,0xB9,0x89
16.463684458333333,0,0xC6,0x77
16.465091250000000,0,0xEC,0x9D
16.466492583333334,0,0x13,0x67
16.467899333333332,0,0x6F,0x6D
16.469300666666665,0,0x87,0xFF
16.470707416666666,0,0x37,0xFD
16.472108750000000,0,0xC7,0xFF
16.473515500000001,0,0xB3,0xA7
16.474916833333332,0,0x47,0xFF
16.476323583333333,0,0x23,0xD5
16.477724958333333,0,0xD7,0xFF
16.479131666666667,0,0x57,0x01
16.480533041666668,0,0xA3,0xFF
16.481939749999999,0,0xAF,0x77
16.483341124999999,0,0x53,0xFF
16.484747833333333,0,0xBF,0x01
16.486149208333334,0,0x43,0xFF
16.487555916666668,0,0x03,0x5D
16.488957333333332,0,0xF7,0xFF
16.490364041666666,0,0xF7,0x82
16.491765416666667,0,0xE0,0xFC
16.493172166666668,0,0xC2,0xD7
16.494573541666668,0,0xF5,0xFC
16.495980208333332,0,0xCD,0x81
16.497381624999999,0,0xF2,0xFC
16.498788333333334,0,0xFF,0xC2
16.500189708333334,0,0xF0,0xFD
16.501596374999998,0,0xF2,0x83
16.502997833333332,0,0xF9,0xFC
16.504404458333333,0,0xF2,0x88
16.505805958333333,0,0xFD,0xF7
16.507212541666668,0,0xFA,0xF0
16.508614041666668,0,0xFC,0x80
16.510142750000000,0,0xDC,0xD2
16.511544208333333,0,0xFF,0x84
16.512950791666668,0,0x4F,0x34
16.514352291666668,0,0xB0,0x42
16.515758916666666,0,0xA8,0x74
16.517160375000000,0,0x55,0xC9
16.518566958333334,0,0x77,0x09
16.519968458333334,0,0x88,0xF0
16.521375083333332,0,0x22,0x13
16.522776583333332,0,0xDD,0xF0
16.524183166666667,0,0x0E,0x53
16.525584666666667,0,0xF1,0xA0
16.526991249999998,0,0x8A,0x80
16.528392749999998,0,0x75,0x73
16.529799333333333,0,0xB0,0x51
16.531200833333333,0,0x4F,0x20
16.532607416666668,0,0x31,0x51
16.534008916666668,0,0x4F,0x20
16.535415499999999,0,0xB9,0x96
16.536816999999999,0,0x46,0x61
16.538223625000001,0,0xAA,0x80
16.539625125000001,0,0x55,0x71
16.541031666666665,0,0xCB,0x92
16.542433208333332,0,0x34,0x61
16.543839750000000,0,0x04,0xCC
16.545241333333333,0,0xFB,0x73
16.546647833333335,0,0xB9,0x94
16.548049416666668,0,0x46,0x63
16.549455958333333,0,0xA8,0xD4
16.550857499999999,0,0x57,0x61
16.552264000000001,0,0x87,0x5C
16.553665583333334,0,0x78,0x20
16.555072124999999,0,0xA7,0x52
16.556473666666665,0,0x58,0xFD
16.557880208333334,0,0x73,0x83
16.559281791666667,0,0x87,0xFF
16.560688291666665,0,0xB3,0xD5
16.562089875000002,0,0x47,0xFF
16.563496333333333,0,0x7B,0x01
16.564897958333333,0,0x87,0xFF
16.566304458333335,0,0x7F,0xD5
16.567706083333334,0,0x87,0x7F
16.569112541666666,0,0x77,0x81
16.570514166666666,0,0x8F,0x3F
16.571920625000001,0,0xEF,0x37
16.573322250000000,0,0x1F,0xDF
16.574728708333332,0,0x3F,0xAB
16.576130333333332,0,0x1F,0xDF
16.577536791666667,0,0x1F,0x1F
16.578938458333333,0,0x7F,0xFF
16.580344875000002,0,0xFE,0xA2
16.581746625000001,0,0xFF,0x80
16.583152999999999,0,0xFF,0xFF
16.584554624999999,0,0xFF,0x80
16.585961083333334,0,0xFB,0xFE
16.587362750000000,0,0xFF,0x81
16.588769166666665,0,0xFF,0xFF
16.590170833333332,0,0xFF,0xFF
16.591577208333334,0,0x00,0x00
16.593162041666666,0,0x00,0x00
16.594568458333335,0,0x00,0x00
16.595970166666667,0,0x00,0x00
16.597376541666666,0,0x00,0x00
16.598778249999999,0,0x00,0x00
16.600184625000001,0,0x00,0x00
16.601586333333334,0,0x00,0x00
16.602992749999999,0,0xFC,0x40
16.604394458333335,0,0x03,0x20
16.605800833333333,0,0xB6,0x80
16.607202541666666,0,0xC1,0x71
16.608608875000002,0,0xE7,0x10
16.610010625000001,0,0xF8,0xE1
16.611416999999999,0,0xFF,0xFF
16.612818708333332,0,0xFF,0xFF
16.614225041666668,0,0x00,0x00
16.615626833333334,0,0x00,0x00
16.617033166666666,0,0x00,0x00
16.618434916666665,0,0x00,0x00
16.619841250000000,0,0x00,0x00
16.621243000000000,0,0x00,0x00
16.622649333333332,0,0x00,0x00
16.624051125000001,0,0x00,0x00
16.625457416666666,0,0xBE,0x00
16.626859208333332,0,0x40,0xFF
16.628265500000001,0,0xB6,0x55
16.629667291666667,0,0x41,0xFF
16.631073583333333,0,0xF3,0x00
16.632475374999999,0,0x0F,0xFF
16.633881666666667,0,0xFF,0xFF
16.635283500000000,0,0xFF,0xFF
16.636689749999999,0,0x00,0x00
16.638091583333335,0,0x00,0x00
16.639497833333333,0,0x00,0x00
16.640899666666666,0,0x00,0x00
16.642305916666668,0,0x00,0x00
16.643829875000002,0,0x00,0x00
16.645236125000000,0,0x00,0x00
16.646637958333333,0,0x00,0x00
16.648044208333335,0,0x7F,0x41
16.649446041666668,0,0xFF,0xFF
16.650852291666666,0,0xFF,0xF5
16.652254166666665,0,0xFF,0xFF
16.653660333333335,0,0xFF,0x09
16.655062250000000,0,0xFF,0xFF
16.656468458333332,0,0xFF,0xFF
16.657870333333332,0,0xFF,0xFF
16.659276541666667,0,0x00,0x00
16.660678416666666,0,0x00,0x00
16.662084624999999,0,0x00,0x00
16.663486541666668,0,0x00,0x00
16.664892708333333,0,0x00,0x00
16.666294624999999,0,0x00,0x00
16.667700791666668,0,0x00,0x00
16.669102708333334,0,0x00,0x00
16.670508916666666,0,0xFF,0xFF
16.671910791666665,0,0xFF,0xFF
16.673316958333334,0,0xFF,0xFD
16.674718916666667,0,0xFF,0xFF
16.676125041666666,0,0xFF,0xC6
16.677527000000001,0,0xFF,0xB9
16.678933125000000,0,0xFF,0xE2
16.680335083333333,0,0xFF,0x9D
16.681741250000002,0,0xFE,0xE3
16.683143208333334,0,0xFF,0x90
16.684549333333333,0,0xFF,0xE3
16.685951291666665,0,0xFC,0x94
16.687357458333334,0,0xF6,0xBF
16.688759416666667,0,0xF8,0x80
16.690165541666666,0,0xF5,0x85
16.691567458333335,0,0xF8,0xB2
16.692973625000000,0,0xFF,0xFF
16.694375583333333,0,0xFF,0xFF
16.695781666666665,0,0xF2,0xCD
16.697183666666668,0,0xFD,0x12
16.698589750000000,0,0xD4,0xDF
16.699991791666665,0,0xE3,0x00
16.701397833333335,0,0x0F,0x04
16.702799875000000,0,0xF0,0xD1
16.704205916666666,0,0x30,0xB3
16.705607958333335,0,0x00,0x00
16.707014041666667,0,0x2E,0x8F
16.708416041666666,0,0x41,0x74
16.709822083333332,0,0x8C,0x38
16.711224125000001,0,0x43,0x07
16.712630166666667,0,0x57,0x73
16.714032208333332,0,0x81,0x0C
16.715438291666668,0,0xFF,0xFF
16.716840333333334,0,0xFF,0xFF
16.718246375000000,0,0xA7,0xE0
16.719648416666665,0,0x5F,0x13
16.721054416666668,0,0x1D,0xFA
16.722456500000000,0,0xE3,0x05
16.723862499999999,0,0xD8,0x1E
16.725264625000001,0,0x07,0x01
16.726670583333334,0,0x84,0x63
16.728072708333332,0,0x02,0x04
16.729478708333332,0,0x36,0xBC
16.730880833333334,0,0xC1,0x40
16.732286791666667,0,0x1D,0xB8
16.733688874999999,0,0xE0,0x40
16.735094875000001,0,0x41,0xA3
16.736497000000000,0,0xF0,0x5C
16.737902999999999,0,0xFF,0xFF
16.739305083333335,0,0xFF,0xFF
16.740711041666668,0,0xFF,0xAB
16.742113166666666,0,0xFF,0x55
16.743519124999999,0,0xFF,0xAF
16.744921250000001,0,0xFF,0x11
16.746327208333334,0,0x7F,0x57
16.747729374999999,0,0xFF,0x09
16.749135291666665,0,0x1F,0xAB
16.750537458333334,0,0x7F,0x45
16.751943375000000,0,0x6F,0xCB
16.753345541666668,0,0x1F,0x05
16.754751458333335,0,0x67,0x5B
16.756153666666666,0,0x8F,0x05
16.757559541666666,0,0x5F,0x3D
16.758961750000001,0,0x87,0x43
16.760367666666667,0,0xE8,0x9C
16.761769874999999,0,0xF0,0xA2
16.763175791666665,0,0xED,0x8D
16.764577916666667,0,0xF0,0xF2
16.765983875000000,0,0xF1,0x86
16.767386041666665,0,0xE0,0xE8
16.768791958333335,0,0xED,0x98
16.770194125000000,0,0xF0,0xC4
16.771600041666666,0,0xE1,0xBF
16.773002208333335,0,0xF0,0x80
16.774408125000001,0,0xF4,0xEE
16.775810374999999,0,0xF3,0x91
16.777216166666665,0,0xF1,0xFD
16.778618416666667,0,0xFE,0x80
16.780024291666667,0,0xF0,0xA4
16.781426541666665,0,0xFC,0xDB
16.782832333333332,0,0x0F,0x2E
16.784234583333333,0,0x80,0x51
16.785640416666666,0,0x04,0x9B
16.787042708333335,0,0x80,0x64
16.788448541666668,0,0x80,0x1C
16.789850791666666,0,0x00,0x20
16.791256624999999,0,0x14,0x9E
16.792658916666667,0,0x80,0x60
16.794064708333334,0,0x80,0x3E
16.795466999999999,0,0x00,0xC0
16.796872833333332,0,0xA3,0x97
16.798275041666667,0,0x40,0x60
16.799680916666667,0,0x90,0xB2
16.801083166666668,0,0x60,0x08
16.802488958333335,0,0x19,0xD9
16.803891250000000,0,0x74,0x26
16.805297083333333,0,0xF0,0xFA
16.806699375000001,0,0x00,0x04
16.808105125000001,0,0x20,0xCB
16.809507458333332,0,0x10,0x14
16.811157416666667,0,0x0A,0x38
16.812559708333332,0,0x00,0x06
16.813965499999998,0,0x14,0x1C
16.815367833333333,0,0x00,0x03
16.816773541666667,0,0x09,0x39
16.818175916666668,0,0x00,0x06
16.819581666666668,0,0x66,0x31
16.820983999999999,0,0x01,0x0E
16.822389749999999,0,0x84,0xBD
16.823792125000001,0,0x03,0x02
16.825197833333334,0,0x58,0x8F
16.826600208333332,0,0x07,0x74
16.828005916666665,0,0x0F,0x97
16.829408291666667,0,0xC3,0x49
16.830814000000000,0,0xD3,0xBD
16.832216375000002,0,0x47,0x01
16.833622083333335,0,0x9B,0x1D
16.835024458333333,0,0x47,0x01
16.836430166666666,0,0xEB,0x09
16.837832583333334,0,0x47,0x95
16.839238250000001,0,0x53,0x95
16.840640666666665,0,0xA7,0x01
16.842046333333332,0,0x1F,0x71
16.843448750000000,0,0xF7,0x09
16.845098583333332,0,0x67,0x4D
16.846501041666667,0,0x9F,0x23
16.847906708333333,0,0x9F,0xAB
16.849309125000001,0,0x07,0x05
16.850714791666668,0,0xF0,0xEE
16.852117291666666,0,0xF8,0x90
16.853522916666666,0,0xFD,0xE7
16.854925333333334,0,0xF8,0xD8
16.856331000000001,0,0xFC,0xB5
16.857733458333332,0,0xF8,0xC2
16.859139083333332,0,0xF9,0x93
16.860541541666667,0,0xFC,0xE4
16.861947166666667,0,0xFB,0x8B
16.863349625000001,0,0xFC,0xE4
16.864755250000002,0,0xFC,0xD9
16.866157708333333,0,0xFF,0xE4
16.867563333333333,0,0xFC,0x9B
16.868965833333334,0,0xFF,0xE0
16.870371416666668,0,0xFF,0x80
16.871773916666665,0,0xFF,0xDF
16.873179458333333,0,0x2B,0x77
16.874581958333334,0,0x1C,0x08
16.875987583333334,0,0x10,0x21
16.877390083333335,0,0x0F,0x5E
16.878795666666665,0,0x8C,0x5D
16.880198166666666,0,0x03,0x02
16.881603750000000,0,0xF6,0xB7
16.883006291666668,0,0x01,0x04
16.884411833333335,0,0xFB,0x5A
16.885814374999999,0,0x00,0xA4
16.887219916666666,0,0x74,0x74
16.888622541666667,0,0x81,0x80
16.890028000000001,0,0x79,0x77
16.891430583333332,0,0x80,0x80
16.892836083333332,0,0x30,0x6E
16.894238708333333,0,0xC5,0xD1
16.895644166666667,0,0x20,0x63
16.897046750000001,0,0x1F,0x9C
16.898452291666668,0,0x97,0x8B
16.899854833333332,0,0x78,0x74
16.901260375000000,0,0xC9,0x3C
16.902662916666667,0,0x30,0xC0
16.904068416666668,0,0x32,0x05
16.905471041666665,0,0xC1,0x72
16.906876499999999,0,0x27,0x31
16.908279125000000,0,0xC0,0x02
16.909684625000001,0,0x37,0xE3
16.911087208333335,0,0xC0,0x04
16.912492708333332,0,0x07,0x2A
16.913895333333333,0,0xC0,0x85
16.915300791666667,0,0x7C,0x8F
16.916703416666667,0,0xC1,0x70
16.918108875000001,0,0x2F,0x3F
16.919511499999999,0,0x07,0x01
16.920916958333333,0,0xC7,0x33
16.922319583333334,0,0x1F,0x05
16.923725041666668,0,0xE7,0x7B
16.925127666666668,0,0x0F,0x01
16.926533124999999,0,0xD7,0x03
16.928057875000000,0,0x0F,0xD1
16.929463291666668,0,0xFF,0xF1
16.930865958333332,0,0x0F,0x03
16.932271374999999,0,0xDF,0x91
16.933674041666666,0,0x7F,0x47
16.935079458333334,0,0xBF,0x51
16.936482166666668,0,0x7F,0xAD
16.937887541666665,0,0x7F,0x47
16.939290249999999,0,0xFF,0xB9
16.940695666666667,0,0xFF,0xB0
16.942098375000000,0,0xFF,0x8F
16.943503750000001,0,0xFF,0xA1
16.944906458333332,0,0xFF,0x97
16.946311833333333,0,0xFF,0xA4
16.947714541666667,0,0xFF,0x83
16.949119916666668,0,0xFF,0xFF
16.950522625000001,0,0xFF,0xFF
16.951927999999999,0,0x00,0x00
16.953330749999999,0,0x00,0x00
16.954736083333334,0,0x00,0x00
16.956138833333334,0,0x00,0x00
16.957544166666668,0,0x00,0x00
16.958946916666665,0,0x00,0x00
16.960352250000000,0,0x00,0x00
16.961755041666667,0,0x00,0x00
16.963160375000001,0,0x99,0x5C
16.964563125000002,0,0xE4,0x81
16.965968416666666,0,0xF5,0x26
16.967371208333333,0,0xC0,0xD9
16.968776500000001,0,0xE3,0x78
16.970179333333334,0,0xFC,0x81
16.971584624999998,0,0xFF,0xFF
16.972987416666665,0,0xFF,0xFF
16.974392666666667,0,0x00,0x00
16.975795500000000,0,0x00,0x00
16.977200791666668,0,0x00,0x00
16.978725666666666,0,0x00,0x00
16.980130958333334,0,0x00,0x00
16.981533791666667,0,0x00,0x00
16.982939041666668,0,0x00,0x00
16.984341874999998,0,0x00,0x00
16.985747125000000,0,0x29,0xFA
16.987149958333333,0,0xC0,0x04
16.988555208333334,0,0x3E,0x58
16.989958125000001,0,0xC1,0xC4
16.991363291666666,0,0x73,0xB9
16.992766124999999,0,0x0F,0x40
16.994171416666667,0,0xFF,0xFF
16.995574250000001,0,0xFF,0xFF
16.996979458333332,0,0x00,0x00
16.998382333333332,0,0x00,0x00
16.999787541666667,0,0x00,0x00
17.001190458333333,0,0x00,0x00
17.002595666666668,0,0x00,0x00
17.003998541666668,0,0x00,0x00
17.005403749999999,0,0x00,0x00
17.006806624999999,0,0x00,0x00
17.008211833333334,0,0x7F,0x0D
17.009614708333334,0,0xFF,0xF1
17.011019874999999,0,0x7F,0x4D
17.012422833333332,0,0xFF,0xF1
17.013828000000000,0,0xFF,0x3F
17.015230916666667,0,0xFF,0xC1
17.016636083333335,0,0xFF,0xFF
17.018039000000002,0,0xFF,0xFF
17.019444166666666,0,0x00,0x00
17.020847125000000,0,0x00,0x00
17.022252250000001,0,0x00,0x00
17.023655208333334,0,0x00,0x00
17.025060333333332,0,0x00,0x00
17.026463291666666,0,0x00,0x00
17.027868416666667,0,0x00,0x00
17.029271375000000,0,0x00,0x00
17.030676541666665,0,0xFF,0xFF
17.032079499999998,0,0xFF,0xFF
17.033484583333333,0,0xDC,0xD5
17.034887583333333,0,0x80,0xFF
17.036292708333335,0,0x90,0x80
17.037695708333334,0,0x80,0xFF
17.039100791666666,0,0xF4,0xD4
17.040503833333332,0,0x80,0xFF
17.041908875000001,0,0xFC,0x81
17.043311875000001,0,0x83,0xFE
17.044716958333332,0,0xC0,0xC1
17.046119958333332,0,0x87,0xFE
17.047525041666667,0,0x88,0x87
17.048928083333333,0,0x87,0xF8
17.050333125000002,0,0xD5,0xC3
17.051736166666668,0,0x8F,0xFC
17.053141208333333,0,0xFF,0xFF
17.054544249999999,0,0xFF,0xFF
17.055949291666668,0,0x44,0x40
17.057352333333334,0,0x00,0xFF
17.058757374999999,0,0x20,0x10
17.060160458333332,0,0x00,0xEF
17.061565500000000,0,0x97,0xF9
17.062968500000000,0,0x78,0x00
17.064373583333332,0,0x01,0xFF
17.065776625000002,0,0xFE,0x00
17.067181625000000,0,0x19,0x51
17.068584708333333,0,0xE7,0x84
17.069989708333335,0,0x20,0xDA
17.071392833333334,0,0x80,0x05
17.072797791666666,0,0x74,0x0B
17.074200916666666,0,0x80,0x34
17.075605958333334,0,0xFF,0xFF
17.077009000000000,0,0xFF,0xFF
17.078413999999999,0,0x85,0x85
17.079817083333332,0,0x1F,0x7F
17.081222041666667,0,0xC3,0x40
17.082625166666666,0,0x3F,0xBF
17.084030125000002,0,0x17,0x41
17.085433250000001,0,0x7F,0xBF
17.086838250000000,0,0xA6,0xF0
17.088241374999999,0,0x7F,0x0F
17.089646333333334,0,0x55,0x2D
17.091049458333334,0,0xFF,0xD7
17.092454416666666,0,0x02,0xA8
17.093857583333332,0,0xFC,0x17
17.095262500000000,0,0x50,0x30
17.096665666666667,0,0xFC,0x4F
17.098070624999998,0,0xFF,0xFF
17.099473750000001,0,0xFF,0xFF
17.100878666666667,0,0x21,0xDF
17.102281833333333,0,0xC1,0xFF
17.103686750000001,0,0x91,0x03
17.105089958333334,0,0xE1,0xFF
17.106494833333333,0,0x41,0x15
17.107898041666665,0,0xF1,0xFF
17.109302916666667,0,0x19,0x41
17.110706125000000,0,0xE1,0xBF
17.112110999999999,0,0x09,0xB3
17.113514250000001,0,0xF1,0x5D
17.114919083333334,0,0x99,0x49
17.116322291666666,0,0x61,0xB1
17.117727208333335,0,0x29,0xA9
17.119130416666668,0,0x51,0x51
17.120535291666666,0,0xD4,0x87
17.121938541666665,0,0x8F,0xF8
17.123343375000001,0,0xA4,0x83
17.124746625000000,0,0xDF,0xFC
17.126151458333332,0,0xC0,0x8F
17.127554708333335,0,0xBF,0xF0
17.128959541666667,0,0xD4,0xCB
17.130362833333333,0,0xFF,0xF4
17.131767624999998,0,0x89,0xBD
17.133170875000001,0,0xF6,0xC2
17.134575750000000,0,0xCC,0xC5
17.135978999999999,0,0xF7,0xFE
17.137383833333335,0,0x80,0xA3
17.138787083333334,0,0xFF,0xDC
17.140191916666666,0,0xDC,0xD0
17.141595208333332,0,0xFF,0xEF
17.142999958333334,0,0x1E,0xB6
17.144403291666666,0,0xE0,0x08
17.145808083333332,0,0x0E,0x2B
17.147211375000001,0,0xF1,0x14
17.148616166666667,0,0x94,0x31
17.150019458333333,0,0x60,0x0C
17.151424250000002,0,0x4B,0x53
17.152827541666667,0,0x94,0x84
17.154232374999999,0,0xD7,0xB7
17.155635624999999,0,0x08,0x00
17.157040416666668,0,0xEC,0x7F
17.158443750000000,0,0x10,0x80
17.159848541666666,0,0xBC,0xD0
17.161251833333335,0,0x00,0x09
17.162778708333335,0,0x8A,0xD9
17.164182041666667,0,0x74,0x67
17.165586749999999,0,0x86,0x7D
17.166990125000002,0,0x78,0x02
17.168394875000001,0,0x9F,0x62
17.169798208333333,0,0x70,0x1D
17.171202916666665,0,0xEE,0x72
17.172606333333334,0,0x10,0x8C
17.174011083333333,0,0xBF,0x8F
17.175414374999999,0,0x10,0x54
17.176819166666668,0,0xAB,0xF0
17.178222500000000,0,0x10,0x1C
17.179627208333333,0,0x46,0xE3
17.181030583333332,0,0x19,0x5C
17.182435291666668,0,0x17,0xC5
17.183838666666666,0,0x08,0x38
17.185243374999999,0,0x43,0x87
17.186646750000001,0,0x1C,0x78
17.188051500000000,0,0xF1,0xE9
17.189454874999999,0,0x01,0x11
17.190859541666665,0,0xF1,0xDD
17.192262958333334,0,0x01,0x01
17.193667625000000,0,0x01,0x79
17.195071041666665,0,0x01,0x01
17.196475708333335,0,0xD1,0x99
17.197879166666667,0,0x01,0x07
17.199283791666666,0,0x01,0x49
17.200687250000001,0,0x01,0x07
17.202091875000001,0,0xC1,0x51
17.203495333333333,0,0x01,0x07
17.204899958333332,0,0x01,0xE5
17.206303416666668,0,0x01,0x03
17.207708041666667,0,0x11,0x51
17.209111541666665,0,0x01,0x07
17.210516125000002,0,0x89,0xD4
17.211919666666667,0,0xFE,0xAB
17.213446333333334,0,0xDD,0xDD
17.214849833333332,0,0xFF,0xFF
17.216254416666665,0,0x98,0x91
17.217657958333334,0,0xFF,0xEE
17.219062500000000,0,0xDC,0xCA
17.220466083333335,0,0xFF,0xF5
17.221870583333335,0,0xCA,0x9B
17.223274125000000,0,0xFC,0xE4
17.224678708333332,0,0xD2,0xEA
17.226082250000001,0,0xFC,0xF5
17.227486791666667,0,0x8B,0xCB
17.228890291666666,0,0xF0,0xF4
17.230294874999998,0,0xCD,0xD3
17.231698375000001,0,0xF0,0xFC
17.233102916666667,0,0x7F,0x58
17.234506458333332,0,0x00,0xA7
17.235911000000002,0,0x85,0x54
17.237314583333333,0,0x40,0xFF
17.238719083333333,0,0x2A,0x18
17.240122708333335,0,0xC1,0xE7
17.241527166666668,0,0x41,0xFF
17.242930749999999,0,0xFF,0x00
17.244335291666665,0,0x40,0xDA
17.245738875000001,0,0x3F,0x01
17.247143333333334,0,0x04,0x57
17.248546958333332,0,0x1F,0x00
17.249951458333335,0,0x30,0x6E
17.251355041666667,0,0x0E,0x00
17.252759541666666,0,0x4F,0x1F
17.254163125000002,0,0x14,0x00
17.255567625000001,0,0xEC,0x03
17.256971249999999,0,0x10,0xFC
17.258375708333332,0,0x04,0x91
17.259779333333334,0,0xF0,0x7C
17.261183791666667,0,0x60,0x40
17.262587499999999,0,0x80,0xBE
17.263991874999999,0,0x52,0x87
17.265395541666667,0,0x80,0x7C
17.266800000000000,0,0x80,0xD7
17.268203625000002,0,0x00,0x08
17.269608083333335,0,0xC0,0x51
17.271011708333333,0,0x00,0x06
17.272416166666666,0,0xC0,0xCA
17.273819833333334,0,0x00,0x01
17.275224208333334,0,0x41,0xD0
17.276627874999999,0,0x00,0x07
17.278032333333332,0,0x01,0xE1
17.279436000000000,0,0x01,0x07
17.280840375000000,0,0x51,0x5B
17.282244083333332,0,0x01,0x05
17.283648458333332,0,0x01,0x2B
17.285052166666667,0,0x01,0x05
17.286456583333333,0,0x41,0xF5
17.287860291666668,0,0x01,0x0F
17.289264666666668,0,0x01,0x51
17.290668374999999,0,0x01,0x0F
17.292072749999999,0,0x51,0x65
17.293476458333334,0,0x01,0x9F
17.294880833333334,0,0x01,0xF3
17.296467708333335,0,0x01,0x0F
17.297872041666668,0,0x41,0x85
17.299275791666666,0,0x01,0x7F
17.300680125000000,0,0x8C,0x81
17.302083916666668,0,0xF0,0xFE
17.303488291666667,0,0xC3,0xD5
17.304891999999999,0,0xFC,0xFE
17.306296374999999,0,0x8E,0x81
17.307700125000000,0,0xF0,0xFE
17.309104458333334,0,0xFF,0xFF
17.310508166666665,0,0xFF,0xFF
17.311912458333332,0,0x00,0x00
17.313316291666666,0,0x00,0x00
17.314720583333333,0,0x00,0x00
17.316124375000001,0,0x00,0x00
17.317528666666668,0,0x00,0x00
17.318932458333332,0,0x00,0x00
17.320336749999999,0,0x00,0x00
17.321740541666667,0,0x00,0x00
17.323144833333334,0,0x1C,0x4F
17.324548666666665,0,0x00,0x00
17.325952916666665,0,0x71,0x85
17.327356750000000,0,0x0C,0x00
17.328761041666667,0,0x30,0x80
17.330164833333335,0,0x0C,0x00
17.331569125000001,0,0xFF,0xFF
17.332972958333333,0,0xFF,0xFF
17.334377166666666,0,0x00,0x00
17.335781041666667,0,0x00,0x00
17.337185250000001,0,0x00,0x00
17.338589124999999,0,0x00,0x00
17.339993374999999,0,0x00,0x00
17.341397208333333,0,0x00,0x00
17.342801458333334,0,0x00,0x00
17.344205333333335,0,0x00,0x00
17.345609541666665,0,0x00,0x08
17.347135500000000,0,0x00,0x01
17.348539708333334,0,0x50,0x37
17.349943583333335,0,0x00,0x00
17.351347791666665,0,0x00,0x0F
17.352751708333333,0,0x00,0x00
17.354155916666667,0,0xFF,0xFF
17.355559791666668,0,0xFF,0xFF
17.356963958333335,0,0x00,0x00
17.358367874999999,0,0x00,0x00
17.359772041666666,0,0x00,0x00
17.361175958333334,0,0x00,0x00
17.362580125000001,0,0x00,0x00
17.363984083333332,0,0x00,0x00
17.365388208333332,0,0x00,0x00
17.366792166666666,0,0x00,0x00
17.368196291666667,0,0x01,0x61
17.369600250000001,0,0x01,0x9F
17.371004374999998,0,0x05,0x05
17.372408333333333,0,0x01,0xFF
17.373812458333333,0,0x01,0x81
17.375216416666667,0,0x01,0x7F
17.376620583333334,0,0xFF,0xFF
17.378024541666665,0,0xFF,0xFF
17.379428624999999,0,0x00,0x00
17.380832625000000,0,0x00,0x00
17.382236750000001,0,0x00,0x00
17.383640750000001,0,0x00,0x00
17.385044833333332,0,0x00,0x00
17.386448833333333,0,0x00,0x00
17.387852916666667,0,0x00,0x00
17.389256916666668,0,0x00,0x00
20.144539333333334,0,0xFF,0x00
20.145951333333333,0,0x00,0x9B
20.147347416666666,0,0x00,0x00
20.148759458333334,0,0x00,0x00
20.150155500000000,0,0x00,0x00
20.151567541666665,0,0x00,0x00
20.152963583333332,0,0x00,0x00
20.154375625000000,0,0x00,0x00
20.155771666666666,0,0x00,0x00
20.157183750000002,0,0x00,0x00
20.158579750000001,0,0x00,0x00
20.159991833333333,0,0x00,0x00
20.161387833333333,0,0x00,0x00
20.162799916666668,0,0x00,0x00
20.164195916666667,0,0x00,0x00
20.165608041666665,0,0x00,0x00
20.167003999999999,0,0x00,0x00
20.168416125000000,0,0x00,0x00
20.169812083333333,0,0x00,0x00
20.171224208333335,0,0x00,0x00
20.172620208333335,0,0x00,0x00
20.174032291666666,0,0x00,0x00
20.175428291666666,0,0x00,0x00
20.176840416666668,0,0x00,0x00
20.178236375000001,0,0x00,0x00
20.179648499999999,0,0x00,0x00
20.181044458333332,0,0x00,0x00
20.182456583333334,0,0x00,0x00
20.183852541666667,0,0x00,0x00
20.185264666666665,0,0x01,0x00
20.186660624999998,0,0x00,0x01
20.188072791666666,0,0xFF,0xFF
20.189468708333333,0,0xFF,0xFF
20.190880875000001,0,0xFF,0xFF
20.192276791666668,0,0x80,0xFF
20.193872124999999,0,0xCE,0xFB
20.195268041666665,0,0x80,0xFF
20.196680208333333,0,0xFA,0xFC
20.198076166666667,0,0x85,0xFF
20.199488291666668,0,0xB8,0x80
20.200884250000001,0,0x87,0xFE
20.202296375000000,0,0xF5,0xBA
20.203692291666666,0,0x8F,0xC4
20.205104500000001,0,0xD4,0xB4
20.206500416666668,0,0x8F,0xC8
20.207912583333332,0,0xB7,0xA5
20.209308458333332,0,0xDE,0xD8
20.210720708333334,0,0xFF,0xFF
20.212116541666667,0,0xFF,0xFF
20.213528749999998,0,0x00,0x8D
20.214924624999998,0,0x00,0xC0
20.216336875000000,0,0x80,0x17
20.217732708333333,0,0x00,0x88
20.219144958333334,0,0x45,0x2D
20.220540791666668,0,0xF8,0x10
20.221953041666666,0,0x03,0xDF
20.223348874999999,0,0xFC,0x20
20.224761166666667,0,0xC0,0x09
20.226156958333334,0,0x07,0x74
20.227569249999998,0,0x64,0xB0
20.228965041666665,0,0x01,0x48
20.230377333333333,0,0x3C,0x29
20.231773125000000,0,0x41,0xD0
20.233185416666668,0,0xFF,0xFF
20.234581208333335,0,0xFF,0xFF
20.235993499999999,0,0x27,0x7C
20.237389291666666,0,0x1F,0x00
20.238801625000001,0,0x43,0xE0
20.240197375000001,0,0x3F,0x1C
20.241609708333332,0,0x15,0xEB
20.243005458333332,0,0x7F,0x14
20.244417833333333,0,0x96,0xFD
20.245813583333334,0,0x78,0x02
20.247225916666668,0,0x93,0x0E
20.248621666666665,0,0x7C,0x11
20.250033999999999,0,0x83,0x83
20.251429750000000,0,0x7C,0x08
20.252842125000001,0,0x90,0xC7
20.254237833333335,0,0x7D,0x18
20.255650208333332,0,0xFF,0xFF
20.257045916666666,0,0xFF,0xFF
20.258458291666667,0,0xD1,0xC5
20.259854000000001,0,0xE1,0x7F
20.261266375000002,0,0x91,0x01
20.262662083333332,0,0xE1,0x7F
20.264074458333333,0,0x49,0x15
20.265470166666667,0,0xF1,0x3F
20.266882583333334,0,0x89,0x21
20.268278250000002,0,0x71,0x1F
20.269690624999999,0,0x49,0x15
20.271086333333333,0,0x15,0x0F
20.272498750000000,0,0x9D,0x09
20.273894416666668,0,0x01,0x87
20.275306833333332,0,0xB5,0x5D
20.276702499999999,0,0x41,0x87
20.278114958333333,0,0xAD,0xF0
20.279510625000000,0,0x9E,0x88
20.280923125000001,0,0x94,0x88
20.282318750000002,0,0xFF,0xE4
20.283731124999999,0,0x81,0xC8
20.285126791666666,0,0xFE,0xA4
20.286539291666667,0,0xDC,0xB0
20.287934916666668,0,0xFF,0xC4
20.289347333333332,0,0x88,0x99
20.290742999999999,0,0xFE,0xC2
20.292155500000000,0,0xC5,0x99
20.293551041666667,0,0xFE,0xC2
20.294963583333335,0,0xD0,0xAA
20.296359166666665,0,0xEE,0x81
20.297771624999999,0,0xD4,0xE5
20.299167250000000,0,0xFE,0x81
20.300579708333334,0,0xF7,0x11
20.301975291666668,0,0x00,0x48
20.303387833333332,0,0x92,0x33
20.304783375000000,0,0x65,0x44
20.306195875000000,0,0xFF,0x5F
20.307591458333334,0,0x00,0x20
20.309004041666668,0,0x8C,0xCF
20.310399541666666,0,0x73,0x30
20.311812083333333,0,0x56,0xA1
20.313207625000000,0,0x28,0x18
20.314620166666668,0,0x7D,0x60
20.316015749999998,0,0x00,0x1F
20.317428291666666,0,0x74,0x31
20.318823833333333,0,0x00,0x00
20.320236375000000,0,0x0B,0xF3
20.321631916666668,0,0x74,0x04
20.323044458333332,0,0x44,0x1E
20.324439999999999,0,0x39,0x01
20.325852541666666,0,0x82,0x3E
20.327248083333334,0,0x7D,0x11
20.328660625000001,0,0x39,0xCD
20.330056166666665,0,0x06,0x32
20.331468749999999,0,0x1C,0x6B
20.332864250000000,0,0x07,0x14
20.334276833333334,0,0x09,0xD3
20.335672333333335,0,0x06,0x0C
20.337084958333332,0,0x10,0x06
20.338480458333333,0,0x07,0xF8
20.339893000000000,0,0x01,0x8D
20.341288500000001,0,0x06,0x00
20.342701125000001,0,0x50,0x63
20.344096583333332,0,0x07,0x04
20.345509208333333,0,0x69,0x89
20.346904666666667,0,0x01,0x07
20.348317291666667,0,0x25,0x55
20.349712749999998,0,0x01,0x0B
20.351125416666665,0,0xA1,0x69
20.352520833333333,0,0x01,0x11
20.353933500000000,0,0x2D,0x7D
20.355328916666668,0,0x11,0x11
20.356741583333335,0,0x59,0x9F
20.358137041666666,0,0x21,0x21
20.359549708333333,0,0xF1,0x8B
20.360945125000001,0,0x01,0x65
20.362357791666668,0,0xE1,0xA7
20.363753208333332,0,0x01,0x49
20.365165874999999,0,0xD1,0x1B
20.366561291666667,0,0x01,0xC1
20.367973958333334,0,0xB0,0xC5
20.369369416666668,0,0xFE,0x80
20.370782125000002,0,0xFD,0xF1
20.372177458333333,0,0xFE,0xC4
20.373590208333333,0,0xFA,0x9C
20.374985583333334,0,0xFF,0xC1
20.376398250000001,0,0xF9,0xDE
20.377915750000000,0,0xFF,0xE1
20.379328458333333,0,0xF8,0xD1
20.380723833333334,0,0xFD,0xE2
20.382136541666668,0,0xF2,0xE0
20.383531958333332,0,0xFC,0xF6
20.384944708333332,0,0xF2,0xC0
20.386340041666667,0,0xF8,0xF4
20.387752791666667,0,0xD9,0xD4
20.389148083333332,0,0xF0,0xF8
20.390560833333332,0,0xE7,0x4C
20.391956166666667,0,0x00,0x80
20.393368958333333,0,0x84,0xD5
20.394764250000001,0,0x01,0xFF
20.396177000000002,0,0x34,0x06
20.397572374999999,0,0xCB,0x80
20.398985083333333,0,0x54,0xD4
20.400380458333334,0,0xFF,0x00
20.401793208333334,0,0x80,0x18
20.403188541666665,0,0xFF,0x00
20.404601291666665,0,0x95,0x73
20.405996583333334,0,0x7F,0x1C
20.407409375000000,0,0x70,0x5E
20.408804666666665,0,0x0F,0x20
20.410217458333332,0,0x25,0x38
20.411612750000000,0,0x1B,0x44
20.413025583333333,0,0x09,0x63
20.414420833333335,0,0x06,0x00
20.415833708333334,0,0xE3,0x11
20.417228958333332,0,0x1C,0xFF
20.418641791666666,0,0xC8,0x7E
20.420037041666667,0,0x30,0x01
20.421449875000000,0,0x55,0x4D
20.422845124999998,0,0xE0,0x00
20.424257958333332,0,0x20,0x0C
20.425653250000000,0,0xC0,0x00
20.427066041666667,0,0x20,0x65
20.428583374999999,0,0xD0,0x18
20.429996249999999,0,0x12,0x2B
20.431391458333334,0,0xA0,0x04
20.432804375000000,0,0xA4,0x19
20.434199541666668,0,0x10,0x06
20.435612458333335,0,0x81,0x55
20.437007625000000,0,0x01,0x81
20.438420499999999,0,0x41,0xE5
20.439815708333334,0,0x01,0x11
20.441228625000001,0,0x01,0x13
20.442623791666666,0,0x01,0x81
20.444036708333332,0,0x05,0x43
20.445431875000001,0,0x01,0x9D
20.446844791666667,0,0x01,0xAF
20.448239958333332,0,0x01,0x41
20.449652875000002,0,0x05,0xB3
20.451048041666667,0,0x01,0x41
20.452461000000000,0,0x01,0x05
20.453856166666668,0,0x01,0x33
20.455269083333334,0,0x55,0x73
20.456664249999999,0,0x01,0x17
20.458077208333332,0,0x85,0x84
20.459472333333334,0,0xF8,0xF8
20.460885375000000,0,0xC5,0xD6
20.462280416666665,0,0xF8,0xFC
20.463693458333335,0,0x8A,0x80
20.465088541666667,0,0xF0,0xFF
20.466501500000000,0,0xFF,0xFF
20.467896583333335,0,0xFF,0xFF
20.469309541666668,0,0x00,0x00
20.470704666666666,0,0x00,0x00
20.472117666666666,0,0x00,0x00
20.473512750000001,0,0x00,0x00
20.474925750000001,0,0x00,0x00
20.476320874999999,0,0x00,0x00
20.477733874999998,0,0x00,0x00
20.479128958333334,0,0x00,0x00
20.480541958333333,0,0x10,0xA8
20.481937041666665,0,0x03,0x40
20.483350041666668,0,0xF4,0x7D
20.484745125000000,0,0x03,0x00
20.486158124999999,0,0xF0,0x34
20.487553208333335,0,0x03,0x00
20.488966250000001,0,0xFF,0xFF
20.490361291666666,0,0xFF,0xFF
20.491774333333332,0,0x00,0x00
20.493169375000001,0,0x00,0x00
20.494582416666667,0,0x00,0x00
20.495977458333332,0,0x00,0x00
20.497390541666668,0,0x00,0x00
20.498785541666667,0,0x00,0x00
20.500198624999999,0,0x00,0x00
20.501593625000002,0,0x00,0x00
20.503006750000001,0,0x90,0x27
20.504401708333333,0,0x00,0x10
20.505814874999999,0,0x85,0xDF
20.507209791666668,0,0x00,0x01
20.508622916666667,0,0x80,0x31
20.510017874999999,0,0x00,0x02
20.511614208333334,0,0xFF,0xFF
20.513009125000000,0,0xFF,0xFF
20.514422208333333,0,0x00,0x00
20.515817208333335,0,0x00,0x00
20.517230333333334,0,0x00,0x00
20.518625291666666,0,0x00,0x00
20.520038416666665,0,0x00,0x00
20.521433375000001,0,0x00,0x00
20.522846500000000,0,0x00,0x00
20.524241458333332,0,0x00,0x00
20.525654583333335,0,0x01,0x11
20.527049541666667,0,0x01,0x0F
20.528462666666666,0,0x01,0xC5
20.529857625000002,0,0x01,0x1F
20.531270791666667,0,0x01,0x21
20.532665708333333,0,0x01,0x1F
20.534078874999999,0,0xFF,0xFF
20.535473791666668,0,0xFF,0xFF
20.536886958333334,0,0x00,0x00
20.538281916666666,0,0x00,0x00
20.539695083333335,0,0x00,0x00
20.541090000000001,0,0x00,0x00
20.542503166666666,0,0x00,0x00
20.543898083333332,0,0x00,0x00
20.545311250000001,0,0x00,0x00
20.546706166666667,0,0x00,0x00
20.548119416666665,0,0xFF,0xFF
20.549514250000001,0,0xFF,0xFF
20.550927458333334,0,0xAB,0xD4
20.552322333333333,0,0xD4,0xF8
20.553735625000002,0,0x85,0xE4
20.555130416666668,0,0xF8,0xF8
20.556543708333333,0,0x99,0xF2
20.557938499999999,0,0xE4,0xFD
20.559351750000001,0,0xCF,0xC0
20.560746583333334,0,0x80,0xFF
20.562281958333333,0,0xAB,0xF5
20.563676749999999,0,0xD4,0xFF
20.565090041666668,0,0xBF,0xC8
20.566484875000000,0,0xF0,0xFF
20.567898124999999,0,0xC2,0xD5
20.569292958333332,0,0xFD,0xFF
20.570706208333334,0,0xFF,0xFF
20.572101041666667,0,0xFF,0xFF
20.573514291666665,0,0x7D,0xDD
20.574909083333335,0,0x00,0x7F
20.576322416666667,0,0x10,0x00
20.577717208333333,0,0x00,0xFF
20.579130500000002,0,0x50,0x40
20.580525291666667,0,0x00,0xFF
20.581938624999999,0,0x90,0x18
20.583333374999999,0,0x00,0xE7
20.584746708333334,0,0xED,0x58
20.586141458333334,0,0x10,0xE7
20.587554791666665,0,0xFF,0x1F
20.588949541666668,0,0x00,0xE0
20.590362875000000,0,0xFD,0x4A
20.591757625000000,0,0x00,0xF5
20.593171000000002,0,0xFF,0xFF
20.594565708333334,0,0xFF,0xFF
20.595979041666666,0,0xD6,0x51
20.597373791666666,0,0x00,0xFF
20.598787166666668,0,0x02,0x00
20.600181916666667,0,0x00,0xFF
20.601595249999999,0,0x40,0x15
20.602989958333332,0,0x00,0xFF
20.604403333333334,0,0x02,0x20
20.605798083333333,0,0x00,0xDF
20.607211458333332,0,0xD7,0xE4
20.608606125000001,0,0x00,0x1F
20.610019541666666,0,0xFF,0x62
20.611414249999999,0,0x00,0x9D
20.612827666666668,0,0xD7,0x80
20.614222333333334,0,0x00,0x7F
20.615635749999999,0,0xFF,0xFF
20.617030416666665,0,0xFF,0xFF
20.618443791666667,0,0x51,0x57
20.619838500000000,0,0x01,0xFF
20.621251916666665,0,0x01,0x01
20.622646583333335,0,0x01,0xFF
20.624060000000000,0,0x01,0x15
20.625454666666666,0,0x01,0xFF
20.626868083333335,0,0x01,0x01
20.628262750000001,0,0x01,0xFF
20.629676166666666,0,0x41,0x11
20.631070833333332,0,0x01,0xFF
20.632484291666668,0,0x01,0x69
20.633878916666667,0,0x01,0x97
20.635292374999999,0,0x09,0x01
20.636686999999998,0,0x01,0xFF
20.638100500000000,0,0x9F,0x80
20.639495125000000,0,0xF0,0xFF
20.640908583333335,0,0xD3,0xD4
20.642303208333335,0,0xFC,0xFF
20.643716708333333,0,0x87,0x80
20.645111291666666,0,0xF8,0xFF
20.646524791666668,0,0xAA,0xD5
20.647919375000001,0,0xD5,0xFF
20.649332874999999,0,0x83,0x80
20.650727458333332,0,0xFC,0xFF
20.652140958333334,0,0x82,0xD5
20.653535541666667,0,0xFD,0xFF
20.654949041666665,0,0xBF,0x80
20.656343625000002,0,0xC0,0xFF
20.657757166666666,0,0xAA,0xD4
20.659151749999999,0,0xD5,0xFF
20.660565250000001,0,0xFA,0x1F
20.661959791666668,0,0x00,0xE0
20.663373374999999,0,0xFD,0x77
20.664767874999999,0,0x00,0xC0
20.666181458333334,0,0xFE,0x39
20.667575958333334,0,0x00,0xC0
20.668989541666665,0,0xFF,0x35
20.670384041666665,0,0x00,0xC0
20.671797625000000,0,0xFF,0x20
20.673192125000000,0,0x00,0xC0
20.674605708333335,0,0x2B,0x20
20.676000250000001,0,0xD4,0xC0
20.677413833333333,0,0xFF,0x20
20.678808333333333,0,0x00,0xC0
20.680221916666667,0,0xAA,0x00
20.681616416666667,0,0x55,0xC0
20.683029999999999,0,0xC2,0x62
20.684424499999999,0,0x00,0x1D
20.685838125000000,0,0xD7,0xA2
20.687232583333333,0,0x00,0x5D
20.688646208333335,0,0xC2,0x74
20.690040666666668,0,0x00,0x0B
20.691454291666666,0,0xB7,0x60
20.692848750000000,0,0x40,0x1F
20.694262375000001,0,0xFF,0x1C
20.695656833333334,0,0x00,0x03
20.697070499999999,0,0xBF,0x13
20.698464916666666,0,0x40,0x0C
20.699878583333334,0,0xE2,0x1C
20.701273000000000,0,0x00,0x03
20.702686666666665,0,0x3E,0x18
20.704081124999998,0,0xC1,0x07
20.705494750000000,0,0x09,0x85
20.706889166666667,0,0x01,0x7B
20.708302833333335,0,0x09,0x01
20.709697250000001,0,0x01,0xFF
20.711110916666666,0,0x09,0x49
20.712505333333333,0,0x01,0xB7
20.713919041666667,0,0x09,0x29
20.715313416666667,0,0x01,0xD7
20.716727124999998,0,0x09,0x71
20.718121499999999,0,0x01,0x8F
20.719535208333333,0,0x09,0xEF
20.720929583333334,0,0x01,0x11
20.722343291666668,0,0x09,0x7F
20.723737708333335,0,0x01,0x81
20.725151416666666,0,0x5D,0xA9
20.726545791666666,0,0x01,0x57
20.727959500000001,0,0xFA,0x80
20.729598083333332,0,0x85,0xFF
20.731011791666667,0,0xA2,0xD5
20.732406166666667,0,0xDD,0xFF
20.733819874999998,0,0x82,0x80
20.735214291666665,0,0xFD,0xFF
20.736628000000000,0,0xD7,0xD1
20.738022333333333,0,0xFD,0xFF
20.739436083333334,0,0x83,0xC0
20.740830416666668,0,0xFC,0xFF
20.742244208333332,0,0xD7,0xC5
20.743638499999999,0,0xF8,0xFF
20.745052291666667,0,0x8F,0xE0
20.746446583333334,0,0xF0,0xFF
20.747860374999998,0,0xEA,0xD5
20.749254666666666,0,0xF5,0xFF
20.750668458333333,0,0x40,0x40
20.752062791666667,0,0xFF,0x80
20.753476541666668,0,0x87,0x00
20.754870833333332,0,0x7F,0xC0
20.756284624999999,0,0x03,0x20
20.757678916666666,0,0xFF,0xC0
20.759092708333334,0,0x57,0x20
20.760487000000001,0,0xFF,0xC0
20.761900833333332,0,0xFF,0x20
20.763539291666667,0,0x00,0xC0
20.764953125000002,0,0x73,0x40
20.766347374999999,0,0x04,0xE0
20.767761208333333,0,0xE8,0x00
20.769155458333334,0,0x00,0xE0
20.770569333333334,0,0xBA,0x50
20.771963541666668,0,0x45,0xE0
20.773377374999999,0,0x1E,0x1E
20.774771666666666,0,0xE0,0x01
20.776185500000000,0,0x6B,0x12
20.777579708333334,0,0xF4,0x0D
20.778993583333332,0,0xCF,0x1F
20.780387791666666,0,0xF0,0x00
20.781801708333333,0,0xCF,0x10
20.783195875000001,0,0xF0,0x0F
20.784609791666668,0,0x07,0x1E
20.786003958333332,0,0x00,0x01
20.787417874999999,0,0x50,0x00
20.788812041666667,0,0x00,0x1F
20.790225958333334,0,0x30,0x10
20.791620125000001,0,0x00,0x0F
20.793034083333332,0,0xA2,0x05
20.794428208333333,0,0x5D,0x1F
20.795842125000000,0,0x09,0x79
20.797236291666668,0,0x01,0x87
20.798650250000001,0,0x5D,0x2D
20.800044374999999,0,0x01,0xD3
20.801458333333333,0,0x29,0xE5
20.802852458333334,0,0x11,0x1B
20.804266416666668,0,0x5D,0x83
20.805660541666665,0,0x31,0x7D
20.807074499999999,0,0x01,0x7D
20.808468666666666,0,0x01,0x83
20.809882625000000,0,0x61,0x81
20.811276750000001,0,0x01,0x7F
20.812690708333335,0,0x23,0x45
20.814084833333332,0,0x01,0xBB
20.815498833333333,0,0xAB,0x01
20.816892916666667,0,0x55,0xFF
20.818306916666668,0,0xE8,0xEF
20.819701041666665,0,0xFF,0xFF
20.821114999999999,0,0xF5,0xFF
20.822509083333333,0,0xFF,0xFF
20.823923083333334,0,0xE0,0xFF
20.825317208333335,0,0xFF,0xFF
20.826731208333332,0,0xFF,0xFF
20.828125249999999,0,0xFF,0xFF
20.829539291666666,0,0x00,0x00
20.830933333333334,0,0x00,0x00
20.832347375000001,0,0x00,0x00
20.833741458333332,0,0x00,0x00
20.835155499999999,0,0x00,0x00
20.836549541666667,0,0x00,0x00
20.837963583333334,0,0x00,0x00
20.839357625000002,0,0x00,0x00
20.840771666666665,0,0x00,0xD0
20.842165749999999,0,0xFF,0xE0
20.843579750000000,0,0x40,0xF7
20.844973791666668,0,0xFF,0xE0
20.846509958333332,0,0x01,0xFF
20.847903958333333,0,0xFE,0xE0
20.849318083333333,0,0xFF,0xFF
20.850712041666668,0,0xFF,0xFF
20.852126125000002,0,0x00,0x00
20.853520124999999,0,0x00,0x00
20.854934249999999,0,0x00,0x00
20.856328208333334,0,0x00,0x00
20.857742333333334,0,0x00,0x00
20.859136291666665,0,0x00,0x00
20.860550416666666,0,0x00,0x00
20.861944375000000,0,0x00,0x00
20.863358541666667,0,0xFF,0x00
20.864752458333335,0,0x00,0x1F
20.866166625000002,0,0xAE,0xB1
20.867560541666666,0,0x51,0x1F
20.868974708333333,0,0xFF,0xEC
20.870368666666668,0,0x00,0x1F
20.871782833333334,0,0xFF,0xFF
20.873176749999999,0,0xFF,0xFF
20.874590874999999,0,0x00,0x00
20.875984833333334,0,0x00,0x00
20.877399000000000,0,0x00,0x00
20.878792916666665,0,0x00,0x00
20.880207083333332,0,0x00,0x00
20.881601000000000,0,0x00,0x00
20.883015166666667,0,0x00,0x00
20.884409083333335,0,0x00,0x00
20.885823291666668,0,0xFF,0x01
20.887217166666666,0,0x01,0xFF
20.888631374999999,0,0xFF,0x05
20.890025250000001,0,0x01,0xFF
20.891439458333334,0,0xFF,0x01
20.892833333333332,0,0x01,0xFF
20.894247541666665,0,0xFF,0xFF
20.895641416666667,0,0xFF,0xFF
20.897238791666666,0,0x00,0x00
20.898632666666668,0,0x00,0x00
20.900046875000001,0,0x00,0x00
20.901440749999999,0,0x00,0x00
20.902854999999999,0,0x00,0x00
20.904248833333334,0,0x00,0x00
20.905663083333334,0,0x00,0x00
20.907056916666665,0,0x00,0x00
20.908471250000002,0,0xFF,0xFF
20.909865000000000,0,0xFF,0xFF
20.911279250000000,0,0x85,0xFF
20.912673083333335,0,0xBF,0xFF
20.914087375000001,0,0x80,0xFF
20.915481208333333,0,0x9F,0xFF
20.916895458333332,0,0x85,0xFF
20.918289250000001,0,0x9F,0xFF
20.919703541666667,0,0x80,0xFF
20.921097374999999,0,0x9F,0xFF
20.922511624999999,0,0x81,0xFF
20.923905416666667,0,0x9F,0xFF
20.925319750000000,0,0x90,0xFC
20.926713583333335,0,0x8F,0xFF
20.928127833333335,0,0x81,0xF0
20.929521625000000,0,0x9F,0xFF
20.930935916666666,0,0xFF,0xFF
20.932329708333334,0,0xFF,0xFF
20.933744041666667,0,0xB0,0xF8
20.935137791666666,0,0x40,0xFF
20.936552124999999,0,0x10,0x84
20.937945916666667,0,0xE0,0xFB
20.939360208333333,0,0x30,0x70
20.940753999999998,0,0xC0,0xFF
20.942168291666668,0,0x20,0x00
20.943562083333333,0,0xC0,0xFF
20.944976416666666,0,0x20,0x09
20.946370166666668,0,0xC0,0xF7
20.947784500000001,0,0x40,0xFB
20.949178208333333,0,0x80,0x04
20.950592583333332,0,0x00,0xEB
20.951986291666667,0,0xC0,0x14
20.953400750000000,0,0xFF,0xFF
20.954794374999999,0,0xFF,0xFF
20.956208749999998,0,0x18,0x5F
20.957602458333334,0,0x07,0xFF
20.959016875000000,0,0x0C,0x01
20.960410541666668,0,0x03,0xFF
20.961824958333334,0,0x02,0x54
20.963218666666666,0,0x05,0xFF
20.964633041666666,0,0x06,0x3C
20.966026750000001,0,0x01,0xFF
20.967441125000001,0,0x06,0x5F
20.968834833333332,0,0x01,0xFF
20.970249249999998,0,0x02,0x1F
20.971642916666667,0,0x01,0xFF
20.973057333333333,0,0x06,0x9F
20.974450999999998,0,0x01,0x7F
20.975865458333335,0,0xFF,0xFF
20.977259083333333,0,0xFF,0xFF
20.978673541666666,0,0x47,0xFF
20.980067166666668,0,0xF9,0xFF
20.981481625000001,0,0x03,0xFF
20.982875249999999,0,0xF1,0xFF
20.984289708333332,0,0x5D,0x7F
20.985683333333334,0,0xF1,0xFF
20.987097791666667,0,0x0D,0x3F
20.988491416666665,0,0xF1,0xFF
20.989905916666668,0,0x4D,0xBF
20.991299500000000,0,0xF1,0xDF
20.992713999999999,0,0x09,0x23
20.994107583333335,0,0xF1,0xDF
20.995522083333334,0,0x4D,0x8F
20.996915666666666,0,0xF1,0xF7
20.998330208333332,0,0x90,0xE0
20.999723833333334,0,0x8F,0xFF
21.001138291666667,0,0x81,0xF0
21.002531874999999,0,0x9F,0xFF
21.003946375000002,0,0x80,0xF3
21.005339958333334,0,0x9F,0xFC
21.006754500000000,0,0xEB,0xD3
21.008148041666665,0,0x94,0xFC
21.009562625000001,0,0xEF,0xD7
21.010956125000000,0,0x90,0xF8
21.012370749999999,0,0xC0,0xD2
21.013764250000001,0,0xFF,0xFD
21.015178791666667,0,0x80,0xC7
21.016572333333333,0,0xFF,0xF8
21.017986874999998,0,0xD5,0xC7
21.019380375000001,0,0xFF,0xF8
21.020794958333333,0,0x40,0xFB
21.022188458333332,0,0x80,0x00
21.023603083333334,0,0x00,0xF7
21.024996541666667,0,0xC0,0x00
21.026411166666666,0,0x60,0xE0
21.027804666666668,0,0x80,0x00
21.029219333333334,0,0xB0,0xC0
21.030612708333333,0,0x40,0x00
21.032027416666665,0,0xF0,0xC0
21.033420791666668,0,0x00,0x00
21.034835458333333,0,0x10,0xC0
21.036228916666666,0,0xE0,0x00
21.037643541666668,0,0x20,0x80
21.039037000000000,0,0xC0,0x00
21.040451624999999,0,0x30,0xC0
21.041845083333332,0,0xC0,0x00
21.043259750000001,0,0x03,0xC0
21.044653166666667,0,0x00,0x3F
21.046067833333332,0,0x06,0xA0
21.047461250000001,0,0x01,0x5F
21.048875875000000,0,0x05,0x7D
21.050269333333333,0,0x02,0x00
21.051684000000002,0,0x03,0x19
21.053077416666667,0,0x04,0x00
21.054492083333333,0,0x07,0x00
21.055885499999999,0,0x00,0x00
21.057300208333334,0,0x00,0x01
21.058693583333334,0,0x07,0x00
21.060108291666666,0,0x04,0x01
21.061501666666668,0,0x03,0x00
21.062916375000000,0,0x07,0x01
21.064492874999999,0,0x01,0x00
21.065907583333335,0,0x09,0x3B
21.067301000000000,0,0xF1,0xC7
21.068715708333333,0,0x4D,0x1B
21.070109083333332,0,0xF1,0xE7
21.071523791666667,0,0x09,0x3D
21.072917166666667,0,0xF1,0xC3
21.074331916666665,0,0xDD,0x89
21.075725250000001,0,0x21,0x77
21.077139958333333,0,0x7F,0x51
21.078533333333333,0,0x81,0xAF
21.079948083333335,0,0x09,0x21
21.081341416666667,0,0xF7,0xDF
21.082756166666666,0,0x01,0xC1
21.084149499999999,0,0xFF,0x3F
21.085564250000001,0,0x45,0xA5
21.086957583333334,0,0xFF,0x5F
21.088372374999999,0,0x84,0xEF
21.089765708333335,0,0xFF,0xF0
21.091180458333334,0,0xD5,0xE2
21.092573791666666,0,0xFF,0xF5
21.093988583333335,0,0x90,0xDF
21.095381875000001,0,0xFF,0xE0
21.096796666666666,0,0xD5,0xEA
21.098189958333332,0,0xFF,0xF5
21.099604750000001,0,0xA5,0xE4
21.100998041666667,0,0xDF,0xFB
21.102412833333332,0,0xFD,0xFD
21.103806124999998,0,0xFF,0xF3
21.105220958333334,0,0xFF,0xF6
21.106614208333333,0,0xFF,0xF9
21.108029041666665,0,0xFF,0xFA
21.109422291666668,0,0xFF,0xFD
21.110837125000000,0,0x30,0x80
21.112230416666666,0,0xC0,0x00
21.113645250000001,0,0x30,0x8D
21.115160541666668,0,0xC0,0x00
21.116575416666667,0,0x10,0xFF
21.117968625000000,0,0xE0,0x00
21.119383500000001,0,0x40,0x2A
21.120776750000001,0,0xF0,0xD5
21.122191624999999,0,0x88,0x03
21.123584833333332,0,0xF0,0xFC
21.124999708333334,0,0xD0,0x50
21.126392958333334,0,0xFF,0xFF
21.127807791666665,0,0xE0,0x90
21.129201041666665,0,0xFF,0xFF
21.130615875000000,0,0xF7,0x74
21.132009083333333,0,0xFF,0xFF
21.133423958333335,0,0x06,0x01
21.134817125000001,0,0x01,0x00
21.136232041666666,0,0x00,0x07
21.137625249999999,0,0x07,0x00
21.139040166666668,0,0x00,0x07
21.140433333333334,0,0x07,0x00
21.141848249999999,0,0x09,0x7E
21.143241416666665,0,0x07,0x01
21.144656333333334,0,0x08,0x1F
21.146049500000000,0,0x07,0x00
21.147464458333335,0,0x15,0x6A
21.148857583333335,0,0xFF,0x15
21.150272541666666,0,0x37,0xBE
21.151665666666666,0,0xFF,0x41
21.153080625000001,0,0x5F,0x2B
21.154473750000001,0,0xFF,0xD5
21.155888708333332,0,0x01,0xE1
21.157281833333332,0,0xFF,0x1F
21.158696833333334,0,0x51,0xA5
21.160089916666667,0,0xFF,0x5F
21.161504916666665,0,0x03,0xF9
21.162897999999998,0,0xFF,0x07
21.164313041666666,0,0xD7,0x8B
21.165706083333333,0,0xFF,0x77
21.167121083333335,0,0x21,0x83
21.168514166666668,0,0xFF,0x7F
21.169929208333333,0,0x7D,0xD7
21.171322249999999,0,0xFF,0x7F
21.172737291666667,0,0xFB,0x03
21.174130375000001,0,0xFF,0xFF
21.175545416666665,0,0xFF,0x7F
21.176938458333332,0,0xFF,0xFF
21.178353500000000,0,0xFF,0xFE
21.179746541666667,0,0xFF,0xFF
21.181161583333335,0,0xFF,0xFF
21.182554625000002,0,0xFF,0xFF
21.183969666666666,0,0xFF,0xFF
21.185362708333333,0,0xFF,0xFF
21.186777791666668,0,0xFF,0xFF
21.188170791666668,0,0xFF,0xFF
21.189585874999999,0,0x00,0x00
21.190978874999999,0,0x00,0x00
21.192393958333334,0,0x00,0x00
21.193786958333334,0,0x00,0x00
21.195202083333335,0,0x00,0x00
21.196595041666665,0,0x00,0x00
21.198193291666666,0,0x00,0x00
21.199586291666666,0,0x00,0x00
21.201001416666667,0,0xFF,0x7C
21.202394375000001,0,0xFF,0xFF
21.203809499999998,0,0xFF,0xFD
21.205202458333332,0,0xFF,0xFF
21.206617583333333,0,0xFF,0xFC
21.208010541666667,0,0xFF,0xFF
21.209425666666668,0,0xFF,0xFF
21.210818625000002,0,0xFF,0xFF
21.212233749999999,0,0x00,0x00
21.213626708333333,0,0x00,0x00
21.215041875000001,0,0x00,0x00
21.216434791666668,0,0x00,0x00
21.217849958333332,0,0x00,0x00
21.219242874999999,0,0x00,0x00
21.220658041666667,0,0x00,0x00
21.222050958333334,0,0x00,0x00
21.223466250000001,0,0xFF,0xAC
21.224859041666665,0,0xFF,0x53
21.226274249999999,0,0xFF,0x2D
21.227667166666667,0,0xFF,0xD7
21.229082333333334,0,0xFF,0x30
21.230475250000001,0,0xFF,0xCF
21.231890416666666,0,0xFF,0xFF
21.233283333333333,0,0xFF,0xFF
21.234698500000000,0,0x00,0x00
21.236091416666667,0,0x00,0x00
21.237506625000002,0,0x00,0x00
21.238899499999999,0,0x00,0x00
21.240314708333333,0,0x00,0x00
21.241707583333334,0,0x00,0x00
21.243122791666668,0,0x00,0x00
21.244515666666668,0,0x00,0x00
21.245930916666666,0,0xFF,0x07
21.247323750000000,0,0xFF,0xFF
21.248861083333335,0,0xFF,0x1F
21.250253916666665,0,0xFF,0xFF
21.251669166666666,0,0xFF,0x7F
21.253062000000000,0,0xFF,0xFF
21.254477291666667,0,0xFF,0xFF
21.255870125000001,0,0xFF,0xFF
21.257285374999999,0,0x00,0x00
21.258678208333333,0,0x00,0x00
21.260093458333333,0,0x00,0x00
21.261486291666667,0,0x00,0x00
21.262901583333335,0,0x00,0x00
21.264294374999999,0,0x00,0x00
21.265709666666666,0,0x00,0x00
21.267102458333333,0,0x00,0x00
21.268517833333334,0,0xFF,0xFF
21.269971583333334,0,0xFF,0xFF
21.271386916666668,0,0xFF,0x80
21.272779666666668,0,0xFF,0xFF
21.274194999999999,0,0xFF,0x86
21.275587750000000,0,0xFF,0xF9
21.277003083333334,0,0xFF,0xA9
21.278395833333335,0,0xFF,0xD6
21.279811208333335,0,0xFF,0x96
21.281203958333332,0,0xFF,0xE9
21.282619291666666,0,0xFF,0xBF
21.284012000000001,0,0xFF,0xC0
21.285427375000001,0,0xFF,0x9E
21.286820124999998,0,0xFF,0xE1
21.288235458333332,0,0xDF,0x8F
21.289628208333333,0,0xFF,0xF0
21.291043583333334,0,0xFF,0xFF
21.292436291666668,0,0xFF,0xFF
21.293851666666665,0,0xFF,0xB6
21.295244374999999,0,0xFF,0x4D
21.296659750000000,0,0xFF,0x24
21.298052458333334,0,0xFF,0x9B
21.299467833333335,0,0xFF,0xA8
21.300860541666665,0,0xFF,0x57
21.302275958333333,0,0xFF,0xF9
21.303668625000000,0,0xFF,0x06
21.305084041666667,0,0xFF,0xB2
21.306476708333335,0,0xFF,0x4D
21.307892124999999,0,0xFF,0x9F
21.309284791666666,0,0xFF,0x40
21.310700250000000,0,0xFF,0xF2
21.312092875000001,0,0xFF,0x0D
21.313508333333335,0,0xFF,0xFF
21.314900958333332,0,0xFF,0xFF
21.316316416666666,0,0xFC,0x15
21.317709083333334,0,0xFF,0xFF
21.319124500000001,0,0xFA,0x00
21.320517166666665,0,0xFC,0xFF
21.321932624999999,0,0xFC,0x80
21.323325250000000,0,0xF0,0x7F
21.324740708333334,0,0xEC,0x60
21.326133375000001,0,0xF0,0x9F
21.327548791666668,0,0xEC,0xA0
21.328941416666666,0,0xF0,0x5F
21.330356916666666,0,0xFC,0xFA
21.331749500000001,0,0xE0,0x05
21.333165000000001,0,0xE0,0xAA
21.334557583333332,0,0xF0,0x55
21.335973083333332,0,0xFF,0xFF
21.337365666666667,0,0xFF,0xFF
21.338781166666667,0,0xAF,0x55
21.340173750000002,0,0x5F,0xFF
21.341589249999998,0,0x03,0x01
21.342981833333333,0,0x07,0xFF
21.344397333333333,0,0x05,0x1D
21.345789916666668,0,0x03,0xF7
21.347205416666668,0,0x03,0x11
21.348597999999999,0,0x01,0xEF
21.350013541666666,0,0x1B,0x23
21.351406083333334,0,0x05,0xDD
21.352821625000001,0,0x01,0x49
21.354214166666665,0,0x0F,0xB7
21.355629708333332,0,0x07,0x01
21.357022250000000,0,0x0F,0xFF
21.358437833333333,0,0xFF,0xBF
21.359830333333335,0,0xFF,0xC0
21.361245916666668,0,0xFF,0xCE
21.362638458333333,0,0xFF,0xB1
21.364054041666666,0,0xFF,0xB5
21.365446541666667,0,0xFF,0xC0
21.366862125000001,0,0xFF,0xAF
21.368254624999999,0,0xFF,0xD0
21.369670208333332,0,0xFC,0xFA
21.371062750000000,0,0xFE,0x80
21.372478375000000,0,0xFA,0xAF
21.373870791666668,0,0xFC,0xD0
21.375286458333335,0,0x80,0xFB
21.376678916666666,0,0xF0,0x80
21.378094541666666,0,0x80,0xEE
21.379487000000001,0,0xC0,0x91
21.380902625000001,0,0xFF,0xDF
21.382295041666666,0,0xFF,0x00
21.383710708333332,0,0xFF,0xFE
21.385103125000001,0,0xFF,0x01
21.386518791666667,0,0xA7,0x5D
21.387911208333332,0,0xDF,0x00
21.389326874999998,0,0x83,0x0F
21.390719291666667,0,0x07,0x50
21.392134958333333,0,0x03,0xAF
21.393527375000001,0,0x01,0x00
21.394943041666668,0,0x03,0x7C
21.396335458333333,0,0x01,0x01
21.397751124999999,0,0x01,0x55
21.399143541666668,0,0x06,0x00
21.400559250000001,0,0x04,0x7F
21.401951624999999,0,0x0F,0x00
21.403367374999998,0,0xF0,0xFE
21.404759750000000,0,0xE0,0x01
21.406175458333333,0,0xF0,0xEE
21.407567833333335,0,0xE0,0x11
21.408983541666668,0,0xE0,0xFF
21.410375916666666,0,0xE0,0x00
21.411791708333332,0,0xF4,0xDE
21.413184041666668,0,0xE0,0x01
21.414599750000001,0,0x80,0x59
21.416114166666667,0,0xE0,0x02
21.417529916666666,0,0x34,0x1F
21.418922250000001,0,0xE0,0x40
21.420338083333334,0,0xD0,0xF9
21.421730333333333,0,0xA0,0x02
21.423146166666665,0,0xE4,0xED
21.424538416666667,0,0xA0,0x02
21.425954208333334,0,0x03,0xD7
21.427346499999999,0,0x0F,0x29
21.428762291666665,0,0x19,0xAB
21.430154583333334,0,0x07,0x55
21.431570375000000,0,0x09,0xA9
21.432962666666668,0,0x01,0x57
21.434378458333335,0,0x01,0xA5
21.435770750000000,0,0x0D,0x5B
21.437186583333332,0,0x07,0xF5
21.438578833333334,0,0x01,0x0B
21.439994666666667,0,0x15,0xD7
21.441386958333332,0,0x0F,0x29
21.442802749999998,0,0x09,0x0B
21.444195041666667,0,0x07,0xA5
21.445610833333333,0,0x5D,0x5F
21.447003124999998,0,0x07,0xA5
21.448418958333335,0,0x80,0xFF
21.449811250000000,0,0x82,0x80
21.451227124999999,0,0x82,0xAF
21.452619333333335,0,0x90,0xD0
21.454035208333334,0,0x92,0xFF
21.455427416666666,0,0x80,0x80
21.456843291666665,0,0x82,0xAB
21.458235500000001,0,0x80,0xD4
21.459651416666667,0,0xA2,0xFF
21.461043583333332,0,0x80,0x80
21.462459500000001,0,0xA2,0xAA
21.463851708333333,0,0x90,0xD5
21.465267541666666,0,0x80,0xCF
21.466842875000001,0,0x80,0xB0
21.468258833333334,0,0x90,0x88
21.469650999999999,0,0x80,0xF7
21.471066833333332,0,0x09,0xAA
21.472459041666667,0,0x06,0x00
21.473874958333333,0,0x04,0xF7
21.475267124999998,0,0x03,0x00
21.476683041666668,0,0x09,0xD5
21.478075208333333,0,0x02,0x00
21.479491124999999,0,0x00,0xFE
21.480883291666668,0,0x0F,0x01
21.482299208333334,0,0x0D,0xFA
21.483691374999999,0,0x02,0x00
21.485107333333332,0,0x00,0xA1
21.486499458333334,0,0x0F,0x54
21.487915416666667,0,0x0C,0xEB
21.489307541666665,0,0x03,0x00
21.490723500000001,0,0x01,0xAB
21.492115625000000,0,0x03,0x54
21.493531583333333,0,0x50,0xA9
21.494923708333335,0,0xA0,0x02
21.496339750000001,0,0xB4,0xE3
21.497731791666666,0,0xE0,0x08
21.499147874999998,0,0xE0,0xB9
21.500539916666668,0,0xA0,0x02
21.501955916666667,0,0xB4,0x7D
21.503347999999999,0,0xE0,0x02
21.504764000000002,0,0xC0,0x6E
21.506156125000000,0,0xA0,0x00
21.507572166666666,0,0xB0,0xDB
21.508964166666665,0,0xE0,0x00
21.510380250000001,0,0xE0,0xB1
21.511772250000000,0,0xB0,0x02
21.513188291666665,0,0x38,0xA8
21.514580375000001,0,0xF0,0x47
21.515996375000000,0,0x09,0x79
21.517388416666666,0,0x07,0x87
21.518804458333335,0,0x05,0xE9
21.520196500000001,0,0x07,0x17
21.521612541666666,0,0x01,0xED
21.523004583333332,0,0x01,0x13
21.524420625000001,0,0x01,0x8D
21.525812666666667,0,0x01,0x53
21.527228749999999,0,0x01,0xC3
21.528620750000002,0,0x01,0x19
21.530036833333334,0,0x01,0x93
21.531428833333333,0,0x01,0x4D
21.532844916666665,0,0x01,0x79
21.534236916666668,0,0x01,0x07
21.535653000000000,0,0x05,0x4D
21.537044999999999,0,0x03,0x33
21.538461125000001,0,0x95,0x89
21.539853125000000,0,0x9A,0xF6
21.541269291666666,0,0xF5,0xC0
21.542661208333332,0,0x9F,0xFF
21.544077333333334,0,0xD8,0x80
21.545469333333333,0,0xBF,0xFF
21.546885416666665,0,0xFF,0xFF
21.548277375000001,0,0xFF,0xFF
21.549815583333334,0,0x00,0x00
21.551268583333332,0,0x00,0x00
21.552684750000001,0,0x00,0x00
21.554076708333334,0,0x00,0x00
21.555492833333332,0,0x00,0x00
21.556884791666668,0,0x00,0x00
21.558300916666667,0,0x00,0x00
21.559692875000000,0,0x00,0x00
21.561109041666668,0,0x04,0xFE
21.562500958333334,0,0x03,0x01
21.563917083333333,0,0x27,0x2B
21.565309041666666,0,0xDF,0xD4
21.566725208333335,0,0x02,0x16
21.568117166666667,0,0xFF,0xE9
21.569533291666666,0,0xFF,0xFF
21.570925208333332,0,0xFF,0xFF
21.572341375000001,0,0x00,0x00
21.573733291666667,0,0x00,0x00
21.575149499999998,0,0x00,0x00
21.576541375000001,0,0x00,0x00
21.577957583333333,0,0x00,0x00
21.579349458333333,0,0x00,0x00
21.580765666666668,0,0x00,0x00
21.582157541666668,0,0x00,0x00
21.583756916666665,0,0x25,0x94
21.585148791666665,0,0xFE,0x09
21.586565041666667,0,0xF5,0x97
21.587956833333333,0,0xFF,0x60
21.589373125000002,0,0xB4,0xD9
21.590764958333335,0,0xFF,0x06
21.592181208333333,0,0xFF,0xFF
21.593573041666666,0,0xFF,0xFF
21.594989291666668,0,0x00,0x00
21.596381125000001,0,0x00,0x00
21.597797374999999,0,0x00,0x00
21.599189208333332,0,0x00,0x00
21.600605500000000,0,0x00,0x00
21.601997291666667,0,0x00,0x00
21.603413583333332,0,0x00,0x00
21.604805375000002,0,0x00,0x00
21.606221666666666,0,0x07,0x55
21.607613458333333,0,0xFF,0x8B
21.609029750000001,0,0xFF,0xB9
21.610421541666668,0,0xFF,0x47
21.611837874999999,0,0xFF,0xC7
21.613229624999999,0,0xFF,0x39
21.614645958333334,0,0xFF,0xFF
21.616037708333334,0,0xFF,0xFF
21.617454041666665,0,0x00,0x00
21.618845833333335,0,0x00,0x00
21.620262166666667,0,0x00,0x00
21.621653916666666,0,0x00,0x00
21.623070250000001,0,0x00,0x00
21.624462000000001,0,0x00,0x00
21.625878333333333,0,0x00,0x00
21.627270083333332,0,0x00,0x00
21.628686500000001,0,0xFF,0xFF
21.630078166666667,0,0xFF,0xFF
21.631494541666665,0,0xFF,0xE5
21.632886249999999,0,0xFF,0xC0
21.634302625000000,0,0xFF,0xF8
21.635694333333333,0,0xFF,0x87
21.637110708333335,0,0xFD,0x82
21.638502416666668,0,0xFF,0xFC
21.639918833333333,0,0xE0,0xB4
21.641310541666666,0,0xF0,0x83
21.642726916666668,0,0xE5,0xC5
21.644118583333334,0,0xF0,0x98
21.645535083333332,0,0xF0,0x94
21.646926708333332,0,0xE0,0x83
21.648343125000000,0,0xEC,0xCB
21.649734791666667,0,0xF0,0x85
21.651151208333335,0,0xFF,0xFF
21.652542875000002,0,0xFF,0xFF
21.653959291666666,0,0xD1,0xF3
21.655350916666666,0,0xFE,0x0C
21.656767416666668,0,0xC7,0x2C
21.658159041666668,0,0xF8,0x03
21.659575499999999,0,0xC3,0x65
21.660967083333333,0,0xFC,0x1F
21.662383583333334,0,0x8C,0x83
21.663775208333334,0,0x70,0x7C
21.665191666666665,0,0x41,0x6A
21.666583291666665,0,0x00,0xF1
21.667999750000000,0,0x02,0x1B
21.669452416666665,0,0x00,0xE0
21.670868916666667,0,0x00,0xE4
21.672260500000000,0,0x01,0xD6
21.673677000000001,0,0xFF,0xFF
21.675068583333335,0,0xFF,0xFF
21.676485083333333,0,0xBE,0x2B
21.677876666666666,0,0x44,0x54
21.679293208333334,0,0xD0,0x39
21.680684750000001,0,0x20,0x84
21.682101291666665,0,0x15,0x4A
21.683492833333332,0,0x40,0x84
21.684909375000000,0,0x41,0x2E
21.686300958333334,0,0x00,0xC0
21.687717458333335,0,0x15,0xD7
21.689108999999998,0,0x00,0x60
21.690525541666666,0,0x07,0x5A
21.691917125000000,0,0x08,0xA1
21.693333666666668,0,0x28,0x59
21.694725208333335,0,0xD7,0x24
21.696141749999999,0,0xFF,0xFF
21.697533291666666,0,0xFF,0xFF
21.698949833333334,0,0x45,0xD7
21.700341375000001,0,0x3F,0x01
21.701757916666665,0,0x21,0x93
21.703149458333332,0,0x1F,0x01
21.704566041666666,0,0xE5,0x03
21.705957541666667,0,0x1F,0x51
21.707374125000001,0,0x79,0x13
21.708765625000002,0,0x07,0x41
21.710182208333332,0,0x39,0x5D
21.711573708333333,0,0x47,0x41
21.712990291666667,0,0x39,0x4D
21.714381791666668,0,0xC7,0x01
21.715798416666665,0,0xFD,0x03
21.717189874999999,0,0x07,0xD1
21.718606500000000,0,0xE8,0xBB
21.719998000000000,0,0xF0,0x85
21.721414625000001,0,0xF8,0x8D
21.722806083333332,0,0xF0,0xD3
21.724222708333333,0,0xE0,0x85
21.725614166666666,0,0xF0,0xEB
21.727030791666667,0,0xF0,0xA1
21.728422250000001,0,0xF0,0xD7
21.729838916666665,0,0xF0,0x98
21.731230374999999,0,0xF0,0xA7
21.732647000000000,0,0xF0,0xDF
21.734038416666667,0,0xF0,0x87
21.735455083333335,0,0xE0,0x98
21.736846541666665,0,0xF0,0x87
21.738263208333333,0,0xF4,0xAB
21.739654625000000,0,0xF0,0x97
21.741071250000001,0,0x00,0x6A
21.742462666666668,0,0x00,0xD4
21.743879374999999,0,0x00,0xF4
21.745270750000000,0,0x00,0xDF
21.746687458333334,0,0x00,0x20
21.748078875000001,0,0x00,0xDF
21.749495541666668,0,0x00,0x1A
21.751070083333332,0,0x00,0xC5
21.752486791666666,0,0x00,0xC1
21.753878166666667,0,0x00,0x82
21.755294875000001,0,0x00,0x0C
21.756686250000001,0,0x00,0xD7
21.758102958333332,0,0x00,0x05
21.759494333333333,0,0x00,0xD2
21.760911083333333,0,0x00,0xEC
21.762302416666667,0,0x00,0xD7
21.763719166666668,0,0x00,0x42
21.765110499999999,0,0x00,0x24
21.766527249999999,0,0x00,0x40
21.767918583333334,0,0x00,0xF2
21.769335333333334,0,0x00,0x02
21.770726666666668,0,0x00,0xFC
21.772143458333332,0,0x00,0x94
21.773534750000000,0,0x00,0x70
21.774951541666667,0,0x00,0xCA
21.776342833333334,0,0x00,0x31
21.777759625000002,0,0x00,0x4C
21.779150958333332,0,0x00,0xB0
21.780567708333333,0,0x00,0x04
21.781959041666667,0,0x00,0xF8
21.783375833333334,0,0x00,0xDD
21.785011291666667,0,0x01,0x72
21.786428083333334,0,0xF9,0x13
21.787819375000002,0,0x07,0x01
21.789236166666665,0,0x1D,0x49
21.790627458333333,0,0x7F,0x81
21.792044291666667,0,0x0B,0x01
21.793435541666668,0,0x1F,0x01
21.794852375000001,0,0x17,0x41
21.796243624999999,0,0x0F,0x1D
21.797660458333333,0,0x17,0x03
21.799051708333334,0,0x0F,0x3D
21.800468541666667,0,0x57,0x83
21.801859791666665,0,0x0F,0x3D
21.803276666666665,0,0x17,0x17
21.804667875000000,0,0x0F,0x29
21.806084750000000,0,0x67,0x69
21.807475958333335,0,0x9F,0x15
21.808892875000002,0,0xE8,0xF8
21.810284124999999,0,0xF0,0x87
21.811700958333333,0,0xFC,0xBD
21.813092166666667,0,0xF1,0xC7
21.814509041666668,0,0xF7,0xD8
21.815900249999999,0,0xF9,0x87
21.817317124999999,0,0xF1,0x95
21.818708333333333,0,0xFF,0xC7
21.820125250000000,0,0xFD,0xA2
21.821516416666668,0,0xFE,0x87
21.822933333333335,0,0xFF,0xA9
21.824324499999999,0,0xFF,0x87
21.825741416666666,0,0xFF,0x8C
21.827132583333334,0,0xFF,0x87
21.828549500000001,0,0xFF,0xE5
21.829940666666666,0,0xFF,0x9F
21.831357583333332,0,0x00,0x81
21.832809791666666,0,0x00,0xFE
21.834226791666666,0,0xD5,0x50
21.835617875000001,0,0x00,0xFF
21.837034833333334,0,0x00,0x10
21.838487083333334,0,0x80,0xFF
21.839904000000001,0,0xBC,0x15
21.841356166666667,0,0xC0,0xDF
21.842773125000001,0,0x0E,0xC8
21.844225333333334,0,0xF0,0x9F
21.845642291666667,0,0x55,0xF5
21.847094416666668,0,0xFF,0x0F
21.848511416666668,0,0xF8,0x40
21.849963583333334,0,0xFF,0x8F
21.851380541666668,0,0xDF,0x5D
21.852832666666668,0,0xFF,0xE7
21.854249666666668,0,0x01,0x8E
21.855701791666668,0,0x01,0x70
21.857118833333335,0,0x57,0xCE
21.858570916666668,0,0x01,0x70
21.859987958333335,0,0x0E,0xA7
21.861440083333335,0,0x01,0xC0
21.862857083333335,0,0x79,0xC9
21.864309208333335,0,0x07,0xC4
21.865726250000002,0,0xA0,0x5B
21.867178333333332,0,0x5F,0xE0
21.868595375000002,0,0x57,0x51
21.870047458333332,0,0xFF,0xE4
21.871464541666668,0,0xFF,0x08
21.872916624999998,0,0xFF,0xE4
21.874333666666665,0,0xFF,0x48
21.875785749999999,0,0xFF,0xF5
21.877202833333332,0,0xE7,0x01
21.878654833333332,0,0x9F,0x01
21.880071958333332,0,0x9F,0x29
21.881523999999999,0,0xFF,0x81
21.882941083333332,0,0x9F,0x05
21.884393124999999,0,0x7F,0x01
21.885810208333332,0,0x7F,0xE1
21.887262249999999,0,0xFF,0x05
21.888679374999999,0,0xFF,0x59
21.890131374999999,0,0xFF,0x01
21.891548499999999,0,0xFF,0xDD
21.893000499999999,0,0xFF,0x01
21.894417666666666,0,0xFF,0xA5
21.895869625000000,0,0xFF,0x01
21.897286791666666,0,0xFF,0xA5
21.898738791666666,0,0xFF,0x01
21.900155916666666,0,0xFF,0xE9
21.901791041666666,0,0xFF,0x9F
21.903208208333332,0,0xFF,0x95
21.904660208333333,0,0xFF,0xFF
21.906077333333332,0,0xFF,0xB9
21.907529333333333,0,0xFF,0xFF
21.908946499999999,0,0xFF,0xFF
21.910398458333333,0,0xFF,0xFF
21.911815624999999,0,0x00,0x00
21.913267583333333,0,0x00,0x00
21.914684791666666,0,0x00,0x00
21.916136708333333,0,0x00,0x00
21.917553916666666,0,0x00,0x00
21.919005833333333,0,0x00,0x00
21.920423041666666,0,0x00,0x00
21.921875000000000,0,0x00,0x00
21.923292208333333,0,0xC3,0x0C
21.924744125000000,0,0x87,0xF3
21.926161333333333,0,0x9B,0xD0
21.927613250000000,0,0xC7,0xFD
21.929030458333333,0,0xC3,0x42
21.930482375000000,0,0xFF,0xFC
21.931899625000000,0,0xFF,0xFF
21.933351500000001,0,0xFF,0xFF
21.934768750000000,0,0x00,0x00
21.936159583333332,0,0x00,0x00
21.937576833333335,0,0x00,0x00
21.939028708333332,0,0x00,0x00
21.940446000000001,0,0x00,0x00
21.941897874999999,0,0x00,0x00
21.943315125000002,0,0x00,0x00
21.944766999999999,0,0x00,0x00
21.946184291666668,0,0xFF,0x1C
21.947636124999999,0,0xFF,0xE2
21.949053416666668,0,0xFF,0x0A
21.950505249999999,0,0xFF,0xF5
21.951922541666665,0,0xDF,0x1F
21.953374374999999,0,0xFF,0xE0
21.954791708333332,0,0xFF,0xFF
21.956243499999999,0,0xFF,0xFF
21.957660833333332,0,0x00,0x00
21.959112666666666,0,0x00,0x00
21.960529958333332,0,0x00,0x00
21.961981791666666,0,0x00,0x00
21.963399124999999,0,0x00,0x00
21.964850916666666,0,0x00,0x00
21.966268249999999,0,0x00,0x00
21.967720041666666,0,0x00,0x00
21.969137458333332,0,0xFF,0xA9
21.970589166666667,0,0xFF,0x01
21.972006541666666,0,0xFF,0x75
21.973458291666667,0,0xFF,0x09
21.974875666666666,0,0xFF,0x6D
21.976327416666667,0,0xFF,0x01
21.977744833333333,0,0xFF,0xFF
21.979196583333334,0,0xFF,0xFF
21.980613958333333,0,0x00,0x00
21.982065708333334,0,0x00,0x00
21.983483083333333,0,0x00,0x00
21.984934833333334,0,0x00,0x00
21.986352249999999,0,0x00,0x00
21.987803958333334,0,0x00,0x00
21.989221375000000,0,0x00,0x00
21.990673083333334,0,0x00,0x00
21.992090583333333,0,0xFF,0xFF
21.993542250000001,0,0xFF,0xFF
21.994959666666666,0,0xFF,0xFF
21.996411375000001,0,0xFF,0xFF
21.997828791666667,0,0xF8,0xFF
21.999280541666668,0,0xFF,0xFF
22.000697958333333,0,0xF5,0xFF
22.002210666666667,0,0xF8,0xFF
22.003628124999999,0,0xF8,0xFD
22.005079833333333,0,0xF0,0xFE
22.006497333333332,0,0xFD,0xFF
22.007948958333333,0,0xF0,0xFC
22.009366499999999,0,0xF0,0xFD
22.010818083333334,0,0xF8,0xF8
22.012235624999999,0,0xF4,0xD6
22.013687250000000,0,0xF8,0xF9
22.015104708333332,0,0xFF,0xFF
22.016556333333334,0,0xFF,0xFF
22.017973833333333,0,0xF5,0xCD
22.019425458333334,0,0xFE,0xF0
22.020842958333333,0,0x72,0x4E
22.022294625000001,0,0xFC,0x81
22.023712124999999,0,0x69,0xE3
22.025163708333334,0,0x14,0x1D
22.026581250000000,0,0x00,0x76
22.028032875000001,0,0x00,0x09
22.029450375000000,0,0x00,0x80
22.030902000000001,0,0x00,0x7F
22.032319541666666,0,0x00,0xCE
22.033771125000001,0,0x00,0x31
22.035188666666667,0,0x01,0x0A
22.036640250000001,0,0x00,0xF5
22.038057833333333,0,0xFF,0xFF
22.039509375000002,0,0xFF,0xFF
22.040926916666667,0,0x50,0xD9
22.042378500000002,0,0x04,0x07
22.043796083333334,0,0x20,0xA3
22.045247624999998,0,0x00,0x40
22.046665250000000,0,0x15,0xB3
22.048116791666665,0,0x40,0x4C
22.049534375000000,0,0x41,0x37
22.050985916666665,0,0x00,0xC8
22.052403541666667,0,0x57,0x82
22.053855041666665,0,0x00,0x7D
22.055272666666667,0,0x14,0xF1
22.056724166666665,0,0x00,0x0E
22.058141791666667,0,0x1E,0xA8
22.059593333333332,0,0x01,0x57
22.061010916666667,0,0xFF,0xFF
22.062462458333332,0,0xFF,0xFF
22.063880041666668,0,0x55,0xFF
22.065331583333332,0,0x1F,0xFF
22.066749208333334,0,0x01,0x7F
22.068200708333332,0,0x1F,0xFF
22.069618333333334,0,0x45,0xFF
22.071069833333333,0,0x1F,0x7F
22.072487500000001,0,0xF9,0x5F
22.073938958333333,0,0x07,0x3F
22.075356625000001,0,0x39,0xFF
22.076808083333333,0,0x47,0x1F
22.078225791666668,0,0xEB,0xDF
22.079677208333333,0,0x07,0x0F
22.081094916666668,0,0x5B,0x37
22.082546375000000,0,0x87,0xCF
22.083964041666668,0,0xF4,0xFF
22.085415541666666,0,0xF8,0xF0
22.086833291666668,0,0xFC,0xE8
22.088284666666667,0,0xF8,0xF7
22.089702375000002,0,0xFC,0xE6
22.091153791666667,0,0xF8,0xF1
22.092571499999998,0,0xFC,0xE6
22.094022958333333,0,0xF8,0xF1
22.095440624999998,0,0xF8,0xE8
22.096892083333334,0,0xF8,0xE7
22.098309791666665,0,0xFC,0xFA
22.099761208333334,0,0xF8,0xE5
22.101178916666665,0,0xF8,0xEE
22.102691374999999,0,0xF8,0xE1
22.104109083333334,0,0xFD,0xF8
22.105560499999999,0,0xF8,0xE7
22.106978208333334,0,0x01,0x57
22.108429583333333,0,0x00,0xA8
22.109847375000001,0,0x00,0x28
22.111298750000000,0,0x00,0xD7
22.112716500000001,0,0x00,0xFF
22.114167875000000,0,0x00,0x00
22.115585625000001,0,0x00,0x02
22.117037000000000,0,0x00,0xFD
22.118454791666668,0,0x00,0x7F
22.119906125000000,0,0x00,0x80
22.121323916666668,0,0x00,0xAA
22.122775250000000,0,0x00,0x55
22.124193041666668,0,0x00,0xAF
22.125644375000000,0,0x00,0x50
22.127062208333335,0,0x00,0x1B
22.128513541666667,0,0x00,0xE4
22.129931375000002,0,0xE5,0x76
22.131382666666667,0,0x02,0x89
22.132800499999998,0,0x01,0x82
22.134251791666667,0,0x00,0x7D
22.135669624999998,0,0x00,0xEF
22.137120916666667,0,0x00,0x10
22.138538791666665,0,0x00,0xA8
22.139990041666668,0,0x00,0x57
22.141407916666665,0,0x00,0xED
22.142859166666668,0,0x00,0x12
22.144277041666665,0,0x00,0xA8
22.145728333333334,0,0x00,0xD7
22.147146166666666,0,0x00,0xB9
22.148597458333334,0,0x00,0xC6
22.150015333333332,0,0x01,0xEC
22.151466583333335,0,0x00,0x13
22.152884458333332,0,0x7B,0x6F
22.154335708333335,0,0x07,0x87
22.155753583333333,0,0xC7,0x37
22.157204833333335,0,0x1F,0xC7
22.158622749999999,0,0x8F,0xB3
22.160073958333335,0,0x7F,0x47
22.161491874999999,0,0x27,0x23
22.162943083333332,0,0x1F,0xD7
22.164361000000000,0,0x17,0x57
22.165812249999998,0,0x0F,0xA3
22.167230166666666,0,0x47,0xAF
22.168681374999998,0,0x1F,0x53
22.170099291666666,0,0x2F,0xBF
22.171550499999999,0,0x1F,0x43
22.172968416666667,0,0x7F,0x03
22.174419624999999,0,0x1F,0xF7
22.175837583333333,0,0xFC,0xF7
22.177288791666665,0,0xF8,0xE0
22.178706791666666,0,0xFE,0xC2
22.180157958333332,0,0xFD,0xF5
22.181575875000000,0,0xFC,0xCD
22.183027041666666,0,0xFF,0xF2
22.184445000000000,0,0xFE,0xFF
22.185896208333332,0,0xFF,0xF0
22.187314166666667,0,0xFF,0xF2
22.188765291666666,0,0xFF,0xF9
22.190183291666667,0,0xFF,0xF2
22.191634458333333,0,0xFF,0xFD
22.193052416666667,0,0xFF,0xFA
22.194503583333333,0,0xFF,0xFC
22.195921583333334,0,0xFF,0xDC
22.197372708333333,0,0xFF,0xFF
22.198790708333334,0,0x00,0x4F
22.200241833333333,0,0x00,0xB0
22.201659916666667,0,0xC0,0xA8
22.203171999999999,0,0x00,0x55
22.204590041666666,0,0x00,0x77
22.206041166666665,0,0x80,0x88
22.207459166666666,0,0x35,0x22
22.208910291666665,0,0xC0,0xDD
22.210328291666666,0,0x1C,0x0E
22.211779458333332,0,0xE0,0xF1
22.213197458333333,0,0xD5,0x8A
22.214648541666666,0,0xFF,0x75
22.216066583333333,0,0xB0,0xB0
22.217517666666666,0,0xCF,0x4F
22.218935750000000,0,0xD3,0x31
22.220386791666666,0,0xC7,0x4F
22.221804875000000,0,0x01,0xB9
22.223255916666666,0,0x02,0x46
22.224674041666667,0,0x12,0xAA
22.226125041666666,0,0x07,0x55
22.227543125000000,0,0x02,0xCB
22.228994166666666,0,0x07,0x34
22.230412291666667,0,0x7A,0x04
22.231863333333333,0,0x05,0xFB
22.233281416666667,0,0xE0,0xB9
22.234732458333333,0,0x1F,0x46
22.236150583333334,0,0x5F,0xA8
22.237601583333333,0,0xFF,0x57
22.239019708333334,0,0xFF,0x87
22.240470708333334,0,0xFF,0x78
22.241888875000001,0,0xFF,0xA7
22.243339833333334,0,0xFF,0x58
22.244758000000001,0,0x4F,0x73
22.246208958333334,0,0x3F,0x87
22.247627125000001,0,0x9F,0xB3
22.249078083333334,0,0x7F,0x47
22.250496250000001,0,0x3F,0x7B
22.251947250000001,0,0xFF,0x87
22.253365416666668,0,0x7F,0x7F
22.254816375000001,0,0xFF,0x87
22.256234541666668,0,0xFF,0x77
22.257685500000001,0,0xFF,0x8F
22.259103708333335,0,0xFF,0xEF
22.260554625000001,0,0xFF,0x1F
22.261972833333335,0,0xFF,0x3F
22.263423750000001,0,0xFF,0x1F
22.264841958333335,0,0xFF,0x1F
22.266292875000001,0,0xFF,0x7F
22.267711125000002,0,0xFF,0xFE
22.269162041666668,0,0xFF,0xFF
22.270580249999998,0,0xFF,0xFF
22.272031166666668,0,0xFF,0xFF
22.273449416666665,0,0xFF,0xFB
22.274900291666668,0,0xFF,0xFF
22.276318541666665,0,0xFF,0xFF
22.277769416666668,0,0xFF,0xFF
22.279187666666665,0,0x00,0x00
22.280638541666665,0,0x00,0x00
22.282056833333332,0,0x00,0x00
22.283507708333332,0,0x00,0x00
22.284925958333332,0,0x00,0x00
22.286376833333332,0,0x00,0x00
22.287795124999999,0,0x00,0x00
22.289245958333332,0,0x00,0x00
22.290664333333332,0,0xD3,0xFC
22.292115083333332,0,0xEF,0x03
22.293533374999999,0,0xD4,0xB6
22.294984249999999,0,0xFF,0xC1
22.296402541666666,0,0x80,0xE7
22.297853374999999,0,0xFF,0xF8
22.299271666666666,0,0xFF,0xFF
22.300722499999999,0,0xFF,0xFF
22.302140791666666,0,0x00,0x00
22.303652666666668,0,0x00,0x00
22.305071000000002,0,0x00,0x00
22.306521791666668,0,0x00,0x00
22.307940124999998,0,0x00,0x00
22.309390916666668,0,0x00,0x00
22.310809291666665,0,0x00,0x00
22.312260041666665,0,0x00,0x00
22.313678416666665,0,0x06,0xBE
22.315129208333332,0,0xFF,0x40
22.316547541666665,0,0x57,0xB6
22.317998333333332,0,0xFF,0x41
22.319416666666665,0,0x07,0xF3
22.320867458333332,0,0xFF,0x0F
22.322285833333332,0,0xFF,0xFF
22.323736583333332,0,0xFF,0xFF
22.325154958333332,0,0x00,0x00
22.326605708333332,0,0x00,0x00
22.328024124999999,0,0x00,0x00
22.329474833333332,0,0x00,0x00
22.330893249999999,0,0x00,0x00
22.332343999999999,0,0x00,0x00
22.333762374999999,0,0x00,0x00
22.335213124999999,0,0x00,0x00
22.336631541666666,0,0xFF,0x7F
22.338082249999999,0,0xFF,0xFF
22.339500666666666,0,0xFF,0xFF
22.340951375000000,0,0xFF,0xFF
22.342369833333333,0,0xFF,0xFF
22.343820500000000,0,0xFF,0xFF
22.345238958333333,0,0xFF,0xFF
22.346689625000000,0,0xFF,0xFF
22.348108083333333,0,0x00,0x00
22.349558791666666,0,0x00,0x00
22.350977250000000,0,0x00,0x00
22.352427916666667,0,0x00,0x00
22.353846375000000,0,0x00,0x00
22.355297041666667,0,0x00,0x00
22.356715500000000,0,0x00,0x00
22.358166166666667,0,0x00,0x00
22.359584750000000,0,0xFF,0xFF
22.361035291666667,0,0xFF,0xFF
22.362453791666667,0,0xC0,0xFF
22.363904458333334,0,0xFF,0xFF
22.365322958333334,0,0x83,0xFF
22.366773583333334,0,0xFC,0xFF
22.368192083333334,0,0xAB,0xFF
22.369642708333334,0,0xD4,0xFF
22.371061250000000,0,0xFF,0xFE
22.372511833333334,0,0x80,0xFF
22.373930375000000,0,0xBD,0xFF
22.375380958333334,0,0xC0,0xFC
22.376799583333334,0,0xF8,0xF6
22.378250125000001,0,0x80,0xF8
22.379668708333334,0,0xD5,0xF5
22.381119208333335,0,0x80,0xF8
22.382537875000001,0,0xFF,0xFF
22.383988375000001,0,0xFF,0xFF
22.385406916666668,0,0x2A,0xF2
22.386857541666668,0,0xD5,0xFD
22.388276041666668,0,0xFF,0xD4
22.389726625000002,0,0x00,0xE3
22.391145208333334,0,0xFF,0x0F
22.392595750000002,0,0x00,0xF0
22.394014375000001,0,0xE0,0x30
22.395464874999998,0,0x00,0x00
22.396883500000001,0,0x55,0x2E
22.398333999999998,0,0x00,0x41
22.399752625000001,0,0x00,0x8C
22.401203166666665,0,0x00,0x43
22.402621750000002,0,0x40,0x57
22.404133333333334,0,0x00,0x81
22.405551958333334,0,0xFF,0xFF
22.407002458333334,0,0xFF,0xFF
22.408421083333334,0,0xF0,0xA7
22.409871583333334,0,0x00,0x5F
22.411290250000000,0,0xF3,0x1D
22.412740708333335,0,0x04,0xE3
22.414159375000001,0,0x43,0xD8
22.415609833333335,0,0x34,0x07
22.417028500000001,0,0x10,0x84
22.418479000000001,0,0x20,0x02
22.419897666666667,0,0x43,0x36
22.421348125000002,0,0x34,0xC1
22.422766791666668,0,0x08,0x1D
22.424217250000002,0,0x30,0xE0
22.425635916666668,0,0x1F,0x41
22.427086374999998,0,0x30,0xF0
22.428505125000001,0,0xFF,0xFF
22.429955499999998,0,0xFF,0xFF
22.431374208333335,0,0x03,0xFF
22.432824624999999,0,0x01,0xFF
22.434243333333335,0,0xE1,0xFF
22.435693749999999,0,0x01,0xFF
22.437112500000001,0,0xE1,0x7F
22.438562916666665,0,0x01,0xFF
22.439981625000001,0,0x01,0x1F
22.441432041666665,0,0x01,0x7F
22.442850750000002,0,0xA1,0x6F
22.444301166666666,0,0x41,0x1F
22.445719875000002,0,0x01,0x67
22.447170291666666,0,0x01,0x8F
22.448589041666665,0,0xF5,0x5F
22.450039416666666,0,0x01,0x87
22.451458208333332,0,0xC0,0xE8
22.452908624999999,0,0x80,0xF0
22.454327416666668,0,0x85,0xED
22.455777708333333,0,0x80,0xF0
22.457196541666665,0,0xFA,0xF1
22.458646874999999,0,0x81,0xE0
22.460065624999999,0,0xB6,0xED
22.461516000000000,0,0xC1,0xF0
22.462934749999999,0,0xE7,0xE1
22.464385083333333,0,0x80,0xF0
22.465803958333332,0,0xFC,0xF4
22.467254291666666,0,0xC0,0xF3
22.468673041666666,0,0x9E,0xF1
22.470123375000000,0,0x80,0xFE
22.471542249999999,0,0xB0,0xF0
22.472992541666667,0,0x84,0xFC
22.474411333333332,0,0x00,0x0F
22.475861625000000,0,0x00,0x80
22.477280458333333,0,0x02,0x04
22.478730750000000,0,0x00,0x80
22.480149666666666,0,0x80,0x80
22.481599875000001,0,0x00,0x00
22.483018749999999,0,0x44,0x14
22.484469041666667,0,0x01,0x80
22.485887875000000,0,0x21,0x80
22.487338125000001,0,0x00,0x00
22.488757041666666,0,0x64,0xA3
22.490207291666668,0,0x01,0x40
22.491626125000000,0,0x61,0x90
22.493076416666668,0,0x00,0x60
22.494495291666667,0,0x10,0x19
22.495945541666668,0,0x41,0x74
22.497364416666667,0,0x0F,0xF0
22.498814666666668,0,0x30,0x00
22.500233583333333,0,0x1D,0x20
22.501683791666668,0,0x30,0x10
22.503102708333333,0,0x1B,0x0A
22.504614000000000,0,0x30,0x00
22.506032916666665,0,0xDA,0x14
22.507483125000000,0,0x35,0x00
22.508902041666666,0,0x98,0x09
22.510352250000000,0,0x30,0x00
22.511771166666666,0,0x5F,0x66
22.513221375000001,0,0xB0,0x01
22.514640333333332,0,0x1F,0x84
22.516090500000001,0,0xB0,0x03
22.517509458333333,0,0x58,0x58
22.518959666666667,0,0xB0,0x07
22.520378624999999,0,0x9D,0x0F
22.521828791666668,0,0x63,0xC3
22.523247749999999,0,0x75,0xD3
22.524697916666668,0,0x01,0x47
22.526116875000000,0,0xFF,0x9B
22.527567041666668,0,0x01,0x47
22.528986041666666,0,0x8B,0xEB
22.530436166666668,0,0x75,0x47
22.531855166666666,0,0xC1,0x53
22.533305291666668,0,0x01,0xA7
22.534724291666667,0,0xAB,0x1F
22.536174416666668,0,0x55,0xF7
22.537593458333333,0,0x9F,0x67
22.539043583333335,0,0x61,0x9F
22.540462583333333,0,0x65,0x9F
22.541912708333335,0,0x01,0x07
22.543331708333334,0,0xA9,0xF0
22.544781833333332,0,0xC0,0xF8
22.546200958333333,0,0xB6,0xFD
22.547650999999998,0,0x81,0xF8
22.549070000000000,0,0xE3,0xFC
22.550520124999998,0,0x80,0xF8
22.551939208333334,0,0x98,0xF9
22.553389249999999,0,0x86,0xFC
22.554808375000000,0,0x84,0xFB
22.556258374999999,0,0x80,0xFC
22.557677500000000,0,0xD4,0xFC
22.559127541666665,0,0x88,0xFF
22.560546583333334,0,0xB0,0xFC
22.561996666666666,0,0xC8,0xFF
22.563415750000001,0,0xE1,0xFF
22.564865749999999,0,0xD0,0xFF
22.566284875000001,0,0x82,0x2B
22.567734874999999,0,0x00,0x1C
22.569154000000001,0,0x72,0x10
22.570604041666666,0,0x00,0x0F
22.572023125000001,0,0x02,0x8C
22.573473166666666,0,0x00,0x03
22.574892250000001,0,0x72,0xF6
22.576342291666666,0,0x01,0x01
22.577761375000001,0,0x03,0xFB
22.579211416666666,0,0x00,0x00
22.580630541666668,0,0x06,0x74
22.582080583333333,0,0x41,0x81
22.583499666666668,0,0x04,0x79
22.584949666666667,0,0x02,0x80
22.586368833333335,0,0x87,0x30
22.587818833333333,0,0x04,0xC5
22.589238000000002,0,0xDF,0x20
22.590687958333334,0,0x30,0x1F
22.592107124999998,0,0x9A,0x97
22.593557083333334,0,0x35,0x78
22.594976249999998,0,0x18,0xC9
22.596426208333334,0,0xB0,0x30
22.597845374999999,0,0x1A,0x32
22.599295375000001,0,0xB5,0xC1
22.600714499999999,0,0x3F,0x27
22.602164458333334,0,0x90,0xC0
22.603583666666665,0,0x5D,0x37
22.605094666666666,0,0xB0,0xC0
22.606513875000001,0,0x5F,0x07
22.607963791666666,0,0xB0,0xC0
22.609383000000001,0,0x1D,0x7C
22.610832916666666,0,0xF0,0xC1
22.612252166666668,0,0xF3,0x2F
22.613702041666667,0,0x0D,0x07
22.615121291666668,0,0xAF,0xC7
22.616571166666667,0,0x51,0x1F
22.617990416666668,0,0x0B,0xE7
22.619440291666667,0,0x01,0x0F
22.620859541666668,0,0x23,0xD7
22.622309416666667,0,0xDD,0x0F
22.623728708333335,0,0xF3,0xFF
22.625178541666667,0,0x01,0x0F
22.626597833333335,0,0xEB,0xDF
22.628047708333334,0,0x15,0x7F
22.629466958333332,0,0x43,0xBF
22.630916833333334,0,0xBD,0x7F
22.632336083333332,0,0x57,0x7F
22.633785958333334,0,0x01,0xFF
22.635205249999999,0,0x80,0xFF
22.636655125000001,0,0x80,0xFF
22.638074416666665,0,0x80,0xFF
22.639524250000001,0,0x81,0xFF
22.640943541666665,0,0xB3,0xFF
22.642393375000001,0,0xC0,0xFF
22.643812708333332,0,0xFF,0xFF
22.645262500000001,0,0xFF,0xFF
22.646681791666666,0,0x00,0x00
22.648131625000001,0,0x00,0x00
22.649550958333332,0,0x00,0x00
22.651000750000001,0,0x00,0x00
22.652420083333332,0,0x00,0x00
22.653869875000002,0,0x00,0x00
22.655472374999999,0,0x00,0x00
22.656922166666668,0,0x00,0x00
22.658341541666665,0,0x05,0x99
22.659791291666668,0,0x00,0xE4
22.661210666666666,0,0x41,0xF5
22.662660416666668,0,0x00,0xC0
22.664079791666666,0,0x01,0xE3
22.665529541666668,0,0x00,0xFC
22.666949041666665,0,0xFF,0xFF
22.668398708333335,0,0xFF,0xFF
22.669818083333332,0,0x00,0x00
22.671267833333335,0,0x00,0x00
22.672687208333333,0,0x00,0x00
22.674136958333332,0,0x00,0x00
22.675556374999999,0,0x00,0x00
22.677006083333332,0,0x00,0x00
22.678425499999999,0,0x00,0x00
22.679875208333332,0,0x00,0x00
22.681294625000000,0,0x5F,0x29
22.682744333333332,0,0xB0,0xC0
22.684163791666666,0,0x9A,0x3E
22.685613499999999,0,0x75,0xC1
22.687032916666666,0,0x1A,0x73
22.688482583333332,0,0x30,0x0F
22.689902083333333,0,0xFF,0xFF
22.691351749999999,0,0xFF,0xFF
22.692771166666667,0,0x00,0x00
22.694220874999999,0,0x00,0x00
22.695640333333333,0,0x00,0x00
22.697089999999999,0,0x00,0x00
22.698509500000000,0,0x00,0x00
22.699959124999999,0,0x00,0x00
22.701378625000000,0,0x00,0x00
22.702828291666666,0,0x00,0x00
22.704247791666667,0,0xC3,0x7F
22.705697416666666,0,0x3D,0xFF
22.707116916666667,0,0xAB,0x7F
22.708566541666666,0,0x55,0xFF
22.709986041666667,0,0xF7,0xFF
22.711435666666667,0,0x01,0xFF
22.712855166666667,0,0xFF,0xFF
22.714304791666667,0,0xFF,0xFF
22.715724291666668,0,0x00,0x00
22.717173916666667,0,0x00,0x00
22.718593458333334,0,0x00,0x00
22.720043083333334,0,0x00,0x00
22.721462625000001,0,0x00,0x00
22.722912208333334,0,0x00,0x00
22.724331750000001,0,0x00,0x00
22.725781333333334,0,0x00,0x00
22.727200958333334,0,0xFF,0xFF
22.728650458333334,0,0xFF,0xFF
22.730070041666668,0,0xC0,0xDC
22.731519625000001,0,0xFF,0x80
22.732939166666668,0,0x83,0x90
22.734388750000001,0,0xFC,0x80
22.735808375000001,0,0xAB,0xF4
22.737257875000001,0,0xD4,0x80
22.738799624999999,0,0xFF,0xFC
22.740249083333332,0,0x80,0x83
22.741668708333332,0,0xBD,0xC0
22.743118208333332,0,0xC0,0x87
22.744537833333332,0,0xF8,0x88
22.745987374999999,0,0x80,0x87
22.747406999999999,0,0xD5,0xD5
22.748856458333332,0,0x80,0x8F
22.750276124999999,0,0xFF,0xFF
22.751725624999999,0,0xFF,0xFF
22.753145208333333,0,0x2A,0x44
22.754594749999999,0,0xD5,0x00
22.756014374999999,0,0xFF,0x20
22.757463874999999,0,0x00,0x00
22.758883624999999,0,0xFF,0x97
22.760332999999999,0,0x00,0x78
22.761752666666666,0,0xE0,0x01
22.763202124999999,0,0x00,0xFE
22.764621791666666,0,0x55,0x19
22.766071250000000,0,0x00,0xE7
22.767490916666667,0,0x00,0x20
22.768940416666666,0,0x00,0x80
22.770360083333333,0,0x40,0x74
22.771809541666666,0,0x00,0x80
22.773229291666667,0,0xFF,0xFF
22.774678666666667,0,0xFF,0xFF
22.776098375000000,0,0xF0,0x85
22.777547791666667,0,0x00,0x1F
22.778967541666667,0,0xF3,0xC3
22.780416916666667,0,0x04,0x3F
22.781836625000000,0,0x43,0x17
22.783286041666667,0,0x34,0x7F
22.784705791666667,0,0x10,0xA6
22.786155208333334,0,0x20,0x7F
22.787574916666667,0,0x43,0x55
22.789024333333334,0,0x34,0xFF
22.790444041666667,0,0x08,0x02
22.791893458333334,0,0x30,0xFC
22.793313208333334,0,0x1F,0x50
22.794762583333334,0,0x30,0xFC
22.796182416666667,0,0xFF,0xFF
22.797631708333334,0,0xFF,0xFF
22.799051458333334,0,0x03,0x21
22.800500833333334,0,0x01,0xC1
22.801920625000001,0,0xE1,0x91
22.803369958333334,0,0x01,0xE1
22.804789750000001,0,0xE1,0x41
22.806239125000001,0,0x01,0xF1
22.807658875000001,0,0x01,0x19
22.809108250000001,0,0x01,0xE1
22.810528041666668,0,0xA1,0x09
22.811977375000001,0,0x41,0xF1
22.813397166666668,0,0x01,0x99
22.814846500000002,0,0x01,0x61
22.816266333333335,0,0xF5,0x29
22.817715625000002,0,0x01,0x51
22.819135458333335,0,0xC0,0xD4
22.820584833333335,0,0x80,0x8F
22.822004625000002,0,0x85,0xA4
22.823453916666665,0,0x80,0xDF
22.824873749999998,0,0xFA,0xC0
22.826323083333332,0,0x81,0xBF
22.827742874999998,0,0xB6,0xD4
22.829192208333332,0,0xC1,0xFF
22.830612041666665,0,0xE7,0x89
22.832061291666665,0,0x80,0xF6
22.833481249999998,0,0xFC,0xCC
22.834930458333332,0,0xC0,0xF7
22.836350333333332,0,0x9E,0x80
22.837799624999999,0,0x80,0xFF
22.839219458333332,0,0xB0,0xDC
22.840668749999999,0,0x84,0xFF
22.842088583333332,0,0x00,0x1E
22.843537833333333,0,0x00,0xE0
22.844957749999999,0,0x02,0x0E
22.846406958333333,0,0x00,0xF1
22.847826874999999,0,0x80,0x94
22.849276083333333,0,0x00,0x60
22.850695999999999,0,0x44,0x4B
22.852145208333333,0,0x01,0x94
22.853565124999999,0,0x21,0xD7
22.855014333333333,0,0x00,0x08
22.856434291666666,0,0x64,0xEC
22.857883500000000,0,0x01,0x10
22.859303416666666,0,0x61,0xBC
22.860752625000000,0,0x00,0x00
22.862172583333333,0,0x10,0x8A
22.863621750000000,0,0x41,0x74
22.865041708333333,0,0x0F,0x86
22.866490875000000,0,0x30,0x78
22.867910875000000,0,0x1D,0x9F
22.869360000000000,0,0x30,0x70
22.870780000000000,0,0x1B,0xEE
22.872229125000000,0,0x30,0x10
22.873649208333333,0,0xDA,0xBF
22.875098250000001,0,0x35,0x10
22.876518291666667,0,0x98,0xAB
22.877967416666667,0,0x30,0x10
22.879387416666667,0,0x5F,0x46
22.880836541666667,0,0xB0,0x19
22.882256541666667,0,0x1F,0x17
22.883705666666668,0,0xB0,0x08
22.885125708333334,0,0x58,0x43
22.886574791666668,0,0xB0,0x1C
22.887994916666667,0,0x9D,0xF1
22.889443916666668,0,0x63,0x01
22.890863958333334,0,0x75,0xF1
22.892313041666668,0,0x01,0x01
22.893733125000001,0,0xFF,0x01
22.895182166666668,0,0x01,0x01
22.896602250000001,0,0x8B,0xD1
22.898051333333335,0,0x75,0x01
22.899471375000001,0,0xC1,0x01
22.900920458333335,0,0x01,0x01
22.902340541666668,0,0xAB,0xC1
22.903789583333332,0,0x55,0x01
22.905209666666668,0,0x9F,0x01
22.906658708333332,0,0x61,0x01
22.908078791666668,0,0x65,0x11
22.909527833333332,0,0x01,0x01
22.910947958333335,0,0xA9,0x89
22.912396999999999,0,0xC0,0xFE
22.913817166666668,0,0xB6,0xDD
22.915266166666665,0,0x81,0xFF
22.916686250000001,0,0xE3,0x98
22.918135291666665,0,0x80,0xFF
22.919555416666668,0,0x98,0xDC
22.921004416666666,0,0x86,0xFF
22.922424541666668,0,0x84,0xCA
22.923873583333332,0,0x80,0xFC
22.925293750000002,0,0xD4,0xD2
22.926742708333332,0,0x88,0xFC
22.928162875000002,0,0xB0,0x8B
22.929611791666666,0,0xC8,0xF0
22.931032041666668,0,0xE1,0xCD
22.932480916666666,0,0xD0,0xF0
22.933901083333332,0,0x82,0x7F
22.935350041666666,0,0x00,0x00
22.936770249999999,0,0x72,0x85
22.938219166666666,0,0x00,0x40
22.939700416666668,0,0x02,0x2A
22.941149374999998,0,0x00,0xC1
22.942569541666668,0,0x72,0x41
22.944018499999999,0,0x01,0xFF
22.945438666666668,0,0x03,0x40
22.946887624999999,0,0x00,0x3F
22.948307833333335,0,0x06,0x04
22.949756749999999,0,0x41,0x1F
22.951176958333335,0,0x04,0x30
22.952625874999999,0,0x02,0x0E
22.954046125000001,0,0x87,0x4F
22.955494999999999,0,0x04,0x14
22.956915333333335,0,0xDF,0xEC
22.958364124999999,0,0x30,0x10
22.959784416666668,0,0x9A,0x04
22.961233291666666,0,0x35,0xF0
22.962653499999998,0,0x18,0x60
22.964102458333333,0,0xB0,0x80
22.965522666666665,0,0x1A,0x52
22.966971583333333,0,0xB5,0x80
22.968391791666665,0,0x3F,0x80
22.969840666666666,0,0x90,0x00
22.971260958333332,0,0x5D,0xC0
22.972709791666666,0,0xB0,0x00
22.974130083333332,0,0x5F,0xC0
22.975578958333333,0,0xB0,0x00
22.976999208333332,0,0x1D,0x41
22.978448041666667,0,0xF0,0x00
22.979868374999999,0,0xF3,0x01
22.981317208333333,0,0x0D,0x01
22.982737499999999,0,0xAF,0x51
22.984186333333334,0,0x51,0x01
22.985606624999999,0,0x0B,0x01
22.987055458333334,0,0x01,0x01
22.988475791666666,0,0x23,0x41
22.989924583333334,0,0xDD,0x01
22.991344916666666,0,0xF3,0x01
22.992793708333334,0,0x01,0x01
22.994214083333333,0,0xEB,0x51
22.995662833333334,0,0x15,0x01
22.997083208333333,0,0x43,0x01
22.998532000000001,0,0xBD,0x01
22.999952333333333,0,0x57,0x41
23.001401125000001,0,0x01,0x01
23.002821500000000,0,0x80,0x8C
23.004270291666668,0,0x80,0xF0
23.005690708333333,0,0x80,0xC3
23.007139416666668,0,0x81,0xFC
23.008559791666666,0,0xB3,0x8E
23.010008541666668,0,0xC0,0xF0
23.011429000000000,0,0xFF,0xFF
23.012877666666668,0,0xFF,0xFF
23.014298041666667,0,0x00,0x00
23.015746791666668,0,0x00,0x00
23.017167208333333,0,0x00,0x00
23.018615916666668,0,0x00,0x00
23.020036333333334,0,0x00,0x00
23.021485041666665,0,0x00,0x00
23.022905458333334,0,0x00,0x00
23.024354166666665,0,0x00,0x00
23.025774625000000,0,0x05,0x1C
23.027223291666665,0,0x00,0x00
23.028643750000001,0,0x41,0x71
23.030092416666665,0,0x00,0x0C
23.031512875000001,0,0x01,0x30
23.032961583333332,0,0x00,0x0C
23.034382125000000,0,0xFF,0xFF
23.035830708333332,0,0xFF,0xFF
23.037251166666668,0,0x00,0x00
23.038699833333332,0,0x00,0x00
23.040181375000000,0,0x00,0x00
23.041630041666668,0,0x00,0x00
23.043050500000000,0,0x00,0x00
23.044499166666668,0,0x00,0x00
23.045919625000000,0,0x00,0x00
23.047368291666668,0,0x00,0x00
23.048788791666666,0,0x5F,0x00
23.050237416666668,0,0xB0,0x00
23.051657958333333,0,0x9A,0x50
23.053106541666665,0,0x75,0x00
23.054527041666667,0,0x1A,0x00
23.055975666666665,0,0x30,0x00
23.057396291666667,0,0xFF,0xFF
23.058844791666665,0,0xFF,0xFF
23.060265333333334,0,0x00,0x00
23.061713958333332,0,0x00,0x00
23.063134500000000,0,0x00,0x00
23.064583083333332,0,0x00,0x00
23.066003625000000,0,0x00,0x00
23.067452208333332,0,0x00,0x00
23.068872750000001,0,0x00,0x00
23.070321333333332,0,0x00,0x00
23.071741916666667,0,0xC3,0x01
23.073190458333332,0,0x3D,0x01
23.074611041666667,0,0xAB,0x05
23.076059583333333,0,0x55,0x01
23.077480166666668,0,0xF7,0x01
23.078928708333333,0,0x01,0x01
23.080349333333334,0,0xFF,0xFF
23.081797874999999,0,0xFF,0xFF
23.083218458333334,0,0x00,0x00
23.084667000000000,0,0x00,0x00
23.086087583333335,0,0x00,0x00
23.087536125000000,0,0x00,0x00
23.088956750000001,0,0x00,0x00
23.090405250000000,0,0x00,0x00
23.091825875000001,0,0x00,0x00
23.093274375000000,0,0x00,0x00
26.698613375000001,0,0xFF,0x00
26.699983458333332,0,0x00,0x5D
26.701421416666665,0,0x00,0x00
26.702852624999998,0,0x00,0x00
26.704229541666667,0,0x00,0x00
26.705660708333333,0,0x00,0x00
26.707037625000002,0,0x00,0x00
26.708468791666668,0,0x00,0x00
26.709845708333333,0,0x00,0x00
26.711276874999999,0,0x00,0x00
26.712653791666668,0,0x00,0x00
26.714085000000001,0,0x00,0x00
26.715461874999999,0,0x00,0x00
26.716832041666667,0,0x00,0x00
26.718208916666665,0,0x00,0x00
26.719579083333333,0,0x00,0x00
26.720955958333334,0,0x00,0x00
26.722326124999999,0,0x00,0x00
26.723703000000000,0,0x00,0x00
26.725134250000000,0,0x00,0x00
26.726511083333332,0,0x00,0x00
26.727881291666666,0,0x00,0x00
26.729258125000001,0,0x00,0x00
26.730628333333332,0,0x00,0x00
26.732005166666667,0,0x00,0x00
26.733375375000001,0,0x00,0x00
26.734752208333333,0,0x00,0x00
26.736122416666667,0,0x00,0x00
26.737499249999999,0,0x00,0x00
26.738869458333333,0,0x00,0x00
26.740246291666665,0,0x00,0x00
26.741677583333335,0,0x00,0x00
26.743054375000000,0,0x00,0x00
26.744424625000001,0,0x00,0x00
26.745801416666666,0,0x00,0x00
26.747171666666667,0,0x00,0x00
26.748548458333332,0,0x00,0x00
26.749918708333333,0,0x00,0x00
26.751295500000001,0,0x00,0x00
26.752665749999998,0,0x00,0x00
26.754042541666667,0,0x00,0x00
26.755412833333335,0,0x00,0x00
26.756789583333333,0,0x00,0x00
26.758159875000000,0,0x00,0x00
26.759536624999999,0,0x00,0x00
26.760906916666666,0,0x00,0x00
26.762283666666665,0,0x00,0x00
26.763653958333332,0,0x00,0x00
26.765030708333335,0,0x00,0x00
26.766400999999998,0,0x00,0x00
26.767777750000000,0,0x00,0x00
26.769148041666668,0,0x00,0x00
26.770524791666666,0,0x00,0x00
26.771895125000000,0,0x00,0x00
26.773271833333332,0,0x00,0x00
26.774642166666666,0,0x00,0x00
26.776018874999998,0,0x00,0x00
26.777389208333332,0,0x00,0x00
26.778765916666668,0,0x00,0x00
26.780136250000002,0,0x00,0x00
26.781696083333333,0,0x00,0x00
26.783066458333334,0,0x00,0x00
26.784443124999999,0,0x00,0x00
26.785813500000000,0,0x00,0x00
26.787190166666665,0,0x00,0x00
26.788560541666666,0,0x00,0x00
26.789937208333335,0,0x00,0x00
26.791307583333332,0,0x00,0x00
26.792684250000001,0,0x00,0x00
26.794054625000001,0,0x00,0x00
26.795431291666667,0,0x00,0x00
26.796801708333334,0,0x00,0x00
26.798178333333333,0,0x00,0x00
26.799548750000000,0,0x00,0x00
26.800925374999998,0,0x00,0x00
26.802295791666666,0,0x00,0x00
26.803672416666668,0,0x00,0x00
26.805042833333335,0,0x00,0x00
26.806419458333334,0,0x00,0x00
26.807973041666667,0,0x00,0x00
26.809349624999999,0,0x00,0x00
26.810720083333333,0,0x00,0x00
26.812096666666665,0,0x00,0x00
26.813467124999999,0,0x00,0x00
26.814843708333335,0,0x00,0x00
26.816214166666665,0,0x00,0x00
26.817590750000001,0,0x00,0x00
26.818961208333334,0,0x00,0x00
26.820337791666667,0,0x00,0x00
26.821708250000000,0,0x00,0x00
26.823084833333333,0,0x00,0x00
26.824455333333333,0,0x00,0x00
26.825831874999999,0,0x00,0x00
26.827202374999999,0,0x00,0x00
26.828578916666668,0,0x00,0x00
26.829949416666668,0,0x00,0x00
26.831509083333334,0,0x00,0x00
26.832879583333334,0,0x00,0x00
26.834256125000000,0,0x00,0x00
26.835626666666666,0,0x00,0x00
26.837003166666666,0,0x00,0x00
26.838373708333332,0,0x00,0x00
26.839750208333335,0,0x00,0x00
26.841120750000002,0,0x00,0x00
26.842497250000001,0,0x00,0x00
26.843867791666668,0,0x00,0x00
26.845244291666667,0,0x00,0x00
26.846675874999999,0,0x00,0x00
26.848235541666668,0,0x00,0x00
26.849606083333335,0,0x00,0x00
26.850982583333334,0,0x00,0x00
26.852353125000000,0,0x00,0x00
26.853729625000000,0,0x00,0x00
26.855100166666666,0,0x00,0x00
26.856476666666666,0,0x00,0x00
26.857847208333332,0,0x00,0x00
26.859223708333332,0,0x00,0x00
26.860594291666665,0,0x00,0x00
26.861970750000001,0,0x00,0x00
26.863341333333334,0,0x00,0x00
26.864717791666667,0,0x00,0x00
26.866088375000000,0,0x00,0x00
26.867464833333333,0,0x00,0x00
26.868835416666666,0,0x00,0x00
26.870211874999999,0,0x00,0x00
26.871643541666668,0,0x00,0x00
26.873019958333334,0,0x00,0x00
26.874390583333334,0,0x00,0x00
26.875767000000000,0,0x00,0x00
26.877137625000000,0,0x00,0x00
26.878514041666666,0,0x00,0x00
26.879884666666666,0,0x00,0x00
26.881261083333332,0,0x00,0x00
26.882631708333335,0,0x00,0x00
26.884008125000001,0,0x00,0x00
26.885378750000001,0,0x00,0x00
26.886755166666667,0,0x00,0x00
26.888186874999999,0,0x00,0x00
26.889563249999998,0,0x00,0x00
26.890933916666668,0,0x00,0x00
26.892310291666668,0,0x00,0x00
26.893680958333334,0,0x00,0x00
26.895057333333334,0,0x00,0x00
26.896428000000000,0,0x00,0x00
26.897804375000000,0,0x00,0x00
26.899175041666666,0,0x00,0x00
26.900551416666666,0,0x00,0x00
26.901922124999999,0,0x00,0x00
26.903298458333332,0,0x00,0x00
26.904730208333334,0,0x00,0x00
26.906106541666666,0,0x00,0x00
26.907477249999999,0,0x00,0x00
26.908853583333332,0,0x00,0x00
26.910224291666665,0,0x00,0x00
26.911600624999998,0,0x00,0x00
26.912971333333335,0,0x00,0x00
26.914347666666668,0,0x00,0x00
26.915718416666667,0,0x00,0x00
26.917094708333334,0,0x00,0x00
26.918465458333333,0,0x00,0x00
26.919841750000000,0,0x00,0x00
26.921212499999999,0,0x00,0x00
26.922588791666666,0,0x00,0x00
26.923959541666665,0,0x00,0x00
26.925335833333332,0,0x00,0x00
26.926706583333335,0,0x00,0x00
26.928082875000001,0,0x00,0x00
26.929453625000001,0,0x00,0x00
26.930829916666667,0,0x00,0x00
26.932200708333333,0,0x00,0x00
26.933576958333333,0,0x00,0x00
26.934947749999999,0,0x00,0x00
26.936323999999999,0,0x00,0x00
26.937694791666665,0,0x00,0x00
26.939071041666665,0,0x00,0x00
26.940502875000000,0,0x00,0x00
26.941879125000000,0,0x00,0x00
26.943249916666666,0,0x00,0x00
26.944626166666666,0,0x00,0x00
26.945996999999998,0,0x00,0x00
26.947373208333332,0,0x00,0x00
26.948744041666668,0,0x00,0x00
26.950120250000001,0,0x00,0x00
26.951552124999999,0,0x00,0x00
26.952928333333332,0,0x00,0x00
26.954299166666665,0,0x00,0x00
26.955675374999998,0,0x00,0x00
26.957046208333335,0,0x00,0x00
26.958422416666668,0,0x00,0x00
26.959793291666667,0,0x00,0x00
26.961169458333334,0,0x00,0x00
26.962601374999998,0,0x00,0x00
26.963977541666665,0,0x00,0x00
26.965348416666668,0,0x00,0x00
26.966724583333335,0,0x00,0x00
26.968095458333334,0,0x00,0x00
26.969471625000001,0,0x00,0x00
26.970842500000000,0,0x00,0x00
26.972218666666667,0,0x00,0x00
26.973589583333332,0,0x00,0x00
26.974965708333333,0,0x00,0x00
26.976336624999998,0,0x00,0x00
26.977712749999998,0,0x00,0x00
26.979144708333333,0,0x00,0x00
26.980520833333333,0,0x00,0x00
26.981891749999999,0,0x00,0x00
26.983267874999999,0,0x00,0x00
26.984638791666665,0,0x00,0x00
26.986014916666665,0,0x00,0x00
26.987385875000001,0,0x00,0x00
26.988761958333335,0,0x00,0x00
26.990193958333332,0,0x00,0x00
26.991570041666666,0,0x00,0x00
26.992940999999998,0,0x00,0x00
26.994317083333332,0,0x00,0x00
26.995688041666668,0,0x00,0x00
26.997064125000001,0,0x00,0x00
26.998435083333334,0,0x00,0x00
26.999811166666667,0,0x00,0x00
27.001182166666666,0,0x00,0x00
27.002558208333333,0,0x00,0x00
27.003929208333332,0,0x00,0x00
27.005305249999999,0,0x00,0x00
27.006676250000002,0,0x00,0x00
27.008052291666665,0,0x00,0x00
27.009423291666668,0,0x00,0x00
27.010799333333335,0,0x00,0x00
27.012170333333334,0,0x00,0x00
27.013546375000001,0,0x00,0x00
27.014978458333335,0,0x00,0x00
27.016354458333332,0,0x00,0x00
27.017725500000001,0,0x00,0x00
27.019101500000001,0,0x00,0x00
27.020472541666667,0,0x00,0x00
27.021848541666667,0,0x00,0x00
27.023219583333333,0,0x00,0x00
27.024595583333333,0,0x00,0x00
27.025966624999999,0,0x00,0x00
27.027342624999999,0,0x00,0x00
27.028713708333335,0,0x00,0x00
27.030089666666665,0,0x00,0x00
27.031460750000001,0,0x00,0x00
27.032897750000000,0,0x00,0x00
27.034268833333332,0,0x00,0x00
27.035644791666666,0,0x00,0x00
27.037015875000002,0,0x00,0x00
27.038391833333332,0,0x00,0x00
27.039762916666668,0,0x00,0x00
27.041138875000001,0,0x00,0x00
27.042509958333333,0,0x00,0x00
27.043885916666667,0,0x00,0x00
27.045257041666666,0,0x00,0x00
27.046632958333333,0,0x00,0x00
27.048004083333332,0,0x00,0x00
27.049379999999999,0,0x00,0x00
27.050751125000001,0,0x00,0x00
27.052127041666665,0,0x00,0x00
27.053498166666667,0,0x00,0x00
27.054874083333335,0,0x00,0x00
27.056245208333333,0,0x00,0x00
27.057621125000001,0,0x00,0x00
27.058992291666666,0,0x00,0x00
27.060368166666667,0,0x00,0x00
27.061739333333332,0,0x00,0x00
27.063115208333333,0,0x00,0x00
27.064486375000001,0,0x00,0x00
27.065923291666667,0,0x00,0x00
27.067294458333333,0,0x00,0x00
27.068670333333333,0,0x00,0x00
27.070163624999999,0,0x00,0x00
27.071539458333334,0,0x00,0x00
27.072910666666665,0,0x00,0x00
27.074286499999999,0,0x00,0x00
27.075657708333335,0,0x00,0x00
27.077033541666665,0,0x00,0x00
27.078404750000001,0,0x00,0x00
27.079780583333335,0,0x00,0x00
27.081151791666667,0,0x00,0x00
27.082710750000000,0,0x00,0x00
27.084081999999999,0,0x00,0x00
27.085457791666666,0,0x00,0x00
27.086890083333333,0,0x00,0x00
27.088265875000001,0,0x00,0x00
27.089637124999999,0,0x00,0x00
27.091012916666667,0,0x00,0x00
27.092384166666665,0,0x00,0x00
27.093759958333333,0,0x00,0x00
27.095131250000001,0,0x00,0x00
27.096506999999999,0,0x00,0x00
27.097878291666667,0,0x00,0x00
27.099437166666668,0,0x00,0x00
27.100808458333333,0,0x00,0x00
27.102184208333334,0,0x00,0x00
27.103677625000000,0,0x00,0x00
27.105053375000001,0,0x00,0x00
27.106424666666666,0,0x00,0x00
27.107800416666667,0,0x00,0x00
27.109171708333335,0,0x00,0x00
27.110547458333333,0,0x00,0x00
27.111918750000001,0,0x00,0x00
27.113294499999999,0,0x00,0x00
27.114665791666667,0,0x00,0x00
27.116163624999999,0,0x00,0x00
27.117534958333334,0,0x00,0x00
27.118910666666668,0,0x00,0x00
27.120404083333334,0,0x00,0x00
27.121779791666668,0,0x00,0x00
27.123151125000000,0,0x00,0x00
27.124526833333334,0,0x00,0x00
27.125898166666666,0,0x00,0x00
27.127273875000000,0,0x00,0x00
27.128645250000002,0,0x00,0x00
27.130020916666666,0,0x00,0x00
27.131392291666668,0,0x00,0x00
27.132951083333332,0,0x00,0x00
27.134322458333333,0,0x00,0x00
27.135698125000001,0,0x00,0x00
27.137130541666668,0,0x00,0x00
27.138506208333332,0,0x00,0x00
27.139877625000000,0,0x00,0x00
27.141253249999998,0,0x00,0x00
27.142624666666666,0,0x00,0x00
27.144000291666668,0,0x00,0x00
27.145371708333332,0,0x00,0x00
27.146747333333334,0,0x00,0x00
27.148118749999998,0,0x00,0x00
27.149677499999999,0,0x00,0x00
27.151048958333334,0,0x00,0x00
27.152424541666665,0,0x00,0x00
27.153918083333334,0,0x00,0x00
27.155293708333332,0,0x00,0x00
27.156665125000000,0,0x00,0x00
27.158040750000001,0,0x00,0x00
27.159412166666666,0,0x00,0x00
27.160787791666667,0,0x00,0x00
27.162159249999998,0,0x00,0x00
27.163534833333333,0,0x00,0x00
27.164906291666668,0,0x00,0x00
27.166403958333333,0,0x00,0x00
27.167775416666668,0,0x00,0x00
27.169150999999999,0,0x00,0x00
27.170644583333335,0,0x00,0x00
27.172020125000000,0,0x00,0x00
27.173391625000001,0,0x00,0x00
27.174767166666665,0,0x00,0x00
27.176138666666667,0,0x00,0x00
27.177514208333335,0,0x00,0x00
27.178885708333333,0,0x00,0x00
27.180261250000001,0,0x00,0x00
27.181632749999999,0,0x00,0x00
27.183191416666666,0,0x00,0x00
27.184562958333334,0,0x00,0x00
27.185938458333332,0,0x00,0x00
27.187371041666665,0,0x00,0x00
27.188746541666667,0,0x00,0x00
27.190118083333335,0,0x00,0x00
27.191493583333333,0,0x00,0x00
27.192865125000001,0,0x00,0x00
27.194240624999999,0,0x00,0x00
27.195612208333333,0,0x00,0x00
27.196987666666665,0,0x00,0x00
27.198359249999999,0,0x00,0x00
27.199917833333334,0,0x00,0x00
27.201289416666668,0,0x00,0x00
27.202664875000000,0,0x00,0x00
27.204158583333335,0,0x00,0x00
27.205534041666667,0,0x00,0x00
27.206905625000001,0,0x00,0x00
27.208281083333333,0,0x00,0x00
27.209652666666667,0,0x00,0x00
27.211028083333332,0,0x00,0x00
27.212399708333333,0,0x00,0x00
27.213775125000002,0,0x00,0x00
27.215146749999999,0,0x00,0x00
27.216644291666668,0,0x00,0x00
27.218015916666666,0,0x00,0x00
27.219391333333334,0,0x00,0x00
27.220885041666666,0,0x00,0x00
27.222260458333334,0,0x00,0x00
27.223632083333332,0,0x00,0x00
27.225007500000000,0,0x00,0x00
27.226379125000001,0,0x00,0x00
27.227754541666666,0,0x00,0x00
27.229126208333334,0,0x00,0x00
27.230501583333332,0,0x00,0x00
27.231873250000000,0,0x00,0x00
27.233431750000001,0,0x00,0x00
27.234803416666665,0,0x00,0x00
27.236178791666667,0,0x00,0x00
27.237611500000000,0,0x00,0x00
27.238986874999998,0,0x00,0x00
27.240358583333332,0,0x00,0x00
27.241733916666668,0,0x00,0x00
27.243105624999998,0,0x00,0x00
27.244480958333334,0,0x00,0x00
27.245852666666668,0,0x00,0x00
27.247228000000000,0,0x00,0x00
27.248599708333334,0,0x00,0x00
27.250158166666665,0,0x00,0x00
27.251529916666666,0,0x00,0x00
27.252905208333335,0,0x00,0x00
27.254399041666666,0,0x00,0x00
27.255774333333335,0,0x00,0x00
27.257146083333332,0,0x00,0x00
27.258521375000001,0,0x00,0x00
27.259893125000001,0,0x00,0x00
27.261268416666667,0,0x00,0x00
27.262640208333334,0,0x00,0x00
27.264015458333333,0,0x00,0x00
27.265387250000000,0,0x00,0x00
27.266884624999999,0,0x00,0x00
27.268256375000000,0,0x00,0x00
27.269631666666665,0,0x00,0x00
27.271125500000000,0,0x00,0x00
27.272500791666666,0,0x00,0x00
27.273872583333333,0,0x00,0x00
27.275247833333335,0,0x00,0x00
27.276619624999999,0,0x00,0x00
27.277994875000001,0,0x00,0x00
27.279366666666668,0,0x00,0x00
27.280741916666667,0,0x00,0x00
27.282113708333334,0,0x00,0x00
27.283611041666667,0,0x00,0x00
27.284982875000001,0,0x00,0x00
27.286358083333333,0,0x00,0x00
27.287852000000001,0,0x00,0x00
27.289227208333333,0,0x00,0x00
27.290599041666667,0,0x00,0x00
27.291974249999999,0,0x00,0x00
27.293346083333333,0,0x00,0x00
27.294721291666665,0,0x00,0x00
27.296093124999999,0,0x00,0x00
27.297468333333335,0,0x00,0x00
27.298840208333335,0,0x00,0x00
27.300398500000000,0,0x00,0x00
27.301770375000000,0,0x00,0x00
27.303145541666666,0,0x00,0x00
27.304578458333335,0,0x00,0x00
27.305953625000001,0,0x00,0x00
27.307325541666668,0,0x00,0x00
27.308700666666667,0,0x00,0x00
27.310072583333334,0,0x00,0x00
27.311447708333333,0,0x00,0x00
27.312819624999999,0,0x00,0x00
27.314194749999999,0,0x00,0x00
27.315566666666665,0,0x00,0x00
27.317124958333334,0,0x00,0x00
27.318496875000001,0,0x00,0x00
27.319872000000000,0,0x00,0x00
27.321366000000001,0,0x00,0x00
27.322741125000000,0,0x00,0x00
27.324113041666667,0,0x00,0x00
27.325488166666666,0,0x00,0x00
27.326860083333333,0,0x00,0x00
27.328235208333332,0,0x00,0x00
27.329607124999999,0,0x00,0x00
27.330982250000002,0,0x00,0x00
27.332354208333335,0,0x00,0x00
27.333851374999998,0,0x00,0x00
27.335223333333332,0,0x00,0x00
27.336598416666668,0,0x00,0x00
27.338092458333332,0,0x00,0x00
27.339467541666668,0,0x00,0x00
27.340839541666668,0,0x00,0x00
27.342214583333334,0,0x00,0x00
27.343586583333334,0,0x00,0x00
27.344961625000000,0,0x00,0x00
27.346333625000000,0,0x00,0x00
27.347708666666666,0,0x00,0x00
27.349080666666666,0,0x00,0x00
27.350638833333335,0,0x00,0x00
27.352010875000001,0,0x00,0x00
27.353385875000001,0,0x00,0x00
27.354818958333333,0,0x00,0x00
27.356193958333332,0,0x00,0x00
27.357565999999998,0,0x00,0x00
27.358941000000002,0,0x00,0x00
27.360313041666668,0,0x00,0x00
27.361688041666667,0,0x00,0x00
27.363060083333334,0,0x00,0x00
27.364435083333333,0,0x00,0x00
27.365807166666666,0,0x00,0x00
27.367365249999999,0,0x00,0x00
27.368737333333332,0,0x00,0x00
27.370112291666668,0,0x00,0x00
27.371606458333332,0,0x00,0x00
27.372981458333335,0,0x00,0x00
27.374353541666668,0,0x00,0x00
27.375728500000001,0,0x00,0x00
27.377100583333334,0,0x00,0x00
27.378475541666667,0,0x00,0x00
27.379847625000000,0,0x00,0x00
27.381222583333333,0,0x00,0x00
27.382594666666666,0,0x00,0x00
27.384091708333333,0,0x00,0x00
27.385463833333333,0,0x00,0x00
27.386838749999999,0,0x00,0x00
27.388332958333333,0,0x00,0x00
27.389707874999999,0,0x00,0x00
27.391079999999999,0,0x00,0x00
27.392454916666665,0,0x00,0x00
27.393827041666668,0,0x00,0x00
27.395201958333335,0,0x00,0x00
27.396574083333334,0,0x00,0x00
27.397949000000001,0,0x00,0x00
27.399321166666667,0,0x00,0x00
27.400879166666666,0,0x00,0x00
27.402251333333332,0,0x00,0x00
27.403626208333332,0,0x00,0x00
27.405059416666667,0,0x00,0x00
27.406434291666667,0,0x00,0x00
27.407806458333333,0,0x00,0x00
27.409181333333333,0,0x00,0x00
27.410553541666665,0,0x00,0x00
27.411928374999999,0,0x00,0x00
27.413300583333335,0,0x00,0x00
27.414675416666668,0,0x00,0x00
27.416047625000001,0,0x00,0x00
27.417605583333334,0,0x00,0x00
27.418977833333333,0,0x00,0x00
27.420352625000000,0,0x00,0x00
27.421846958333333,0,0x00,0x00
27.423221791666666,0,0x00,0x00
27.424593999999999,0,0x00,0x00
27.425968833333332,0,0x00,0x00
27.427341041666665,0,0x00,0x00
27.428715875000002,0,0x00,0x00
27.430088083333334,0,0x00,0x00
27.431462916666668,0,0x00,0x00
27.432835166666667,0,0x00,0x00
27.434332041666668,0,0x00,0x00
27.435704291666667,0,0x00,0x00
27.437079083333334,0,0x00,0x00
27.438573416666667,0,0x00,0x00
27.439948208333334,0,0x00,0x00
27.441320458333333,0,0x00,0x00
27.442695250000000,0,0x00,0x00
27.444067541666666,0,0x00,0x00
27.445442291666666,0,0x00,0x00
27.446814583333332,0,0x00,0x00
27.448189333333332,0,0x00,0x00
27.449561625000001,0,0x00,0x00
27.451119500000001,0,0x00,0x00
27.452491833333333,0,0x00,0x00
27.453866541666667,0,0x00,0x00
27.455299916666668,0,0x00,0x00
27.456674625000002,0,0x00,0x00
27.458046958333334,0,0x00,0x00
27.459421666666668,0,0x00,0x00
27.460794000000000,0,0x00,0x00
27.462168708333333,0,0x00,0x00
27.463541041666666,0,0x00,0x00
27.464915749999999,0,0x00,0x00
27.466288124999998,0,0x00,0x00
27.467845916666668,0,0x00,0x00
27.469218291666667,0,0x00,0x00
27.470592958333334,0,0x00,0x00
27.472087416666668,0,0x00,0x00
27.473462125000001,0,0x00,0x00
27.474834500000000,0,0x00,0x00
27.476209166666667,0,0x00,0x00
27.477581541666666,0,0x00,0x00
27.478956208333333,0,0x00,0x00
27.480328583333332,0,0x00,0x00
27.481703208333332,0,0x00,0x00
27.483075625000001,0,0x00,0x00
27.484572374999999,0,0x00,0x00
27.485944750000002,0,0x00,0x00
27.487319416666665,0,0x00,0x00
27.488813916666668,0,0x00,0x00
27.490188541666665,0,0x00,0x00
27.491560958333334,0,0x00,0x00
27.492935583333335,0,0x00,0x00
27.494308000000000,0,0x00,0x00
27.495682625000001,0,0x00,0x00
27.497055041666666,0,0x00,0x00
27.498429666666667,0,0x00,0x00
27.499802083333332,0,0x00,0x00
27.501359833333332,0,0x00,0x00
27.502732291666668,0,0x00,0x00
27.504106875000002,0,0x00,0x00
27.505540374999999,0,0x00,0x00
27.506914958333333,0,0x00,0x00
27.508287416666668,0,0x00,0x00
27.509661999999999,0,0x00,0x00
27.511034500000001,0,0x00,0x00
27.512409041666668,0,0x00,0x00
27.513781541666667,0,0x00,0x00
27.515156083333334,0,0x00,0x00
27.516528583333333,0,0x00,0x00
27.518086250000000,0,0x00,0x00
27.519458749999998,0,0x00,0x00
27.520833291666666,0,0x00,0x00
27.522327916666665,0,0x00,0x00
27.523702416666666,0,0x00,0x00
27.525074958333335,0,0x00,0x00
27.526449458333332,0,0x00,0x00
27.527822000000000,0,0x00,0x00
27.529196500000001,0,0x00,0x00
27.530569041666666,0,0x00,0x00
27.531943541666667,0,0x00,0x00
27.533316124999999,0,0x00,0x00
27.534812708333334,0,0x00,0x00
27.536185249999999,0,0x00,0x00
27.537559750000000,0,0x00,0x00
27.539054374999999,0,0x00,0x00
27.540428875000000,0,0x00,0x00
27.541801416666665,0,0x00,0x00
27.543175916666666,0,0x00,0x00
27.544548500000001,0,0x00,0x00
27.545922958333332,0,0x00,0x00
27.547295541666667,0,0x00,0x00
27.548670000000001,0,0x00,0x00
27.550042583333333,0,0x00,0x00
27.551539125000001,0,0x00,0x00
27.552911708333333,0,0x00,0x00
27.554286166666667,0,0x00,0x00
27.555780875000000,0,0x00,0x00
27.557155291666668,0,0x00,0x00
27.558527916666666,0,0x00,0x00
27.559902333333334,0,0x00,0x00
27.561274958333332,0,0x00,0x00
27.562649374999999,0,0x00,0x00
27.564022000000001,0,0x00,0x00
27.565396416666665,0,0x00,0x00
27.566769041666667,0,0x00,0x00
27.568326583333334,0,0x00,0x00
27.569699249999999,0,0x00,0x00
27.571073625000000,0,0x00,0x00
27.572507333333334,0,0x00,0x00
27.573881708333332,0,0x00,0x00
27.575254375000000,0,0x00,0x00
27.576628750000001,0,0x00,0x00
27.578001458333333,0,0x00,0x00
27.579375791666667,0,0x00,0x00
27.580748499999999,0,0x00,0x00
27.582122833333333,0,0x00,0x00
27.583495541666668,0,0x00,0x00
27.585053041666665,0,0x00,0x00
27.586425708333334,0,0x00,0x00
27.587800083333335,0,0x00,0x00
27.589294875000000,0,0x00,0x00
27.590669208333335,0,0x00,0x00
27.592041916666666,0,0x00,0x00
27.593416250000001,0,0x00,0x00
27.594788958333332,0,0x00,0x00
27.596163291666667,0,0x00,0x00
27.597536000000002,0,0x00,0x00
27.598910333333333,0,0x00,0x00
27.600283041666668,0,0x00,0x00
27.601779458333333,0,0x00,0x00
27.603152208333334,0,0x00,0x00
27.604526499999999,0,0x00,0x00
