Time [s],Packet ID,MOSI,MISO
0.754416541666667,,0x12,0x29
0.755821583333333,,0x5E,0x83
1.784740833333333,,0x00,0x00
1.786147250000000,,0x00,0x80
1.787548916666667,,0x00,0x00
1.788955333333333,,0x00,0x00
1.790357041666667,,0x00,0x00
1.791946541666667,,0x00,0x00
1.793348250000000,,0x00,0x00
1.794754666666667,,0x00,0x00
1.796156333333333,,0x00,0x00
1.797562750000000,,0x00,0x00
1.798964416666667,,0x00,0x00
1.800370833333333,,0x00,0x00
1.801772500000000,,0x00,0x00
1.803178916666667,,0x00,0x00
1.804580583333333,,0x00,0x00
1.805987000000000,,0x00,0x00
1.807388708333333,,0x00,0x00
1.808795125000000,,0x00,0x00
1.810196791666667,,0x00,0x00
1.811603208333333,,0x00,0x00
1.813004875000000,,0x00,0x00
1.814411291666667,,0x01,0x00
1.815812958333333,,0x00,0x01
1.817219375000000,,0xFF,0xFF
1.818621041666667,,0xFF,0xFF
1.820027458333333,,0xC0,0xC0
1.821429125000000,,0xFF,0xFF
1.822835583333333,,0x83,0x83
1.824237208333333,,0xFC,0xFC
1.825643666666667,,0xAB,0xAB
1.827045291666667,,0xD4,0xD4
1.828451750000000,,0xFF,0xFF
1.829853416666667,,0x80,0x80
1.831259833333333,,0xBD,0xBD
1.832661500000000,,0xC0,0xC0
1.834067916666667,,0xF8,0xF8
1.835469583333333,,0x80,0x80
1.836876041666667,,0xD5,0xD5
1.838277666666667,,0x80,0x80
1.839684125000000,,0xFF,0xFF
1.841085750000000,,0xFF,0xFF
1.842492208333333,,0x2A,0x2A
1.843893833333333,,0xD5,0xD5
1.845300291666667,,0xFF,0xFF
1.846701916666667,,0x00,0x00
1.848108416666667,,0xFF,0xFF
1.849510000000000,,0x00,0x00
1.850916500000000,,0xE0,0xE0
1.852318125000000,,0x00,0x00
1.853724583333333,,0x55,0x55
1.855126208333333,,0x00,0x00
1.856532666666667,,0x00,0x00
1.857934291666667,,0x00,0x00
1.859340750000000,,0x40,0x40
1.860742375000000,,0x00,0x00
1.862148875000000,,0xFF,0xFF
1.863550458333333,,0xFF,0xFF
1.864956958333333,,0xF0,0xF0
1.866358541666667,,0x00,0x00
1.867765041666667,,0xF3,0xF3
1.869166625000000,,0x04,0x04
1.870573125000000,,0x43,0x43
1.871974708333333,,0x34,0x34
1.873381208333333,,0x10,0x10
1.874782833333333,,0x20,0x20
1.876189333333333,,0x43,0x43
1.877590916666667,,0x34,0x34
1.878997416666667,,0x08,0x08
1.880399000000000,,0x30,0x30
1.881805500000000,,0x1F,0x1F
1.883207083333333,,0x30,0x30
1.884613583333333,,0xFF,0xFF
1.886015166666667,,0xFF,0xFF
1.887421708333333,,0x03,0x03
1.888823250000000,,0x01,0x01
1.890229791666667,,0xE1,0xE1
1.891631333333333,,0x01,0x01
1.893037875000000,,0xE1,0xE1
1.894439416666667,,0x01,0x01
1.895845958333333,,0x01,0x01
1.897247541666667,,0x01,0x01
1.898654041666667,,0xA1,0xA1
1.900055625000000,,0x41,0x41
1.901462166666667,,0x01,0x01
1.902863708333333,,0x01,0x01
1.904270250000000,,0xF5,0xF5
1.905671791666667,,0x01,0x01
1.907078333333333,,0xC0,0xC0
1.908479875000000,,0x80,0x80
1.909886416666667,,0x85,0x85
1.911287958333333,,0x80,0x80
1.912694500000000,,0xFA,0xFA
1.914096041666667,,0x81,0x81
1.915502625000000,,0xB6,0xB6
1.916904125000000,,0xC1,0xC1
1.918310708333333,,0xE7,0xE7
1.919712250000000,,0x80,0x80
1.921118791666667,,0xFC,0xFC
1.922520333333333,,0xC0,0xC0
1.923926875000000,,0x9E,0x9E
1.925328416666667,,0x80,0x80
1.926735000000000,,0xB0,0xB0
1.928136500000000,,0x84,0x84
1.929543083333333,,0x00,0x00
1.930944583333333,,0x00,0x00
1.932351166666667,,0x02,0x02
1.933752666666667,,0x00,0x00
1.935159250000000,,0x80,0x80
1.936560750000000,,0x00,0x00
1.937967333333333,,0x44,0x44
1.939368833333333,,0x01,0x01
1.940775458333333,,0x21,0x21
1.942176958333333,,0x00,0x00
1.943583541666667,,0x64,0x64
1.944985041666667,,0x01,0x01
1.946391625000000,,0x61,0x61
1.947793125000000,,0x00,0x00
1.949199708333333,,0x10,0x10
1.950601208333333,,0x41,0x41
1.952007791666667,,0x0F,0x0F
1.953409291666667,,0x30,0x30
1.954815916666667,,0x1D,0x1D
1.956217375000000,,0x30,0x30
1.957624000000000,,0x1B,0x1B
1.959025458333333,,0x30,0x30
1.960432083333333,,0xDA,0xDA
1.961833541666667,,0x35,0x35
1.963240166666667,,0x98,0x98
1.964641666666667,,0x30,0x30
1.966048250000000,,0x5F,0x5F
1.967449750000000,,0xB0,0xB0
1.968856375000000,,0x1F,0x1F
1.970257833333333,,0xB0,0xB0
1.971664458333333,,0x58,0x58
1.973065916666667,,0xB0,0xB0
1.974472541666667,,0x9D,0x9D
1.975874000000000,,0x63,0x63
1.977280625000000,,0x75,0x75
1.978682083333333,,0x01,0x01
1.980088750000000,,0xFF,0xFF
1.981490166666667,,0x01,0x01
1.982896833333333,,0x8B,0x8B
1.984298250000000,,0x75,0x75
1.985704916666667,,0xC1,0xC1
1.987106375000000,,0x01,0x01
1.988513000000000,,0xAB,0xAB
1.989914458333333,,0x55,0x55
1.991321083333333,,0x9F,0x9F
1.992722541666667,,0x61,0x61
1.994129208333333,,0x65,0x65
1.995530625000000,,0x01,0x01
1.996937291666667,,0xA9,0xA9
1.998338708333333,,0xC0,0xC0
1.999745375000000,,0xB6,0xB6
2.001146791666667,,0x81,0x81
2.002553458333333,,0xE3,0xE3
2.003954875000000,,0x80,0x80
2.005361541666667,,0x98,0x98
2.006762958333333,,0x86,0x86
2.008169666666667,,0x84,0x84
2.009571083333333,,0x80,0x80
2.010977750000000,,0xD4,0xD4
2.012379166666667,,0x88,0x88
2.013785833333333,,0xB0,0xB0
2.015187250000000,,0xC8,0xC8
2.016593916666667,,0xE1,0xE1
2.018239500000000,,0xD0,0xD0
2.019646208333334,,0x82,0x82
2.021047583333333,,0x00,0x00
2.022454291666667,,0x72,0x72
2.023855666666666,,0x00,0x00
2.025262375000000,,0x02,0x02
2.026663791666667,,0x00,0x00
2.028070458333334,,0x72,0x72
2.029471875000000,,0x01,0x01
2.030878583333333,,0x03,0x03
2.032279958333334,,0x00,0x00
2.033686666666667,,0x06,0x06
2.035088041666667,,0x41,0x41
2.036494750000000,,0x04,0x04
2.037896125000000,,0x02,0x02
2.039302833333333,,0x87,0x87
2.040704208333334,,0x04,0x04
2.042110916666667,,0xDF,0xDF
2.043512291666667,,0x30,0x30
2.044919041666667,,0x9A,0x9A
2.046320416666667,,0x35,0x35
2.047727125000000,,0x18,0x18
2.049128500000000,,0xB0,0xB0
2.050535208333333,,0x1A,0x1A
2.052119708333333,,0xB5,0xB5
2.053526458333333,,0x3F,0x3F
2.054927791666667,,0x90,0x90
2.056334541666667,,0x5D,0x5D
2.057735875000000,,0xB0,0xB0
2.059142625000000,,0x5F,0x5F
2.060543958333333,,0xB0,0xB0
2.061950708333333,,0x1D,0x1D
2.063352041666667,,0xF0,0xF0
2.064758833333333,,0xF3,0xF3
2.066160166666667,,0x0D,0x0D
2.067566916666667,,0xAF,0xAF
2.069029291666667,,0x51,0x51
2.070436041666667,,0x0B,0x0B
2.071837375000000,,0x01,0x01
2.073244125000000,,0x23,0x23
2.074645458333333,,0xDD,0xDD
2.076174333333333,,0xF3,0xF3
2.077575625000000,,0x01,0x01
2.078982416666667,,0xEB,0xEB
2.080383750000000,,0x15,0x15
2.081790500000000,,0x43,0x43
2.083191833333333,,0xBD,0xBD
2.084598583333333,,0x57,0x57
2.085999916666667,,0x01,0x01
2.087406666666667,,0x80,0x80
2.088808000000000,,0x80,0x80
2.090214791666666,,0x80,0x80
2.091616083333333,,0x81,0x81
2.093022875000000,,0xB3,0xB3
2.094424166666667,,0xC0,0xC0
2.095830958333333,,0xFF,0xFF
2.097232250000000,,0xFF,0xFF
2.098639041666666,,0x00,0x00
2.100040333333333,,0x00,0x00
2.101447125000000,,0x00,0x00
2.102848458333333,,0x00,0x00
2.104255250000000,,0x00,0x00
2.105656541666667,,0x00,0x00
2.107063333333334,,0x00,0x00
2.108464625000000,,0x00,0x00
2.109871416666667,,0x05,0x05
2.111272708333333,,0x00,0x00
2.112679500000000,,0x41,0x41
2.114080791666667,,0x00,0x00
2.115487625000000,,0x01,0x01
2.116888875000000,,0x00,0x00
2.118295708333333,,0xFF,0xFF
2.119696958333333,,0xFF,0xFF
2.121103791666667,,0x00,0x00
2.122505041666667,,0x00,0x00
2.123911875000000,,0x00,0x00
2.125313166666666,,0x00,0x00
2.126903125000000,,0x00,0x00
2.128304375000000,,0x00,0x00
2.129711208333333,,0x00,0x00
2.131112458333333,,0x00,0x00
2.132519291666667,,0x5F,0x5F
2.133920541666666,,0xB0,0xB0
2.135327375000000,,0x9A,0x9A
2.136728625000000,,0x75,0x75
2.138135500000000,,0x1A,0x1A
2.139536708333333,,0x30,0x30
2.140943583333333,,0xFF,0xFF
2.142344833333333,,0xFF,0xFF
2.143751666666667,,0x00,0x00
2.145152916666667,,0x00,0x00
2.146559750000000,,0x00,0x00
2.147961000000000,,0x00,0x00
2.149367833333333,,0x00,0x00
2.150769083333333,,0x00,0x00
2.152175958333333,,0x00,0x00
2.153577166666667,,0x00,0x00
2.154984041666667,,0xC3,0xC3
2.156385250000000,,0x3D,0x3D
2.157792125000000,,0xAB,0xAB
2.159193333333334,,0x55,0x55
2.160600208333333,,0xF7,0xF7
2.162001416666667,,0x01,0x01
2.163408291666667,,0xFF,0xFF
2.164809541666667,,0xFF,0xFF
2.166216416666667,,0x00,0x00
2.167617625000000,,0x00,0x00
2.169024500000000,,0x00,0x00
2.170425708333333,,0x00,0x00
2.171832583333333,,0x00,0x00
2.173233791666667,,0x00,0x00
2.174640666666667,,0x00,0x00
2.176041875000000,,0x00,0x00
2.177448750000000,,0xFF,0xFF
2.178849958333333,,0xFF,0xFF
2.180256875000000,,0x80,0x80
2.181658041666667,,0x80,0x80
2.183064958333333,,0x80,0x80
2.184466125000000,,0x80,0x80
2.185873041666667,,0x80,0x80
2.187274250000000,,0x80,0x80
2.188681125000000,,0x80,0x80
2.190082333333333,,0x80,0x80
2.191489208333333,,0x80,0x80
2.192890416666667,,0x80,0x80
2.194297333333334,,0x80,0x80
2.195698500000000,,0x80,0x80
2.197105416666667,,0x80,0x80
2.198506583333333,,0x80,0x80
2.199913500000000,,0xFF,0xFF
2.201314666666667,,0xFF,0xFF
2.202721583333333,,0x00,0x00
2.204122750000000,,0x00,0x00
2.205529708333333,,0x00,0x00
2.206930833333333,,0x00,0x00
2.208337791666667,,0x00,0x00
2.209738958333333,,0x00,0x00
2.211145875000000,,0x00,0x00
2.212547041666667,,0x00,0x00
2.213953958333333,,0x00,0x00
2.215355125000000,,0x00,0x00
2.216762041666667,,0x00,0x00
2.218163208333333,,0x00,0x00
2.219570166666667,,0x00,0x00
2.220971291666667,,0x00,0x00
2.222378250000000,,0xFF,0xFF
2.223779375000000,,0xFF,0xFF
2.225186333333333,,0x00,0x00
2.226587458333333,,0x00,0x00
2.227994416666667,,0x00,0x00
2.229395541666667,,0x00,0x00
2.230802500000000,,0x00,0x00
2.232203666666666,,0x00,0x00
2.233610625000000,,0x00,0x00
2.235011750000000,,0x00,0x00
2.236418708333333,,0x00,0x00
2.237819833333333,,0x00,0x00
2.239226791666667,,0x00,0x00
2.240627916666666,,0x00,0x00
2.242034875000000,,0x00,0x00
2.243436000000000,,0x00,0x00
2.244843000000000,,0xFF,0xFF
2.246244083333333,,0xFF,0xFF
2.247651083333333,,0x01,0x01
2.249052166666667,,0x01,0x01
2.250459166666666,,0x01,0x01
2.251860250000000,,0x01,0x01
2.253267250000000,,0x01,0x01
2.254668375000000,,0x01,0x01
2.256075333333333,,0x01,0x01
2.257476458333334,,0x01,0x01
2.258883458333333,,0x01,0x01
2.260284541666667,,0x01,0x01
2.261691541666667,,0x01,0x01
2.263092625000000,,0x01,0x01
2.264499625000000,,0x01,0x01
2.265900708333333,,0x01,0x01
2.267307708333334,,0x80,0x80
2.268708791666667,,0x80,0x80
2.270115791666667,,0x94,0x94
2.271516875000000,,0x80,0x80
2.272923916666667,,0xFC,0xFC
2.274324958333333,,0x80,0x80
2.275732000000000,,0xEF,0xEF
2.277133083333333,,0x90,0x90
2.278540083333333,,0xED,0xED
2.279941166666667,,0x90,0x90
2.281348166666667,,0xE2,0xE2
2.282749250000000,,0x9D,0x9D
2.284156291666667,,0xA3,0xA3
2.285557333333333,,0xDC,0xDC
2.286964375000000,,0x82,0x82
2.288365416666667,,0xFD,0xFD
2.289772458333333,,0x00,0x00
2.291173500000000,,0x00,0x00
2.292580541666667,,0x01,0x01
2.293981583333333,,0x00,0x00
2.295388625000000,,0xCF,0xCF
2.296789666666667,,0x00,0x00
2.298196750000000,,0x73,0x73
2.299597750000000,,0x0C,0x0C
2.301004833333333,,0x93,0x93
2.302405875000000,,0x6C,0x6C
2.303812916666667,,0x40,0x40
2.305213958333333,,0xFF,0xFF
2.306621000000000,,0x00,0x00
2.308022041666667,,0xFF,0xFF
2.309429083333333,,0xAD,0xAD
2.310830125000000,,0x5E,0x5E
2.312237208333333,,0x00,0x00
2.313638208333333,,0x00,0x00
2.315045291666667,,0x57,0x57
2.316446291666667,,0x00,0x00
2.317853375000000,,0xCC,0xCC
2.319254375000000,,0x00,0x00
2.320661458333333,,0x75,0x75
2.322062458333333,,0x0A,0x0A
2.323469541666667,,0xFF,0xFF
2.324870583333333,,0x00,0x00
2.326277666666666,,0xB3,0xB3
2.327678666666666,,0x44,0x44
2.329085750000000,,0xFB,0xFB
2.330486750000000,,0x04,0x04
2.331893833333333,,0x68,0x68
2.333294833333333,,0x17,0x17
2.334701916666666,,0x01,0x01
2.336102916666666,,0x01,0x01
2.337510000000000,,0x75,0x75
2.338911000000000,,0x01,0x01
2.340318125000000,,0x4D,0x4D
2.341719083333333,,0x01,0x01
2.343126208333334,,0xD5,0xD5
2.344527166666666,,0x01,0x01
2.345934291666667,,0x4F,0x4F
2.347335291666667,,0x01,0x01
2.348742375000000,,0xA7,0xA7
2.350143375000000,,0x51,0x51
2.351550500000000,,0xDF,0xDF
2.353134583333333,,0x21,0x21
2.354541708333334,,0xCB,0xCB
2.355942666666667,,0x05,0x05
2.357349791666667,,0xC4,0xC4
2.358750750000000,,0xBB,0xBB
2.360157875000000,,0xD9,0xD9
2.361558875000000,,0xB7,0xB7
2.362966000000000,,0x9F,0x9F
2.364366958333334,,0xE1,0xE1
2.365774083333333,,0xE8,0xE8
2.367175041666667,,0xE7,0xE7
2.368582166666667,,0xC9,0xC9
2.369983125000000,,0xE4,0xE4
2.371390250000000,,0xD9,0xD9
2.372791208333333,,0xE4,0xE4
2.374198333333333,,0x99,0x99
2.375599291666667,,0xE0,0xE0
2.377006458333333,,0xC3,0xC3
2.378407375000000,,0xFC,0xFC
2.379814541666667,,0x0D,0x0D
2.381215458333333,,0xFE,0xFE
2.382622625000000,,0x3D,0x3D
2.384023583333333,,0xDE,0xDE
2.385430708333333,,0x26,0x26
2.386831666666667,,0xD9,0xD9
2.388238833333333,,0x55,0x55
2.389639750000000,,0x83,0x83
2.391046916666667,,0x7E,0x7E
2.392447833333333,,0x81,0x81
2.393855000000000,,0xEB,0xEB
2.395255916666667,,0x14,0x14
2.396663083333333,,0x38,0x38
2.398064000000000,,0x04,0x04
2.399471166666667,,0x13,0x13
2.400872083333333,,0x1C,0x1C
2.402279291666667,,0xAE,0xAE
2.403802291666667,,0x11,0x11
2.405209458333333,,0x71,0x71
2.406610375000000,,0x8F,0x8F
2.408017541666667,,0x1F,0x1F
2.409418458333333,,0xE0,0xE0
2.410825625000000,,0xAB,0xAB
2.412226541666667,,0xD4,0xD4
2.413633750000000,,0x9E,0x9E
2.415034625000000,,0x60,0x60
2.416441833333333,,0xBF,0xBF
2.417842708333333,,0x40,0x40
2.419249916666667,,0x67,0x67
2.420650791666667,,0x00,0x00
2.422058000000000,,0x56,0x56
2.423458875000000,,0x01,0x01
2.424866083333333,,0xFF,0xFF
2.426267000000000,,0x01,0x01
2.427857333333333,,0xE7,0xE7
2.429258208333333,,0x11,0x11
2.430665416666667,,0xBD,0xBD
2.432066291666667,,0x01,0x01
2.433473500000000,,0xC3,0xC3
2.434874375000000,,0x15,0x15
2.436281625000000,,0xE1,0xE1
2.437682458333333,,0x01,0x01
2.439089708333333,,0x53,0x53
2.440490541666667,,0x05,0x05
2.441897791666667,,0x47,0x47
2.443298666666667,,0x81,0x81
2.444705875000000,,0x43,0x43
2.446106750000000,,0xFD,0xFD
2.447513958333333,,0xE4,0xE4
2.448914833333333,,0xF8,0xF8
2.450322083333333,,0xDC,0xDC
2.451722916666667,,0xF0,0xF0
2.453130166666667,,0xD8,0xD8
2.454531000000000,,0x80,0x80
2.455938250000000,,0xFF,0xFF
2.457339083333333,,0xFF,0xFF
2.458746333333333,,0x00,0x00
2.460147166666667,,0x00,0x00
2.461554458333334,,0x00,0x00
2.462955250000000,,0x00,0x00
2.464362541666667,,0x00,0x00
2.465763375000000,,0x00,0x00
2.467170625000000,,0x00,0x00
2.468571458333333,,0x00,0x00
2.469978708333334,,0x10,0x10
2.471379541666667,,0x00,0x00
2.472786791666667,,0x31,0x31
2.474187625000000,,0x00,0x00
2.475594916666667,,0x19,0x19
2.476995708333333,,0x00,0x00
2.478525083333333,,0xFF,0xFF
2.479925875000000,,0xFF,0xFF
2.481333166666666,,0x00,0x00
2.482733958333333,,0x00,0x00
2.484141250000000,,0x00,0x00
2.485542083333333,,0x00,0x00
2.486949375000000,,0x00,0x00
2.488350166666667,,0x00,0x00
2.489757458333334,,0x00,0x00
2.491158250000000,,0x00,0x00
2.492565541666667,,0xE2,0xE2
2.493966333333333,,0x01,0x01
2.495373625000000,,0x37,0x37
2.496774416666667,,0x41,0x41
2.498181708333334,,0x4E,0x4E
2.499582500000000,,0x01,0x01
2.500989833333333,,0xFF,0xFF
2.502390583333333,,0xFF,0xFF
2.503797916666667,,0x00,0x00
2.505198708333333,,0x00,0x00
2.506606000000000,,0x00,0x00
2.508006791666667,,0x00,0x00
2.509414083333333,,0x00,0x00
2.510814875000000,,0x00,0x00
2.512222166666667,,0x00,0x00
2.513622958333333,,0x00,0x00
2.515030291666667,,0x41,0x41
2.516431041666667,,0xFF,0xFF
2.517838375000000,,0xCD,0xCD
2.519239125000000,,0xE1,0xE1
2.520646458333333,,0xCF,0xCF
2.522047208333333,,0x81,0x81
2.523454541666667,,0xFF,0xFF
2.524855291666666,,0xFF,0xFF
2.526262666666667,,0x00,0x00
2.527663375000000,,0x00,0x00
2.529070750000000,,0x00,0x00
2.530471500000000,,0x00,0x00
2.531878833333333,,0x00,0x00
2.533279583333333,,0x00,0x00
2.534686916666667,,0x00,0x00
2.536087666666667,,0x00,0x00
2.537495000000000,,0xFF,0xFF
2.538895750000000,,0xFF,0xFF
2.540303125000000,,0xFF,0xFF
2.541703833333333,,0xFF,0xFF
2.543111208333333,,0xC0,0xC0
2.544511916666667,,0xFF,0xFF
2.545919291666667,,0xD4,0xD4
2.547320000000000,,0xFF,0xFF
2.548727375000000,,0x80,0x80
2.550128083333334,,0xFF,0xFF
2.551535458333333,,0xC0,0xC0
2.552936208333333,,0xFF,0xFF
2.554343583333333,,0x83,0x83
2.555744291666667,,0xFC,0xFC
2.557151666666666,,0x8A,0x8A
2.558552375000000,,0xF5,0xF5
2.559959750000000,,0xFF,0xFF
2.561360458333333,,0xFF,0xFF
2.562767833333333,,0x53,0x53
2.564168541666667,,0xFC,0xFC
2.565575916666667,,0x02,0x02
2.566976625000000,,0xFC,0xFC
2.568384041666667,,0x40,0x40
2.569784708333333,,0xFC,0xFC
2.571192125000000,,0x18,0x18
2.572592791666667,,0xE4,0xE4
2.574000208333334,,0x2C,0x2C
2.575400916666667,,0xD4,0xD4
2.576808291666667,,0xE4,0xE4
2.578209000000000,,0x00,0x00
2.579616416666667,,0xE4,0xE4
2.581017083333333,,0x00,0x00
2.582424500000000,,0xFF,0xFF
2.583825166666667,,0xFF,0xFF
2.585232583333333,,0xF8,0xF8
2.586633250000000,,0x07,0x07
2.588040666666667,,0x04,0x04
2.589441333333333,,0x0B,0x0B
2.590848750000000,,0x0A,0x0A
2.592249416666667,,0x05,0x05
2.593656875000000,,0xC7,0xC7
2.595057500000000,,0x00,0x00
2.596464958333333,,0x43,0x43
2.597865625000000,,0x04,0x04
2.599273041666667,,0x85,0x85
2.600673708333333,,0x00,0x00
2.602081125000000,,0x05,0x05
2.603481791666667,,0x00,0x00
2.604889208333333,,0xFF,0xFF
2.606289875000000,,0xFF,0xFF
2.607697333333333,,0x0B,0x0B
2.609097958333333,,0xF5,0xF5
2.610505416666667,,0x09,0x09
2.611906041666667,,0xF7,0xF7
2.613313500000000,,0xAB,0xAB
2.614714125000000,,0x55,0x55
2.616121583333333,,0xFF,0xFF
2.617522208333333,,0x01,0x01
2.618929666666667,,0xFB,0xFB
2.620330333333333,,0x05,0x05
2.621737791666667,,0xFF,0xFF
2.623138416666666,,0x01,0x01
2.624545875000000,,0x55,0x55
2.625946500000000,,0x01,0x01
2.627353958333333,,0xFF,0xFF
2.628754583333333,,0x80,0x80
2.630162041666666,,0xFD,0xFD
2.631562666666666,,0x80,0x80
2.632970166666667,,0xF0,0xF0
2.634370750000000,,0x80,0x80
2.635778250000000,,0xD5,0xD5
2.637178833333333,,0x80,0x80
2.638586333333333,,0x80,0x80
2.639986916666667,,0x80,0x80
2.641394416666667,,0xD5,0xD5
2.642795041666667,,0x80,0x80
2.644202500000000,,0x83,0x83
2.645603125000000,,0x80,0x80
2.647010625000000,,0x87,0x87
2.648411208333334,,0xC0,0xC0
2.649818708333334,,0xCA,0xCA
2.651219291666667,,0x25,0x25
2.652626791666667,,0x4F,0x4F
2.654027375000000,,0x20,0x20
2.655434875000000,,0x4C,0x4C
2.656835458333333,,0x20,0x20
2.658242958333333,,0x5A,0x5A
2.659643541666667,,0x25,0x25
2.661051083333333,,0x50,0x50
2.662451625000000,,0x20,0x20
2.663859166666667,,0x5A,0x5A
2.665259750000000,,0x25,0x25
2.666667250000000,,0x41,0x41
2.668067833333333,,0x2E,0x2E
2.669475333333333,,0xD4,0xD4
2.670875916666667,,0x20,0x20
2.672283416666667,,0x00,0x00
2.673684000000000,,0xC0,0xC0
2.675091541666667,,0xC1,0xC1
2.676492083333333,,0x00,0x00
2.677899625000000,,0x00,0x00
2.679300166666667,,0x00,0x00
2.680707708333333,,0x80,0x80
2.682108250000000,,0x40,0x40
2.683515791666667,,0x00,0x00
2.684916333333333,,0x00,0x00
2.686323916666667,,0xBC,0xBC
2.687724458333333,,0x40,0x40
2.689132000000000,,0x94,0x94
2.690532541666667,,0x68,0x68
2.691940083333333,,0x45,0x45
2.693340625000000,,0x00,0x00
2.694748166666667,,0x01,0x01
2.696148708333333,,0x01,0x01
2.697556250000000,,0x41,0x41
2.698956791666667,,0x01,0x01
2.700364375000000,,0x01,0x01
2.701764875000000,,0x01,0x01
2.703172458333333,,0x01,0x01
2.704756125000000,,0x01,0x01
2.706163666666667,,0x01,0x01
2.707564208333333,,0x01,0x01
2.708971791666666,,0x01,0x01
2.710372291666667,,0x01,0x01
2.711779875000000,,0x01,0x01
2.713180375000000,,0x01,0x01
2.714587958333333,,0xD5,0xD5
2.715988458333333,,0x01,0x01
2.717396041666666,,0xE4,0xE4
2.718796541666667,,0x80,0x80
2.720204125000000,,0xF1,0xF1
2.721604625000000,,0x84,0x84
2.723012250000000,,0xC9,0xC9
2.724412708333333,,0xA4,0xA4
2.725820333333334,,0x94,0x94
2.727220833333333,,0xE1,0xE1
2.728628416666667,,0xA1,0xA1
2.730028916666666,,0xC0,0xC0
2.731436500000000,,0x92,0x92
2.732837000000000,,0xC1,0xC1
2.734244583333334,,0xD3,0xD3
2.735645083333333,,0xA0,0xA0
2.737052708333333,,0xB0,0xB0
2.738453166666666,,0xC3,0xC3
2.739860791666667,,0x63,0x63
2.741261250000000,,0xAC,0xAC
2.742668875000000,,0x72,0x72
2.744069333333333,,0xED,0xED
2.745476958333333,,0x21,0x21
2.746877416666667,,0xE0,0xE0
2.748285041666667,,0x70,0x70
2.749685541666667,,0xEF,0xEF
2.751093166666667,,0x2F,0x2F
2.752493625000000,,0xE0,0xE0
2.753901250000000,,0x67,0x67
2.755484833333333,,0xE0,0xE0
2.756892458333333,,0xA0,0xA0
2.758292916666667,,0x6F,0x6F
2.759700583333333,,0x2E,0x2E
2.761101000000000,,0xE1,0xE1
2.762508666666667,,0x35,0x35
2.763909083333334,,0xC8,0xC8
2.765316750000000,,0x2D,0x2D
2.766717208333333,,0xD0,0xD0
2.768124833333333,,0x80,0x80
2.769525291666667,,0x00,0x00
2.770932916666667,,0x24,0x24
2.772333375000000,,0xD8,0xD8
2.773741041666667,,0xFA,0xFA
2.775141458333333,,0x00,0x00
2.776549125000000,,0xDF,0xDF
2.777949541666667,,0x00,0x00
2.779479291666667,,0x07,0x07
2.780879708333333,,0xF8,0xF8
2.782287375000000,,0xF6,0xF6
2.783687833333333,,0x01,0x01
2.785095500000000,,0xA7,0xA7
2.786495916666667,,0x01,0x01
2.787903583333333,,0x59,0x59
2.789304000000000,,0x07,0x07
2.790711666666667,,0x01,0x01
2.792112083333333,,0x07,0x07
2.793519750000000,,0x13,0x13
2.794920166666667,,0x05,0x05
2.796327875000000,,0x21,0x21
2.797728250000000,,0x07,0x07
2.799135958333333,,0x5B,0x5B
2.800536333333334,,0x25,0x25
2.801944041666667,,0x5D,0x5D
2.803344416666667,,0x23,0x23
2.804752125000000,,0xE9,0xE9
2.806213583333333,,0x15,0x15
2.807621250000000,,0xB0,0xB0
2.809021666666667,,0xC3,0xC3
2.810429375000000,,0xB4,0xB4
2.811829750000000,,0xC3,0xC3
2.813420583333333,,0xA4,0xA4
2.814820958333333,,0xC3,0xC3
2.816228666666666,,0xFF,0xFF
2.817629041666667,,0xFF,0xFF
2.819036791666667,,0x00,0x00
2.820437166666667,,0x00,0x00
2.821844875000000,,0x00,0x00
2.823245250000000,,0x00,0x00
2.824652958333334,,0x00,0x00
2.826053333333333,,0x00,0x00
2.827461041666667,,0x00,0x00
2.828861416666667,,0x00,0x00
2.830269125000000,,0x2F,0x2F
2.831669500000000,,0xE0,0xE0
2.833077250000000,,0x70,0x70
2.834477583333333,,0xEF,0xEF
2.835885333333333,,0x26,0x26
2.837285666666667,,0xE0,0xE0
2.838693416666667,,0xFF,0xFF
2.840093750000000,,0xFF,0xFF
2.841501500000000,,0x00,0x00
2.842901875000000,,0x00,0x00
2.844309583333333,,0x00,0x00
2.845709958333333,,0x00,0x00
2.847117708333333,,0x00,0x00
2.848518041666666,,0x00,0x00
2.849925791666667,,0x00,0x00
2.851326125000000,,0x00,0x00
2.852733875000000,,0xFE,0xFE
2.854134208333333,,0x01,0x01
2.855541958333333,,0x06,0x06
2.856942291666666,,0xF9,0xF9
2.858350041666667,,0x0F,0x0F
2.859750375000000,,0x00,0x00
2.861158166666667,,0xFF,0xFF
2.862558458333333,,0xFF,0xFF
2.863966250000000,,0x00,0x00
2.865366541666666,,0x00,0x00
2.866774333333333,,0x00,0x00
2.868174666666667,,0x00,0x00
2.869582416666667,,0x00,0x00
2.870982750000000,,0x00,0x00
2.872390541666667,,0x00,0x00
2.873790833333334,,0x00,0x00
2.875198625000000,,0x23,0x23
2.876598916666667,,0xD1,0xD1
2.878006708333333,,0x3F,0x3F
2.879407000000000,,0xB1,0xB1
2.880814791666667,,0x7F,0x7F
2.882215083333334,,0x01,0x01
2.883622875000000,,0xFF,0xFF
2.885023166666667,,0xFF,0xFF
2.886431000000000,,0x00,0x00
2.887831291666667,,0x00,0x00
2.889239083333333,,0x00,0x00
2.890639375000000,,0x00,0x00
2.892047166666667,,0x00,0x00
2.893447458333333,,0x00,0x00
2.894855250000000,,0x00,0x00
2.896255541666667,,0x00,0x00
2.897663333333333,,0xFF,0xFF
2.899063625000000,,0xFF,0xFF
2.900471458333334,,0xC0,0xC0
2.901871708333333,,0xFF,0xFF
2.903279541666667,,0x87,0x87
2.904679791666667,,0xF8,0xF8
2.906087625000000,,0xAB,0xAB
2.907487875000000,,0xD4,0xD4
2.908895708333334,,0xFF,0xFF
2.910295958333333,,0x80,0x80
2.911703833333333,,0xFD,0xFD
2.913104083333333,,0x80,0x80
2.914511916666667,,0xE0,0xE0
2.915912166666667,,0x80,0x80
2.917320000000000,,0xD5,0xD5
2.918720250000000,,0x80,0x80
2.920128083333333,,0xFF,0xFF
2.921528333333333,,0xFF,0xFF
2.922936166666667,,0x2A,0x2A
2.924336416666667,,0xD5,0xD5
2.925744291666667,,0xFF,0xFF
2.927144500000000,,0x00,0x00
2.928552375000000,,0xFD,0xFD
2.929952583333333,,0x00,0x00
2.931360458333333,,0x80,0x80
2.932760666666667,,0x00,0x00
2.934168541666667,,0x55,0x55
2.935568791666667,,0x00,0x00
2.936976625000000,,0x00,0x00
2.938376875000000,,0x00,0x00
2.939784750000000,,0x40,0x40
2.941184958333333,,0x00,0x00
2.942592833333333,,0xFF,0xFF
2.943993041666667,,0xFF,0xFF
2.945400916666667,,0xF6,0xF6
2.946801125000000,,0x01,0x01
2.948209000000000,,0xE0,0xE0
2.949609208333333,,0x03,0x03
2.951017083333333,,0x51,0x51
2.952417291666667,,0x07,0x07
2.953825208333333,,0x03,0x03
2.955225375000000,,0x07,0x07
2.956633291666667,,0x07,0x07
2.958033500000000,,0x07,0x07
2.959441375000000,,0x07,0x07
2.960841583333333,,0x07,0x07
2.962249458333333,,0x07,0x07
2.963649666666667,,0x07,0x07
2.965057541666666,,0xFF,0xFF
2.966457750000000,,0xFF,0xFF
2.967865666666667,,0x01,0x01
2.969265833333333,,0x01,0x01
2.970673750000000,,0x5F,0x5F
2.972073916666667,,0x21,0x21
2.973481833333333,,0x7F,0x7F
2.974882000000000,,0x01,0x01
2.976289916666667,,0x01,0x01
2.977690083333334,,0x01,0x01
2.979098041666667,,0x6F,0x6F
2.980498208333333,,0x11,0x11
2.981906125000000,,0x81,0x81
2.983306291666667,,0x01,0x01
2.984714208333333,,0x3D,0x3D
2.986114375000000,,0x81,0x81
2.987522291666667,,0x80,0x80
2.988922458333333,,0x80,0x80
2.990330375000000,,0xD9,0xD9
2.991730541666667,,0x80,0x80
2.993138500000000,,0xBB,0xBB
2.994538625000000,,0x80,0x80
2.995946583333333,,0xB3,0xB3
2.997346708333333,,0x9C,0x9C
2.998754666666667,,0xAC,0xAC
3.000154791666667,,0x90,0x90
3.001562750000000,,0xAC,0xAC
3.002962916666667,,0x90,0x90
3.004370875000000,,0xC7,0xC7
3.005771000000000,,0x80,0x80
3.007178958333333,,0xE5,0xE5
3.008579083333333,,0x80,0x80
3.009987041666667,,0x00,0x00
3.011387166666667,,0x00,0x00
3.012795125000000,,0x05,0x05
3.014195250000000,,0x00,0x00
3.015603208333333,,0x81,0x81
3.017003333333333,,0x00,0x00
3.018411333333333,,0x44,0x44
3.019811416666667,,0x01,0x01
3.021219416666667,,0x65,0x65
3.022619500000000,,0x00,0x00
3.024027500000000,,0xC4,0xC4
3.025427625000000,,0x21,0x21
3.026835583333333,,0x61,0x61
3.028235708333333,,0x00,0x00
3.029643666666667,,0x50,0x50
3.031043791666667,,0x01,0x01
3.032451791666666,,0x06,0x06
3.033851875000000,,0x07,0x07
3.035259875000000,,0x07,0x07
3.036659958333333,,0x07,0x07
3.038067958333333,,0x0B,0x0B
3.039712250000000,,0x07,0x07
3.041120250000000,,0xD7,0xD7
3.042520333333333,,0x07,0x07
3.043928333333333,,0x8B,0x8B
3.045328416666667,,0x07,0x07
3.046736416666667,,0x5F,0x5F
3.048136500000000,,0x87,0x87
3.049544500000000,,0x0B,0x0B
3.050944583333334,,0x87,0x87
3.052352583333333,,0x5F,0x5F
3.053752666666667,,0x87,0x87
3.055160708333333,,0x81,0x81
3.056560750000000,,0xBF,0xBF
3.057968791666667,,0xB5,0xB5
3.059368833333334,,0x81,0x81
3.060776875000000,,0xBF,0xBF
3.062176958333333,,0x81,0x81
3.063584958333333,,0x89,0x89
3.064985041666667,,0xB7,0xB7
3.066393041666667,,0xAB,0xAB
3.067793125000000,,0x85,0x85
3.069201166666667,,0xBB,0xBB
3.070601208333333,,0x85,0x85
3.072009250000000,,0xB1,0xB1
3.073653458333333,,0x8F,0x8F
3.075061541666666,,0x15,0x15
3.076461583333333,,0x81,0x81
3.077869625000000,,0xBD,0xBD
3.079269666666667,,0x80,0x80
3.080677708333333,,0xD4,0xD4
3.082077750000000,,0x80,0x80
3.083485791666666,,0xEC,0xEC
3.084885833333333,,0x90,0x90
3.086293875000000,,0xD1,0xD1
3.087693916666667,,0xE0,0xE0
3.089102000000000,,0xC0,0xC0
3.090502000000000,,0x80,0x80
3.091910083333334,,0x80,0x80
3.093310083333333,,0x80,0x80
3.094718166666667,,0xDF,0xDF
3.096118166666667,,0xA0,0xA0
3.097648333333333,,0xC1,0xC1
3.099048375000000,,0xFD,0xFD
3.100456458333333,,0x12,0x12
3.101856458333333,,0x00,0x00
3.103264541666667,,0x43,0x43
3.104664541666667,,0x00,0x00
3.106072625000000,,0x02,0x02
3.107472625000000,,0x00,0x00
3.108880708333333,,0x4A,0x4A
3.110280708333333,,0x01,0x01
3.111688791666666,,0x03,0x03
3.113088791666667,,0x00,0x00
3.114496916666667,,0x02,0x02
3.115896875000000,,0x01,0x01
3.117305000000000,,0x81,0x81
3.118705000000000,,0x02,0x02
3.120113083333333,,0x05,0x05
3.121513083333333,,0x02,0x02
3.122921166666667,,0x9B,0x9B
3.124321166666667,,0x07,0x07
3.125729250000000,,0xCB,0xCB
3.127129250000000,,0x07,0x07
3.128537375000000,,0x03,0x03
3.129937333333333,,0x8F,0x8F
3.131345458333334,,0x47,0x47
3.132745416666667,,0x87,0x87
3.134153541666667,,0x1B,0x1B
3.135553500000000,,0xC7,0xC7
3.136961625000000,,0x0F,0x0F
3.138361583333333,,0xC7,0xC7
3.139769750000000,,0xF7,0xF7
3.141169708333333,,0x4F,0x4F
3.142577833333333,,0xE7,0xE7
3.143977791666666,,0x4F,0x4F
3.145385916666667,,0x3D,0x3D
3.146785875000000,,0x83,0x83
3.148377125000000,,0x01,0x01
3.149777083333333,,0xBF,0xBF
3.151185250000000,,0x03,0x03
3.152585166666667,,0x81,0x81
3.153993333333333,,0x41,0x41
3.155393250000000,,0xBF,0xBF
3.156801416666667,,0x3F,0x3F
3.158201375000000,,0x81,0x81
3.159609500000000,,0x1F,0x1F
3.161009458333333,,0x81,0x81
3.162417625000000,,0x01,0x01
3.163817541666667,,0xBF,0xBF
3.165225708333333,,0xBF,0xBF
3.166625625000000,,0x01,0x01
3.168033791666667,,0xD8,0xD8
3.169433708333333,,0x80,0x80
3.170841875000000,,0xDC,0xDC
3.172241791666667,,0x80,0x80
3.173649958333333,,0xFD,0xFD
3.175049875000000,,0x80,0x80
3.176458083333333,,0xFF,0xFF
3.177857958333334,,0xFF,0xFF
3.179266166666667,,0x00,0x00
3.180666083333333,,0x00,0x00
3.182074250000000,,0x00,0x00
3.183474166666667,,0x00,0x00
3.184882333333333,,0x00,0x00
3.186282250000000,,0x00,0x00
3.187690416666667,,0x00,0x00
3.189090333333333,,0x00,0x00
3.190498541666666,,0x01,0x01
3.191898416666667,,0x00,0x00
3.193306625000000,,0x01,0x01
3.194706500000000,,0x00,0x00
3.196114708333333,,0x00,0x00
3.197514583333333,,0x00,0x00
3.198922791666666,,0xFF,0xFF
3.200322666666667,,0xFF,0xFF
3.201730875000000,,0x00,0x00
3.203130791666667,,0x00,0x00
3.204539000000000,,0x00,0x00
3.205938875000000,,0x00,0x00
3.207347083333334,,0x00,0x00
3.208746958333333,,0x00,0x00
3.210155166666667,,0x00,0x00
3.211555041666667,,0x00,0x00
3.212963250000000,,0xA7,0xA7
3.214363125000000,,0x4F,0x4F
3.215771375000000,,0x77,0x77
3.217171208333333,,0x0F,0x0F
3.218579458333333,,0x07,0x07
3.219979291666667,,0x0F,0x0F
3.221387541666667,,0xFF,0xFF
3.222787375000000,,0xFF,0xFF
3.224195625000000,,0x00,0x00
3.225595500000000,,0x00,0x00
3.227003708333333,,0x00,0x00
3.228403583333333,,0x00,0x00
3.229811833333333,,0x00,0x00
3.231211666666667,,0x00,0x00
3.232619916666667,,0x00,0x00
3.234019750000000,,0x00,0x00
3.235428000000000,,0xBD,0xBD
3.236827833333333,,0x03,0x03
3.238236083333333,,0x8B,0x8B
3.239635916666667,,0x75,0x75
3.241044166666667,,0xBF,0xBF
3.242444000000000,,0x01,0x01
3.243852291666667,,0xFF,0xFF
3.245252083333333,,0xFF,0xFF
3.246660375000000,,0x00,0x00
3.248060208333333,,0x00,0x00
3.249468458333333,,0x00,0x00
3.250868291666666,,0x00,0x00
3.252276541666667,,0x00,0x00
3.253676375000000,,0x00,0x00
3.255084625000000,,0x00,0x00
3.256484458333333,,0x00,0x00
3.257892750000000,,0xFF,0xFF
3.259292541666666,,0xFF,0xFF
3.260700833333333,,0x80,0x80
3.262100625000000,,0x80,0x80
3.263508916666667,,0x80,0x80
3.264908708333333,,0x80,0x80
3.266317000000000,,0x80,0x80
3.267716791666667,,0x80,0x80
3.269125083333333,,0x80,0x80
3.270524916666667,,0x80,0x80
3.271933208333333,,0x80,0x80
3.273333000000000,,0x80,0x80
3.274741291666666,,0xFC,0xFC
3.276141083333334,,0x80,0x80
3.277549375000000,,0xBF,0xBF
3.278949166666667,,0xC0,0xC0
3.280357458333333,,0xFF,0xFF
3.281757250000000,,0xFF,0xFF
3.283165583333334,,0x00,0x00
3.284565333333333,,0x00,0x00
3.285973666666667,,0x00,0x00
3.287373416666667,,0x00,0x00
3.288781750000000,,0x00,0x00
3.290181500000000,,0x00,0x00
3.291589833333334,,0x00,0x00
3.292989625000000,,0x00,0x00
3.294397916666667,,0x00,0x00
3.295797708333333,,0x00,0x00
3.297206041666667,,0x20,0x20
3.298605791666667,,0x00,0x00
3.300014125000000,,0x7D,0x7D
3.301413875000000,,0x00,0x00
3.302822208333333,,0xFF,0xFF
3.304221958333333,,0xFF,0xFF
3.305630291666667,,0x00,0x00
3.307030041666667,,0x00,0x00
3.308438416666667,,0x00,0x00
3.309838125000000,,0x00,0x00
3.311246500000000,,0x00,0x00
3.312646208333333,,0x00,0x00
3.314054583333333,,0x00,0x00
3.315454333333333,,0x00,0x00
3.316862666666667,,0x02,0x02
3.318262416666667,,0x01,0x01
3.319670750000000,,0x00,0x00
3.321070500000000,,0x0F,0x0F
3.322478833333333,,0x45,0x45
3.323878583333333,,0x1F,0x1F
3.325286958333333,,0xFF,0xFF
3.326686666666667,,0xFF,0xFF
3.328095041666667,,0x01,0x01
3.329494750000000,,0x01,0x01
3.330903125000000,,0x01,0x01
3.332302833333333,,0x01,0x01
3.333711208333333,,0x01,0x01
3.335110916666667,,0x01,0x01
3.336519333333333,,0x01,0x01
3.337919041666667,,0x01,0x01
3.339327416666667,,0xC1,0xC1
3.340727125000000,,0x01,0x01
3.342135500000000,,0x01,0x01
3.343535208333333,,0xE1,0xE1
3.344943583333333,,0x41,0x41
3.346343291666667,,0xF1,0xF1
3.347751666666666,,0xEE,0xEE
3.349151375000000,,0x90,0x90
3.350559791666667,,0x83,0x83
3.351959458333333,,0xFC,0xFC
3.353367875000000,,0xAF,0xAF
3.354767541666666,,0xC0,0xC0
3.356175958333333,,0xFA,0xFA
3.357575625000000,,0x85,0x85
3.358984041666667,,0xC5,0xC5
3.360383750000000,,0xBA,0xBA
3.361792125000000,,0x8F,0x8F
3.363191833333333,,0xF0,0xF0
3.364600250000000,,0xA0,0xA0
3.365999916666667,,0xC0,0xC0
3.367408333333333,,0xCB,0xCB
3.368808000000000,,0xF4,0xF4
3.370216416666667,,0xFE,0xFE
3.371616083333334,,0x00,0x00
3.373024500000000,,0xFA,0xFA
3.374607291666667,,0x05,0x05
3.376015750000000,,0xCE,0xCE
3.377415416666667,,0x01,0x01
3.378823833333333,,0x68,0x68
3.380223500000000,,0x97,0x97
3.381631916666667,,0xFE,0xFE
3.383031583333334,,0x01,0x01
3.384440000000000,,0xAD,0xAD
3.385839666666667,,0x53,0x53
3.387248125000000,,0x79,0x79
3.388647750000000,,0x06,0x06
3.390056208333333,,0x3A,0x3A
3.391455833333333,,0xC5,0xC5
3.392864291666667,,0x11,0x11
3.394263916666667,,0x0F,0x0F
3.395672375000000,,0xCF,0xCF
3.397072000000000,,0x11,0x11
3.398480458333333,,0xB6,0xB6
3.399880125000000,,0x09,0x09
3.401288583333333,,0xAA,0xAA
3.402688208333333,,0x55,0x55
3.404096666666667,,0xB0,0xB0
3.405496291666667,,0x4F,0x4F
3.406904750000000,,0xE4,0xE4
3.408304375000000,,0x5F,0x5F
3.409712833333333,,0xB6,0xB6
3.411112458333333,,0x4F,0x4F
3.412520958333333,,0x84,0x84
3.413920541666667,,0x7F,0x7F
3.415329041666667,,0x3D,0x3D
3.416728625000000,,0xC1,0xC1
3.418137125000000,,0xFD,0xFD
3.419536708333333,,0xC1,0xC1
3.420945208333333,,0x69,0x69
3.422344833333333,,0xC1,0xC1
3.423753291666667,,0x37,0x37
3.425275000000000,,0x41,0x41
3.426683500000000,,0x11,0x11
3.428083083333333,,0xE7,0xE7
3.429491583333333,,0x39,0x39
3.430891166666667,,0xC7,0xC7
3.432299666666667,,0x95,0x95
3.433699250000000,,0x63,0x63
3.435107750000000,,0x8D,0x8D
3.436507333333333,,0x71,0x71
3.437915875000000,,0xB0,0xB0
3.439315416666667,,0xC3,0xC3
3.440723958333333,,0xE5,0xE5
3.442123541666667,,0xC3,0xC3
3.443532041666667,,0xCB,0xCB
3.444931625000000,,0x80,0x80
3.446340125000000,,0x84,0x84
3.447739708333333,,0xC3,0xC3
3.449331375000000,,0xC0,0xC0
3.450730916666667,,0xA0,0xA0
3.452139458333333,,0xD1,0xD1
3.453539000000000,,0xEE,0xEE
3.454947541666667,,0xAF,0xAF
3.456347083333333,,0xD0,0xD0
3.457755625000000,,0x86,0x86
3.459155208333333,,0x81,0x81
3.460563750000000,,0x3B,0x3B
3.461963291666667,,0xC4,0xC4
3.463371833333333,,0x1D,0x1D
3.464771375000000,,0xE6,0xE6
3.466179916666666,,0x0B,0x0B
3.467579458333333,,0xC4,0xC4
3.468988000000000,,0xB3,0xB3
3.470387541666667,,0x5C,0x5C
3.471796083333333,,0x59,0x59
3.473195625000000,,0x06,0x06
3.474604208333333,,0x07,0x07
3.476003708333333,,0x1C,0x1C
3.477412291666667,,0xCC,0xCC
3.478811833333333,,0x38,0x38
3.480220375000000,,0xFA,0xFA
3.481619916666667,,0x11,0x11
3.483028458333334,,0xC0,0xC0
3.484428000000000,,0x30,0x30
3.485836541666667,,0xB5,0xB5
3.487236083333333,,0x40,0x40
3.488644666666667,,0x1D,0x1D
3.490044166666667,,0xC2,0xC2
3.491452750000000,,0x16,0x16
3.492852250000000,,0xC1,0xC1
3.494260833333333,,0x88,0x88
3.495660333333333,,0x00,0x00
3.497068916666667,,0x55,0x55
3.498468416666667,,0x00,0x00
3.499999125000000,,0x00,0x00
3.501398625000000,,0x00,0x00
3.502807208333333,,0x00,0x00
3.504206708333333,,0x00,0x00
3.505615291666667,,0x01,0x01
3.507014791666667,,0x01,0x01
3.508423375000000,,0xDF,0xDF
3.509822875000000,,0x01,0x01
3.511231500000000,,0x19,0x19
3.512630958333333,,0x01,0x01
3.514039583333334,,0x1F,0x1F
3.515439041666667,,0x01,0x01
3.516847666666667,,0x1D,0x1D
3.518247125000000,,0x01,0x01
3.519655750000000,,0xDB,0xDB
3.521055250000000,,0x25,0x25
3.522463833333333,,0x1F,0x1F
3.523863333333333,,0x01,0x01
3.525271958333333,,0x6D,0x6D
3.526671416666667,,0x11,0x11
3.528080041666667,,0x89,0x89
3.529479500000000,,0x86,0x86
3.530888125000000,,0xF5,0xF5
3.532287583333333,,0x9F,0x9F
3.533696208333333,,0x80,0x80
3.535095666666667,,0xFF,0xFF
3.536504291666667,,0xFF,0xFF
3.537903750000000,,0xFF,0xFF
3.539312416666667,,0x00,0x00
3.540711833333333,,0x00,0x00
3.542120500000000,,0x00,0x00
3.543519958333333,,0x00,0x00
3.544928583333333,,0x00,0x00
3.546328041666666,,0x00,0x00
3.547736666666667,,0x00,0x00
3.549136125000000,,0x00,0x00
3.550544791666667,,0x8A,0x8A
3.551944208333333,,0x67,0x67
3.553352875000000,,0x1F,0x1F
3.554752291666667,,0xFF,0xFF
3.556160958333333,,0x3E,0x3E
3.557560375000000,,0xFF,0xFF
3.558969041666667,,0xFF,0xFF
3.560368458333333,,0xFF,0xFF
3.561777125000000,,0x00,0x00
3.563176541666667,,0x00,0x00
3.564585250000000,,0x00,0x00
3.565984666666667,,0x00,0x00
3.567393333333333,,0x00,0x00
3.568792750000000,,0x00,0x00
3.570201416666666,,0x00,0x00
3.571600833333333,,0x00,0x00
3.573009500000000,,0x00,0x00
3.574408916666667,,0x00,0x00
3.575817583333333,,0xE1,0xE1
3.577217000000000,,0x00,0x00
3.578625708333333,,0x22,0x22
3.580025083333333,,0xC1,0xC1
3.581433791666667,,0xFF,0xFF
3.582833166666667,,0xFF,0xFF
3.584241875000000,,0x00,0x00
3.585641250000000,,0x00,0x00
3.587049958333334,,0x00,0x00
3.588449375000000,,0x00,0x00
3.589858083333333,,0x00,0x00
3.591257458333333,,0x00,0x00
3.592666166666667,,0x00,0x00
3.594065541666667,,0x00,0x00
3.595474250000000,,0x1D,0x1D
3.596873625000000,,0x63,0x63
3.598282333333333,,0x29,0x29
3.599681708333333,,0xD7,0xD7
3.601090416666667,,0x11,0x11
3.602489791666667,,0xEF,0xEF
3.603898541666667,,0xFF,0xFF
3.605297875000000,,0xFF,0xFF
3.606706625000000,,0x00,0x00
3.608105958333333,,0x00,0x00
3.609514708333333,,0x00,0x00
3.610914083333333,,0x00,0x00
3.612322791666667,,0x00,0x00
3.613722166666667,,0x00,0x00
3.615130875000000,,0x00,0x00
3.616530250000000,,0x00,0x00
3.617939000000000,,0xFF,0xFF
3.619338333333333,,0xFF,0xFF
3.620747083333333,,0x80,0x80
3.622146416666667,,0x80,0x80
3.623555166666667,,0x80,0x80
3.624954500000000,,0x80,0x80
3.626363250000000,,0x80,0x80
3.627762583333333,,0x80,0x80
3.629171333333333,,0x80,0x80
3.630570666666667,,0x80,0x80
3.631979458333333,,0x80,0x80
3.633378791666667,,0x80,0x80
3.634787541666667,,0xC0,0xC0
3.636186875000000,,0x80,0x80
3.637595625000000,,0x9E,0x9E
3.638994958333333,,0xC1,0xC1
3.640403708333333,,0xFF,0xFF
3.641803041666666,,0xFF,0xFF
3.643211791666667,,0x00,0x00
3.644611125000000,,0x00,0x00
3.646019916666666,,0x00,0x00
3.647419208333333,,0x00,0x00
3.648828000000000,,0x00,0x00
3.650227291666666,,0x00,0x00
3.651636083333333,,0x00,0x00
3.653035375000000,,0x00,0x00
3.654444166666666,,0x40,0x40
3.655843500000000,,0x00,0x00
3.657252291666667,,0x78,0x78
3.658651583333334,,0x00,0x00
3.660060375000000,,0xBB,0xBB
3.661459666666667,,0x44,0x44
3.662868458333334,,0xFF,0xFF
3.664267750000000,,0xFF,0xFF
3.665676541666667,,0x00,0x00
3.667075833333334,,0x00,0x00
3.668484625000000,,0x00,0x00
3.669883916666667,,0x00,0x00
3.671292750000000,,0x00,0x00
3.672692000000000,,0x00,0x00
3.674100833333333,,0x00,0x00
3.675500083333333,,0x00,0x00
3.676908916666667,,0x04,0x04
3.678308166666667,,0x00,0x00
3.679717000000000,,0x00,0x00
3.681116291666667,,0x00,0x00
3.682525083333333,,0xD5,0xD5
3.683924375000000,,0x00,0x00
3.685333208333333,,0xFF,0xFF
3.686732458333333,,0xFF,0xFF
3.688141291666667,,0x01,0x01
3.689540541666667,,0x01,0x01
3.690949375000000,,0x01,0x01
3.692348625000000,,0x01,0x01
3.693757458333333,,0x01,0x01
3.695156708333333,,0x01,0x01
3.696565541666667,,0x01,0x01
3.697964791666667,,0x01,0x01
3.699373666666667,,0x01,0x01
3.700772875000000,,0x01,0x01
3.702181750000000,,0x01,0x01
3.703581000000000,,0x01,0x01
3.704989833333333,,0x55,0x55
3.706389083333333,,0x01,0x01
3.707797916666667,,0xDF,0xDF
3.709197166666667,,0x80,0x80
3.710606041666667,,0xFF,0xFF
3.712005250000000,,0x80,0x80
3.713414125000000,,0xFD,0xFD
3.714813333333333,,0x80,0x80
3.716222208333333,,0xDF,0xDF
3.717621416666667,,0x80,0x80
3.719030291666667,,0x82,0x82
3.720429500000000,,0x80,0x80
3.721838375000000,,0xC5,0xC5
3.723237583333333,,0x80,0x80
3.724646500000000,,0x85,0x85
3.726228833333333,,0x80,0x80
3.727637708333333,,0xFF,0xFF
3.729036916666667,,0x80,0x80
3.730445791666666,,0xFF,0xFF
3.731845000000000,,0x00,0x00
3.733253916666667,,0xF6,0xF6
3.734653083333333,,0x41,0x41
3.736062000000000,,0xFF,0xFF
3.737461166666667,,0x00,0x00
3.738870083333333,,0xA2,0xA2
3.740269250000000,,0x5D,0x5D
3.741678166666667,,0x3E,0x3E
3.743077375000000,,0x01,0x01
3.744486250000000,,0x63,0x63
3.745885458333333,,0x1C,0x1C
3.747294375000000,,0x0E,0x0E
3.748693541666666,,0xF1,0xF1
3.750102458333334,,0x75,0x75
3.751501625000000,,0x0F,0x0F
3.752910541666667,,0xCC,0xCC
3.754309708333333,,0x00,0x00
3.755718625000000,,0xFF,0xFF
3.757117791666666,,0x00,0x00
3.758526708333333,,0xDC,0xDC
3.759925875000000,,0x20,0x20
3.761334833333333,,0x97,0x97
3.762733958333333,,0x60,0x60
3.764142916666667,,0x19,0x19
3.765542083333334,,0xE6,0xE6
3.766951000000000,,0x0B,0x0B
3.768350166666667,,0xF4,0xF4
3.769759083333333,,0xC0,0xC0
3.771158250000000,,0x30,0x30
3.772567208333333,,0x8E,0x8E
3.773966333333334,,0x71,0x71
3.775375291666667,,0x13,0x13
3.776957541666667,,0x01,0x01
3.778366500000000,,0x5F,0x5F
3.779765625000000,,0x01,0x01
3.781174583333333,,0xE1,0xE1
3.782573750000000,,0x01,0x01
3.783982708333333,,0xF7,0xF7
3.785381833333333,,0x01,0x01
3.786790791666667,,0xDB,0xDB
3.788189916666667,,0x01,0x01
3.789598875000000,,0x5D,0x5D
3.790998000000000,,0x01,0x01
3.792406958333333,,0x07,0x07
3.793867125000000,,0x01,0x01
3.795276125000000,,0x97,0x97
3.796675208333333,,0x01,0x01
3.798084208333333,,0xA0,0xA0
3.799483291666667,,0x80,0x80
3.801014375000000,,0xC1,0xC1
3.802413500000000,,0x80,0x80
3.803822458333333,,0xC0,0xC0
3.805221583333333,,0x80,0x80
3.806630583333333,,0xC1,0xC1
3.808029666666667,,0x80,0x80
3.809438666666667,,0xDF,0xDF
3.810837750000000,,0x80,0x80
3.812246750000000,,0xE8,0xE8
3.813645833333333,,0x97,0x97
3.815054833333333,,0xBC,0xBC
3.816453916666667,,0x83,0x83
3.817862916666667,,0x82,0x82
3.819262041666667,,0x85,0x85
3.820671041666666,,0xF8,0xF8
3.822070125000000,,0x07,0x07
3.823479125000000,,0x74,0x74
3.824878208333333,,0x0F,0x0F
3.826287208333333,,0x70,0x70
3.827686291666667,,0x0F,0x0F
3.829095291666667,,0xEF,0xEF
3.830494375000000,,0x11,0x11
3.831903375000000,,0x88,0x88
3.833302458333333,,0x77,0x77
3.834894625000000,,0x89,0x89
3.836293708333333,,0x77,0x77
3.837702708333333,,0x08,0x08
3.839101791666667,,0xF7,0xF7
3.840510791666667,,0x90,0x90
3.841909875000000,,0x7F,0x7F
3.843318916666667,,0x08,0x08
3.844717958333333,,0xF0,0xF0
3.846127000000000,,0x10,0x10
3.847526041666667,,0xE0,0xE0
3.848935083333333,,0x06,0x06
3.850334125000000,,0xF8,0xF8
3.851743166666667,,0x55,0x55
3.853142208333333,,0xFC,0xFC
3.854551250000000,,0x64,0x64
3.855950291666667,,0xFA,0xFA
3.857359375000000,,0x11,0x11
3.858758416666667,,0xFE,0xFE
3.860167458333333,,0xE4,0xE4
3.861566500000000,,0x19,0x19
3.862975541666667,,0xB0,0xB0
3.864374583333333,,0x40,0x40
3.865783625000000,,0xFF,0xFF
3.867182666666667,,0x01,0x01
3.868591708333333,,0xBF,0xBF
3.869990750000000,,0x41,0x41
3.871399833333333,,0x71,0x71
3.872798833333333,,0x01,0x01
3.874207916666667,,0x35,0x35
3.875606916666666,,0x41,0x41
3.877016000000000,,0x05,0x05
3.878415000000000,,0x03,0x03
3.879824083333333,,0x47,0x47
3.881223125000000,,0x01,0x01
3.882632208333333,,0x81,0x81
3.884031208333333,,0x01,0x01
3.885440291666667,,0x17,0x17
3.886839291666667,,0x01,0x01
3.888248375000000,,0x87,0x87
3.889647375000000,,0x80,0x80
3.891056458333333,,0xD2,0xD2
3.892455458333334,,0x85,0x85
3.893864541666667,,0x87,0x87
3.895263541666667,,0x80,0x80
3.896672666666666,,0xFF,0xFF
3.898071625000000,,0xFF,0xFF
3.899480750000000,,0x00,0x00
3.900879708333334,,0x00,0x00
3.902288833333333,,0x00,0x00
3.903687833333333,,0x00,0x00
3.905096916666666,,0x00,0x00
3.906495916666667,,0x00,0x00
3.907905000000000,,0x00,0x00
3.909304000000000,,0x00,0x00
3.910713125000000,,0x82,0x82
3.912112083333333,,0x7D,0x7D
3.913521208333334,,0x80,0x80
3.914920166666667,,0x5F,0x5F
3.916329291666667,,0xB0,0xB0
3.917728250000000,,0x4F,0x4F
3.919137375000000,,0xFF,0xFF
3.920536333333333,,0xFF,0xFF
3.921945500000000,,0x00,0x00
3.923344416666667,,0x00,0x00
3.924753583333333,,0x00,0x00
3.926152541666667,,0x00,0x00
3.927561666666667,,0x00,0x00
3.928960625000000,,0x00,0x00
3.930369750000000,,0x00,0x00
3.931768708333333,,0x00,0x00
3.933177833333333,,0x90,0x90
3.934576791666667,,0x60,0x60
3.935985958333333,,0x89,0x89
3.937384875000000,,0x70,0x70
3.938794041666667,,0x9D,0x9D
3.940192958333333,,0x62,0x62
3.941602125000000,,0xFF,0xFF
3.943001041666667,,0xFF,0xFF
3.944410208333333,,0x00,0x00
3.945809125000000,,0x00,0x00
3.947218291666667,,0x00,0x00
3.948617208333333,,0x00,0x00
3.950026416666667,,0x00,0x00
3.951425333333333,,0x00,0x00
3.952834500000000,,0x00,0x00
3.954233416666667,,0x00,0x00
3.955642583333333,,0x3F,0x3F
3.957041500000000,,0x01,0x01
3.958450666666667,,0x8B,0x8B
3.959849583333333,,0x75,0x75
3.961258750000000,,0xF5,0xF5
3.962657666666667,,0x0B,0x0B
3.964066875000000,,0xFF,0xFF
3.965465750000000,,0xFF,0xFF
3.966874958333333,,0x00,0x00
3.968273833333333,,0x00,0x00
3.969683041666667,,0x00,0x00
3.971081916666667,,0x00,0x00
3.972491125000000,,0x00,0x00
3.973890041666666,,0x00,0x00
3.975299250000000,,0x00,0x00
3.976698125000000,,0x00,0x00
3.978107333333333,,0xFF,0xFF
3.979506208333333,,0xFF,0xFF
3.980915416666666,,0x88,0x88
3.982314291666667,,0xF7,0xF7
3.983723500000000,,0xA4,0xA4
3.985122375000000,,0xFB,0xFB
3.986531583333333,,0xB2,0xB2
3.987930458333333,,0xDD,0xDD
3.989339708333334,,0xD4,0xD4
3.990738541666667,,0xAB,0xAB
3.992147791666667,,0x84,0x84
3.993546625000000,,0xFF,0xFF
3.994955875000000,,0xB3,0xB3
3.996354750000000,,0xCC,0xCC
3.997763958333334,,0xA1,0xA1
3.999162833333333,,0xDF,0xDF
4.000572041666667,,0xFF,0xFF
4.001970916666667,,0xFF,0xFF
4.003380166666667,,0x2A,0x2A
4.004779000000000,,0xD5,0xD5
4.006188250000000,,0x40,0x40
4.007587083333333,,0xBF,0xBF
4.008996333333333,,0x29,0x29
4.010395166666667,,0xF7,0xF7
4.011804416666667,,0x0E,0x0E
4.013203250000000,,0xF1,0xF1
4.014612500000000,,0x02,0x02
4.016011333333333,,0xFD,0xFD
4.017420625000000,,0xD2,0xD2
4.018819458333334,,0x2D,0x2D
4.020228708333334,,0x4A,0x4A
4.021627541666667,,0xF5,0xF5
4.023036791666667,,0xFF,0xFF
4.024435625000000,,0xFF,0xFF
4.025844875000000,,0x77,0x77
4.027243708333334,,0xD8,0xD8
4.028652958333334,,0x0F,0x0F
4.030051791666667,,0xF0,0xF0
4.031461083333333,,0x4E,0x4E
4.032859875000000,,0xF1,0xF1
4.034269166666666,,0x1F,0x1F
4.035667958333334,,0xE0,0xE0
4.037077250000000,,0x5B,0x5B
4.038476041666667,,0xE4,0xE4
4.039885333333333,,0x3F,0x3F
4.041284166666666,,0xC0,0xC0
4.042693458333333,,0xA0,0xA0
4.044092250000000,,0x5F,0x5F
4.045501541666667,,0xFF,0xFF
4.046900333333333,,0xFF,0xFF
4.048309625000000,,0xF9,0xF9
4.049708416666666,,0x17,0x17
4.051117708333333,,0xCF,0xCF
4.052516500000000,,0x31,0x31
4.053925791666667,,0xB3,0xB3
4.055324583333333,,0x4D,0x4D
4.056733916666666,,0xFB,0xFB
4.058132666666666,,0x05,0x05
4.059542000000000,,0xA5,0xA5
4.061184958333333,,0x5F,0x5F
4.062594250000000,,0x01,0x01
4.063993041666667,,0xFF,0xFF
4.065402375000000,,0x01,0x01
4.066801125000000,,0xFF,0xFF
4.068210458333334,,0xBF,0xBF
4.069609208333334,,0xC0,0xC0
4.071018541666667,,0xBD,0xBD
4.072417291666667,,0xC0,0xC0
4.073826625000000,,0xF0,0xF0
4.075225375000000,,0x80,0x80
4.076634708333334,,0xB4,0xB4
4.078033500000000,,0xC0,0xC0
4.079442833333333,,0xE0,0xE0
4.080841583333333,,0x80,0x80
4.082250916666666,,0x8B,0x8B
4.083649666666667,,0xF4,0xF4
4.085059000000000,,0x81,0x81
4.086457750000000,,0xFE,0xFE
4.087867083333333,,0x82,0x82
4.089265833333333,,0xFD,0xFD
4.090675208333334,,0xFE,0xFE
4.092073916666667,,0x01,0x01
4.093483291666667,,0x55,0x55
4.095126208333333,,0x00,0x00
4.096535541666666,,0x60,0x60
4.097934291666666,,0x00,0x00
4.099343666666667,,0x41,0x41
4.100742375000000,,0x00,0x00
4.102151750000000,,0x00,0x00
4.103550458333333,,0x00,0x00
4.104959833333333,,0xD4,0xD4
4.106358541666666,,0x00,0x00
4.107767916666667,,0xFF,0xFF
4.109166625000000,,0x00,0x00
4.110576000000000,,0xBE,0xBE
4.111974708333333,,0x41,0x41
4.113384125000000,,0x07,0x07
4.114782833333333,,0xF8,0xF8
4.116192208333334,,0x5A,0x5A
4.117590916666667,,0x05,0x05
4.119122375000000,,0x10,0x10
4.120521083333333,,0x00,0x00
4.121930458333333,,0x57,0x57
4.123329166666666,,0x00,0x00
4.124738583333333,,0x40,0x40
4.126137250000000,,0x00,0x00
4.127546666666666,,0x00,0x00
4.128945333333333,,0x00,0x00
4.130354750000000,,0xFF,0xFF
4.131753416666666,,0x00,0x00
4.133162833333333,,0xA0,0xA0
4.134561541666667,,0x5F,0x5F
4.135970916666666,,0xFD,0xFD
4.137369625000000,,0x03,0x03
4.138779041666667,,0x11,0x11
4.140177708333334,,0xFF,0xFF
4.141587125000000,,0xF9,0xF9
4.142985791666667,,0x07,0x07
4.144395208333333,,0xD9,0xD9
4.145793875000000,,0x07,0x07
4.147203291666667,,0x05,0x05
4.148601958333333,,0x03,0x03
4.150011375000000,,0x15,0x15
4.151410041666667,,0x03,0x03
4.152819500000000,,0xC1,0xC1
4.154218125000000,,0x03,0x03
4.155627583333334,,0x05,0x05
4.157026250000000,,0xFF,0xFF
4.158435666666667,,0xBF,0xBF
4.159834333333333,,0xC0,0xC0
4.161243750000000,,0x85,0x85
4.162642416666666,,0x80,0x80
4.164051833333334,,0xFE,0xFE
4.165450500000000,,0x80,0x80
4.166859958333333,,0xAB,0xAB
4.168258583333333,,0xD4,0xD4
4.169851166666667,,0x80,0x80
4.171249791666667,,0x80,0x80
4.172659250000000,,0xC0,0xC0
4.174057916666666,,0x80,0x80
4.175467375000000,,0x80,0x80
4.176866000000000,,0x80,0x80
4.178275458333333,,0x80,0x80
4.179674083333333,,0x80,0x80
4.181083541666666,,0xFF,0xFF
4.182482166666667,,0x00,0x00
4.183891625000000,,0x7F,0x7F
4.185290250000000,,0x00,0x00
4.186699750000000,,0x00,0x00
4.188098333333333,,0x00,0x00
4.189507833333334,,0xFF,0xFF
4.190906416666667,,0x00,0x00
4.192315916666667,,0x77,0x77
4.193714500000000,,0x00,0x00
4.195124000000000,,0x00,0x00
4.196522625000000,,0x00,0x00
4.197932083333333,,0x00,0x00
4.199330708333333,,0x00,0x00
4.200740208333333,,0x00,0x00
4.202138791666667,,0x00,0x00
4.203548291666666,,0xFC,0xFC
4.204946875000000,,0x03,0x03
4.206356375000000,,0xAA,0xAA
4.207754958333333,,0x55,0x55
4.209164458333333,,0x03,0x03
4.210563041666667,,0x00,0x00
4.211972541666666,,0xFA,0xFA
4.213371125000000,,0x05,0x05
4.214780666666667,,0xFF,0xFF
4.216179208333333,,0x00,0x00
4.217588750000000,,0x05,0x05
4.218987333333334,,0x00,0x00
4.220396833333333,,0x03,0x03
4.221795416666667,,0x00,0x00
4.223204916666667,,0x15,0x15
4.224603500000000,,0x00,0x00
4.226013000000000,,0x01,0x01
4.227411583333334,,0xFF,0xFF
4.228821125000000,,0x35,0x35
4.230219666666667,,0xDF,0xDF
4.231629208333334,,0xFD,0xFD
4.233027750000000,,0x03,0x03
4.234437291666667,,0xA1,0xA1
4.235835833333334,,0x5F,0x5F
4.237245375000000,,0xC1,0xC1
4.238643916666667,,0x3F,0x3F
4.240053500000000,,0xFB,0xFB
4.241452041666666,,0x05,0x05
4.242861583333333,,0xFF,0xFF
4.244260125000000,,0x01,0x01
4.245669666666666,,0xFB,0xFB
4.247068208333333,,0x05,0x05
4.248477750000000,,0x80,0x80
4.249876291666666,,0x80,0x80
4.251285833333333,,0x80,0x80
4.252684375000000,,0x80,0x80
4.254093958333334,,0x80,0x80
4.255492458333333,,0x80,0x80
4.256902041666667,,0xFF,0xFF
4.258300541666666,,0xFF,0xFF
4.259710125000000,,0x00,0x00
4.261108625000000,,0x00,0x00
4.262518208333334,,0x00,0x00
4.263916750000000,,0x00,0x00
4.265326291666667,,0x00,0x00
4.266724833333333,,0x00,0x00
4.268134416666666,,0x00,0x00
4.269532916666667,,0x00,0x00
4.270942500000000,,0x00,0x00
4.272341000000000,,0x00,0x00
4.273750583333333,,0x00,0x00
4.275149083333333,,0x00,0x00
4.276558666666666,,0x00,0x00
4.277957166666667,,0x00,0x00
4.279366750000000,,0xFF,0xFF
4.280765250000000,,0xFF,0xFF
4.282174875000000,,0x00,0x00
4.283573333333333,,0x00,0x00
4.284982958333333,,0x00,0x00
4.286381458333334,,0x00,0x00
4.287791041666667,,0x00,0x00
4.289189541666667,,0x00,0x00
4.290599125000000,,0x00,0x00
4.291997625000000,,0x00,0x00
4.293407250000000,,0x00,0x00
4.294805708333334,,0x00,0x00
4.296215333333333,,0x00,0x00
4.297613791666667,,0x00,0x00
4.299023416666667,,0x00,0x00
4.300421875000000,,0x00,0x00
4.301831500000000,,0xFF,0xFF
4.303229958333334,,0xFF,0xFF
4.304639583333334,,0x00,0x00
4.306038041666667,,0x00,0x00
4.307447708333333,,0x00,0x00
4.308846166666667,,0x00,0x00
4.310255791666667,,0x00,0x00
4.311654250000000,,0x00,0x00
4.313063875000000,,0x00,0x00
4.314462333333333,,0x00,0x00
4.315871958333333,,0x01,0x01
4.317270416666667,,0x01,0x01
4.318680041666667,,0x01,0x01
4.320078500000000,,0x01,0x01
4.321488166666667,,0x01,0x01
4.322886583333333,,0x01,0x01
4.324296250000000,,0xFF,0xFF
4.325694666666666,,0xFF,0xFF
4.327104333333334,,0x00,0x00
4.328502750000000,,0x00,0x00
4.329912416666667,,0x00,0x00
4.331310875000000,,0x00,0x00
4.332720541666666,,0x00,0x00
4.334118958333334,,0x00,0x00
4.335528625000000,,0x00,0x00
4.336927041666667,,0x00,0x00
4.338336708333333,,0xFF,0xFF
4.339735125000000,,0xFF,0xFF
4.341144791666666,,0xFF,0xFF
4.342543208333334,,0xFF,0xFF
4.343952875000000,,0xFF,0xFF
4.345351291666667,,0xFF,0xFF
4.346761000000000,,0xFC,0xFC
4.348159375000000,,0xFF,0xFF
4.349569083333333,,0xFA,0xFA
4.350967458333334,,0xFC,0xFC
4.352377166666667,,0xF7,0xF7
4.353775583333333,,0xF8,0xF8
4.355185250000000,,0xFA,0xFA
4.356583666666666,,0xF0,0xF0
4.357993333333333,,0xE4,0xE4
4.359391750000000,,0xF0,0xF0
4.360801458333333,,0xFF,0xFF
4.362199833333333,,0xFF,0xFF
4.363609541666666,,0xC9,0xC9
4.365007916666666,,0xF7,0xF7
4.366417625000000,,0x22,0x22
4.367816000000000,,0xC1,0xC1
4.369225708333333,,0xC4,0xC4
4.370624083333333,,0x00,0x00
4.372033791666667,,0x03,0x03
4.373432166666666,,0x00,0x00
4.374841916666667,,0x75,0x75
4.376240291666667,,0x03,0x03
4.377650000000000,,0xC0,0xC0
4.379048375000000,,0x3F,0x3F
4.380458083333333,,0x17,0x17
4.381856458333333,,0x7F,0x7F
4.383266166666667,,0xFF,0xFF
4.384664541666667,,0xFF,0xFF
4.386074250000000,,0x1F,0x1F
4.387472625000000,,0xFF,0xFF
4.388882375000000,,0x61,0x61
4.390280708333333,,0x9F,0x9F
4.391690458333334,,0x77,0x77
4.393088791666667,,0x19,0x19
4.394498541666667,,0x46,0x46
4.396080041666667,,0xB9,0xB9
4.397489791666667,,0x57,0x57
4.398888125000000,,0xFC,0xFC
4.400297875000000,,0x2D,0x2D
4.401696208333333,,0xC0,0xC0
4.403105958333334,,0x04,0x04
4.404504291666667,,0xC0,0xC0
4.405914041666667,,0xFF,0xFF
4.407312375000000,,0xFF,0xFF
4.408722125000000,,0xFF,0xFF
4.410120458333333,,0xFF,0xFF
4.411530250000000,,0xFF,0xFF
4.412928541666667,,0xFF,0xFF
4.414338333333333,,0xFF,0xFF
4.415736666666667,,0xFF,0xFF
4.417146416666666,,0x7F,0x7F
4.418544750000000,,0xFF,0xFF
4.419954500000000,,0xBF,0xBF
4.421352833333334,,0x7F,0x7F
4.422762625000000,,0x1F,0x1F
4.424160916666667,,0x3F,0x3F
4.425570708333334,,0x3F,0x3F
4.426969000000000,,0x1F,0x1F
4.428378791666667,,0xF0,0xF0
4.429777083333334,,0xE0,0xE0
4.431186875000000,,0xD9,0xD9
4.432585166666667,,0xE0,0xE0
4.433994958333333,,0xDF,0xDF
4.435393250000000,,0xE0,0xE0
4.436803083333333,,0xE2,0xE2
4.438201375000000,,0xD5,0xD5
4.439611166666666,,0xF8,0xF8
4.441009458333333,,0xC7,0xC7
4.442419250000000,,0xFD,0xFD
4.443817541666666,,0xC7,0xC7
4.445227333333333,,0xE0,0xE0
4.446747708333334,,0xCF,0xCF
4.448157541666666,,0xF8,0xF8
4.449555791666667,,0xC7,0xC7
4.450965625000000,,0x82,0x82
4.452363875000000,,0x7F,0x7F
4.453773708333333,,0xD1,0xD1
4.455171958333334,,0x7F,0x7F
4.456581791666666,,0xC3,0xC3
4.457980083333333,,0x3C,0x3C
4.459389875000000,,0xA7,0xA7
4.460788166666667,,0x5C,0x5C
4.462198000000000,,0xE2,0xE2
4.463596250000000,,0x1C,0x1C
4.465006083333333,,0x63,0x63
4.466404333333333,,0xDC,0xDC
4.467814166666667,,0x01,0x01
4.469212416666666,,0xFE,0xFE
4.470805416666667,,0x27,0x27
4.472203625000000,,0xDC,0xDC
4.473613500000000,,0x3E,0x3E
4.475011750000000,,0xC0,0xC0
4.476421583333333,,0x76,0x76
4.477819833333333,,0x80,0x80
4.479229666666667,,0x00,0x00
4.480627916666666,,0x00,0x00
4.482037750000000,,0x40,0x40
4.483436000000000,,0x00,0x00
4.484845875000000,,0x00,0x00
4.486244083333333,,0x00,0x00
4.487653958333333,,0x00,0x00
4.489052166666666,,0x00,0x00
4.490462041666667,,0x00,0x00
4.491860250000000,,0x00,0x00
4.493270125000000,,0x40,0x40
4.494668333333333,,0x00,0x00
4.496078208333333,,0x0F,0x0F
4.497476458333334,,0x1F,0x1F
4.498886333333333,,0x0F,0x0F
4.500284541666667,,0x1F,0x1F
4.501694416666667,,0x07,0x07
4.503092625000000,,0x0F,0x0F
4.504502500000000,,0x07,0x07
4.505900708333333,,0x0F,0x0F
4.507310583333333,,0x0F,0x0F
4.508708791666667,,0x07,0x07
4.510118708333334,,0x0F,0x0F
4.511516875000000,,0x07,0x07
4.512926791666667,,0x0F,0x0F
4.514324958333333,,0x07,0x07
4.515734875000000,,0x0F,0x0F
4.517133041666667,,0x07,0x07
4.518542958333334,,0xED,0xED
4.519941166666666,,0xC2,0xC2
4.521473125000000,,0xC2,0xC2
4.522871333333334,,0xF5,0xF5
4.524281250000000,,0xDF,0xDF
4.525679416666667,,0xE0,0xE0
4.527089333333334,,0xEE,0xEE
4.528487500000000,,0xF1,0xF1
4.529897416666667,,0xE5,0xE5
4.531295583333334,,0xF8,0xF8
4.532705500000000,,0xF2,0xF2
4.534103666666667,,0xFD,0xFD
4.535513625000000,,0xF0,0xF0
4.536911791666666,,0xFF,0xFF
4.538321708333333,,0xFC,0xFC
4.539719875000000,,0xFF,0xFF
4.541129791666667,,0x72,0x72
4.542527958333333,,0x8C,0x8C
4.543937875000000,,0xD2,0xD2
4.545336041666666,,0x0D,0x0D
4.546745958333333,,0x9F,0x9F
4.548144125000000,,0x00,0x00
4.549554083333334,,0xBA,0xBA
4.550952208333333,,0x45,0x45
4.552362166666667,,0xB4,0xB4
4.553760291666666,,0x0B,0x0B
4.555170250000000,,0xE2,0xE2
4.556568375000000,,0x1D,0x1D
4.557978333333334,,0xF7,0xF7
4.559376458333333,,0x08,0x08
4.560786458333333,,0xA9,0xA9
4.562184583333333,,0x54,0x54
4.563594541666666,,0x00,0x00
4.564992666666667,,0x00,0x00
4.566402625000000,,0x00,0x00
4.567800750000000,,0xC0,0xC0
4.569210708333333,,0xB0,0xB0
4.570608833333333,,0x40,0x40
4.572018791666666,,0x80,0x80
4.573416916666667,,0x70,0x70
4.574826916666667,,0xF0,0xF0
4.576225000000000,,0x00,0x00
4.577635000000000,,0xE0,0xE0
4.579033083333333,,0x00,0x00
4.580443083333333,,0x50,0x50
4.581841208333334,,0x00,0x00
4.583251166666667,,0x00,0x00
4.584649291666667,,0xC0,0xC0
4.586059250000000,,0x0F,0x0F
4.587457375000000,,0x07,0x07
4.588867375000000,,0x07,0x07
4.590265458333334,,0x0F,0x0F
4.591675458333333,,0x07,0x07
4.593073541666667,,0x0F,0x0F
4.594483541666667,,0x1F,0x1F
4.595881625000000,,0x0F,0x0F
4.597291625000000,,0x0F,0x0F
4.598689708333334,,0x1F,0x1F
4.600099708333333,,0x3F,0x3F
4.601497791666667,,0x1F,0x1F
4.602907833333333,,0x1F,0x1F
4.604305875000000,,0x3F,0x3F
4.605715916666667,,0x7F,0x7F
4.607114000000000,,0x7F,0x7F
4.608524000000000,,0xFD,0xFD
4.609922083333333,,0xFE,0xFE
4.611332083333333,,0xFF,0xFF
4.612730166666666,,0xFF,0xFF
4.614140208333334,,0xFF,0xFF
4.615538250000000,,0xFF,0xFF
4.616948291666667,,0xFF,0xFF
4.618346333333333,,0xFF,0xFF
4.619756375000000,,0x00,0x00
4.621154416666666,,0x00,0x00
4.622564458333334,,0x00,0x00
4.623962500000000,,0x00,0x00
4.625372541666667,,0x00,0x00
4.626770583333333,,0x00,0x00
4.628180666666666,,0x00,0x00
4.629578708333334,,0x00,0x00
4.630988750000000,,0xBC,0xBC
4.632386791666667,,0x40,0x40
4.633796833333333,,0x7C,0x7C
4.635194875000000,,0x00,0x00
4.636604916666666,,0xB0,0xB0
4.638002958333334,,0xC0,0xC0
4.639413000000000,,0xFF,0xFF
4.640811041666667,,0xFF,0xFF
4.642221125000000,,0x00,0x00
4.643619125000000,,0x00,0x00
4.645029208333334,,0x00,0x00
4.646427208333333,,0x00,0x00
4.647837291666667,,0x00,0x00
4.649235291666667,,0x00,0x00
4.650645375000000,,0x00,0x00
4.652043416666666,,0x00,0x00
4.653453458333333,,0x80,0x80
4.654851500000000,,0x00,0x00
4.656261583333333,,0x07,0x07
4.657659583333333,,0x01,0x01
4.659069666666666,,0x0B,0x0B
4.660467666666666,,0x07,0x07
4.661877750000000,,0xFF,0xFF
4.663275750000000,,0xFF,0xFF
4.664685833333333,,0x00,0x00
4.666083833333333,,0x00,0x00
4.667493916666666,,0x00,0x00
4.668891916666666,,0x00,0x00
4.670302041666667,,0x00,0x00
4.671700000000000,,0x00,0x00
4.673110125000000,,0x00,0x00
4.674508125000000,,0x00,0x00
4.675918208333333,,0x7F,0x7F
4.677316208333333,,0xFF,0xFF
4.678726291666667,,0xFF,0xFF
4.680124291666667,,0xFF,0xFF
4.681534416666667,,0xFF,0xFF
4.682932375000000,,0xFF,0xFF
4.684342500000000,,0xFF,0xFF
4.685740458333333,,0xFF,0xFF
4.687150583333334,,0x00,0x00
4.688548541666667,,0x00,0x00
4.689958666666667,,0x00,0x00
4.691356625000000,,0x00,0x00
4.692766750000000,,0x00,0x00
4.694164708333333,,0x00,0x00
4.695574875000000,,0x00,0x00
4.696972833333334,,0x00,0x00
8.231867833333334,,0xFF,0x00
8.233221500000001,,0x00,0x99
8.234614875000000,,0x00,0x00
8.236029583333334,,0x00,0x00
8.237422958333333,,0x00,0x00
8.238959791666666,,0x00,0x00
8.240353166666667,,0x00,0x00
8.241767875000001,,0x00,0x00
8.243161250000000,,0x00,0x00
8.244575958333334,,0x00,0x00
8.245969333333333,,0x00,0x00
8.247384041666667,,0x00,0x00
8.248777416666666,,0x00,0x00
8.250192166666666,,0x00,0x00
8.251585499999999,,0x00,0x00
8.253000249999999,,0x00,0x00
8.254393583333334,,0x00,0x00
8.255808333333333,,0x00,0x00
8.257201708333334,,0x00,0x00
8.258616416666667,,0x00,0x00
8.260009791666667,,0x00,0x00
8.261424500000000,,0x00,0x00
8.262817875000000,,0x01,0x00
8.264232625000000,,0x00,0x01
8.265625958333333,,0xFF,0xFF
8.267040708333333,,0xFF,0xFF
8.268434041666668,,0xD5,0xC0
8.269848791666666,,0xFF,0xFF
8.271242125000001,,0xA0,0x83
8.272656874999999,,0xFF,0xFC
8.274050208333334,,0xF5,0xAB
8.275464958333334,,0xFF,0xD4
8.276858291666667,,0x80,0xFF
8.278273083333334,,0xFF,0x80
8.279666416666666,,0xD4,0xBD
8.281081166666667,,0xFF,0xC0
8.282474499999999,,0xC0,0xF8
8.283889250000000,,0xFF,0x80
8.285282583333334,,0xD4,0xD5
8.286697333333333,,0xFF,0x80
8.288090666666667,,0xFF,0xFF
8.289505416666668,,0xFF,0xFF
8.290898750000000,,0x54,0x2A
8.292313541666667,,0xFF,0xD5
8.293706833333333,,0x01,0xFF
8.295121625000000,,0xFE,0x00
8.296514916666666,,0x54,0xFF
8.297929708333333,,0xFF,0x00
8.299322999999999,,0x01,0xE0
8.300737791666666,,0xFE,0x00
8.302131125000001,,0x53,0x55
8.303545916666666,,0xFC,0x00
8.304939208333334,,0x2B,0x00
8.306354000000001,,0xD4,0x00
8.307747291666667,,0x00,0x40
8.309162083333334,,0xDF,0x00
8.310555375000000,,0xFF,0xFF
8.311970166666667,,0xFF,0xFF
8.313363458333333,,0x93,0xF0
8.314778250000000,,0x6C,0x00
8.316171541666666,,0x10,0xF3
8.317586374999999,,0xEE,0x04
8.318979625000001,,0x4D,0x43
8.320394458333332,,0xF6,0x34
8.321787708333334,,0x01,0x10
8.323202541666667,,0xFE,0x20
8.324595833333333,,0xD4,0x43
8.326010625000000,,0x7F,0x34
8.327403916666666,,0xE9,0x08
8.328818708333333,,0x16,0x30
8.330212000000000,,0x88,0x1F
8.331626833333333,,0x77,0x30
8.333020083333333,,0xFF,0xFF
8.334434916666666,,0xFF,0xFF
8.335828166666667,,0xD9,0x03
8.337243000000001,,0x07,0x01
8.338636250000000,,0x11,0xE1
8.340051083333334,,0x0F,0x01
8.341444333333333,,0x05,0xE1
8.342859208333333,,0x7F,0x01
8.344252416666667,,0x01,0x01
8.345667291666667,,0xFF,0x01
8.347060500000000,,0x55,0xA1
8.348475375000000,,0xFF,0x41
8.349868624999999,,0x61,0x01
8.351283458333333,,0xDF,0x01
8.352676708333334,,0x25,0xF5
8.354091541666667,,0xDF,0x01
8.355484791666667,,0x80,0xC0
8.356899666666667,,0xFF,0x80
8.358292875000000,,0xC2,0x85
8.359707750000000,,0xFD,0x80
8.361100958333333,,0x88,0xFA
8.362515833333333,,0xF0,0x81
8.363909041666666,,0xC0,0xB6
8.365323916666666,,0xF0,0xC1
8.366717124999999,,0xA0,0xE7
8.368131999999999,,0xF0,0x80
8.369525208333334,,0xC0,0xFC
8.370940125000001,,0xF0,0xC0
8.372333333333334,,0xC5,0x9E
8.373748208333334,,0xF8,0x80
8.375141416666667,,0xD4,0xB0
8.376556291666667,,0xFF,0x84
8.377949500000000,,0x43,0x00
8.379364375000000,,0x9C,0x00
8.380757583333333,,0x40,0x02
8.382172458333333,,0x9F,0x00
8.383565666666666,,0x90,0x80
8.384980583333334,,0x0F,0x00
8.386373750000001,,0x11,0x44
8.387788666666667,,0x0F,0x01
8.389181833333334,,0x18,0x21
8.390596750000000,,0x07,0x00
8.391989916666667,,0x1A,0x64
8.393404833333333,,0x04,0x01
8.394798041666666,,0x18,0x61
8.396212916666666,,0x00,0x00
8.397606124999999,,0xDC,0x10
8.399021041666666,,0x00,0x41
8.400414208333334,,0x0B,0x0F
8.401829125000001,,0xF4,0x30
8.403222291666667,,0x66,0x1D
8.404637208333334,,0x10,0x30
8.406030375000000,,0xB0,0x1B
8.407445291666667,,0x00,0x30
8.408838458333333,,0x2A,0xDA
8.410253416666666,,0xD4,0x35
8.411646541666666,,0x8E,0x98
8.413061500000000,,0x30,0x30
8.414454624999999,,0x0A,0x5F
8.415869583333333,,0x34,0xB0
8.417262750000001,,0x0A,0x1F
8.418677666666667,,0x34,0xB0
8.420070833333334,,0x0B,0x58
8.421485750000000,,0x34,0xB0
8.422878916666667,,0xC1,0x9D
8.424293875000000,,0x3F,0x63
8.425687000000000,,0x6B,0x75
8.427101958333333,,0x15,0x01
8.428495083333333,,0x7D,0xFF
8.429910041666666,,0x03,0x01
8.431303166666666,,0x31,0x8B
8.432718124999999,,0x4F,0x75
8.434111250000001,,0x7F,0xC1
8.435526250000001,,0x01,0x01
8.436919333333334,,0xBF,0xAB
8.438334333333334,,0x41,0x55
8.439727458333333,,0xFF,0x9F
8.441142416666667,,0x01,0x61
8.442535541666667,,0xBF,0x65
8.443950500000000,,0x41,0x01
8.445343625000000,,0xC0,0xA9
8.446758583333333,,0xFF,0xC0
8.448151708333333,,0xD2,0xB6
8.449566666666666,,0xFD,0x81
8.450959791666667,,0x89,0xE3
8.452374791666667,,0xF0,0x80
8.453767875000000,,0xC0,0x98
8.455182875000000,,0xF0,0x86
8.456575958333334,,0x80,0x84
8.457990958333333,,0x80,0x80
8.459384041666667,,0x80,0xD4
8.460799041666666,,0x80,0x88
8.462192166666666,,0x80,0xB0
8.463607166666666,,0x80,0xC8
8.465000249999999,,0xD0,0xE1
8.466415250000001,,0xA0,0xD0
8.467808333333334,,0x7C,0x82
8.469223333333334,,0x80,0x00
8.470616416666667,,0xF8,0x72
8.472031416666667,,0x00,0x00
8.473424500000000,,0x10,0x02
8.474839500000000,,0x00,0x00
8.476232583333333,,0x00,0x72
8.477647624999999,,0x00,0x01
8.479040666666666,,0x00,0x03
8.480455708333333,,0x00,0x00
8.481970875000000,,0x01,0x06
8.483385875000000,,0x00,0x41
8.484778958333333,,0x07,0x04
8.486193958333333,,0x00,0x02
8.487587041666666,,0x19,0x87
8.489002083333334,,0x07,0x04
8.490395124999999,,0x0F,0xDF
8.491810166666667,,0x30,0x30
8.493203208333334,,0x08,0x9A
8.494618250000000,,0x37,0x35
8.496011291666667,,0x3B,0x18
8.497426333333333,,0x04,0xB0
8.498819375000000,,0x18,0x1A
8.500234416666666,,0x07,0xB5
8.501627458333333,,0x32,0x3F
8.503042541666666,,0x0D,0x90
8.504435583333333,,0xA0,0x5D
8.505850625000001,,0x5F,0xB0
8.507243666666668,,0x0D,0x5F
8.508658708333334,,0xF2,0xB0
8.510051750000001,,0x00,0x1D
8.511466791666667,,0xFF,0xF0
8.512859833333334,,0x9B,0xF3
8.514274916666666,,0x65,0x0D
8.515667916666667,,0x29,0xAF
8.517083000000000,,0xD7,0x51
8.518476000000000,,0x87,0x0B
8.519891083333333,,0x79,0x01
8.521284083333333,,0x43,0x23
8.522699166666667,,0xFD,0xDD
8.524092166666666,,0x05,0xF3
8.525507250000000,,0xFB,0x01
8.526900291666667,,0x0F,0xEB
8.528315375000000,,0xF1,0x15
8.529708375000000,,0x89,0x43
8.531123458333333,,0x73,0xBD
8.532638541666667,,0x05,0x57
8.534053625000000,,0xFF,0x01
8.535446625000001,,0xBD,0x80
8.536861708333333,,0xC0,0x80
8.538254708333334,,0x92,0x80
8.539669833333333,,0xED,0x81
8.541062791666667,,0x80,0xB3
8.542477916666666,,0xFF,0xC0
8.543870916666666,,0xFF,0xFF
8.545286000000001,,0xFF,0xFF
8.546678999999999,,0x00,0x00
8.548094083333334,,0x00,0x00
8.549487083333334,,0x00,0x00
8.550902166666667,,0x00,0x00
8.552295166666667,,0x00,0x00
8.553710291666667,,0x00,0x00
8.555103250000000,,0x00,0x00
8.556701500000001,,0x00,0x00
8.558094458333333,,0xE4,0x05
8.559509583333334,,0x1B,0x00
8.560902583333334,,0x15,0x41
8.562317708333333,,0xFB,0x00
8.563710666666667,,0x07,0x01
8.565125791666667,,0xFB,0x00
8.566518750000000,,0xFF,0xFF
8.567933875000000,,0xFF,0xFF
8.569326833333333,,0x00,0x00
8.570741958333333,,0x00,0x00
8.572134916666666,,0x00,0x00
8.573550041666667,,0x00,0x00
8.574942999999999,,0x00,0x00
8.576358166666667,,0x00,0x00
8.577751083333334,,0x00,0x00
8.579166250000000,,0x00,0x00
8.580559166666667,,0x08,0x5F
8.581974333333333,,0xF7,0xB0
8.583367291666667,,0x5D,0x9A
8.584782416666666,,0xF7,0x75
8.586175375000000,,0x1C,0x1A
8.587590499999999,,0xF7,0x30
8.588983458333333,,0xFF,0xFF
8.590398625000001,,0xFF,0xFF
8.591791541666666,,0x00,0x00
8.593206708333334,,0x00,0x00
8.594599625000001,,0x00,0x00
8.596014791666667,,0x00,0x00
8.597407708333334,,0x00,0x00
8.598822875000000,,0x00,0x00
8.600215791666667,,0x00,0x00
8.601630999999999,,0x00,0x00
8.603023875000000,,0x01,0xC3
8.604439083333334,,0xFF,0x3D
8.605831958333333,,0xF5,0xAB
8.607430291666667,,0xFF,0x55
8.608823208333334,,0x11,0xF7
8.610238375000000,,0xEF,0x01
8.611631291666667,,0xFF,0xFF
8.613046499999999,,0xFF,0xFF
8.614439375000000,,0x00,0x00
8.615854583333334,,0x00,0x00
8.617247458333333,,0x00,0x00
8.618662666666667,,0x00,0x00
8.620055541666666,,0x00,0x00
8.621470750000000,,0x00,0x00
8.622863666666667,,0x00,0x00
8.624278875000000,,0x00,0x00
8.625671750000000,,0xFF,0xFF
8.627086958333333,,0xFF,0xFF
8.628479833333333,,0xBD,0x80
8.629895041666666,,0xC0,0x80
8.631287916666667,,0xBF,0x80
8.632703125000001,,0xC0,0x80
8.634096000000000,,0xD7,0x80
8.635511208333334,,0xFC,0x80
8.636904083333333,,0x87,0x80
8.638319333333333,,0xF8,0x80
8.639712166666667,,0xDE,0x80
8.641127416666667,,0xF1,0x80
8.642520250000000,,0x83,0x80
8.643935500000000,,0xF0,0x80
8.645328333333334,,0xC3,0x80
8.646743583333333,,0xF0,0x80
8.648136458333333,,0xFF,0xFF
8.649551666666667,,0xFF,0xFF
8.650944541666666,,0x00,0x00
8.652359791666667,,0x00,0x00
8.653752624999999,,0xC3,0x00
8.655167875000000,,0x00,0x00
8.656560708333334,,0x77,0x00
8.657975958333333,,0x00,0x00
8.659368791666667,,0x00,0x00
8.660784041666666,,0x03,0x00
8.662176875000000,,0xB6,0x00
8.663592124999999,,0x01,0x00
8.664984958333333,,0x04,0x00
8.666400250000001,,0x01,0x00
8.667793041666666,,0x13,0x00
8.669208333333334,,0x00,0x00
8.670601166666666,,0xFF,0xFF
8.672016416666667,,0xFF,0xFF
8.673409250000001,,0x16,0x00
8.674824500000000,,0x01,0x00
8.676217333333334,,0xC0,0x00
8.677632583333333,,0x03,0x00
8.679025416666667,,0xE7,0x00
8.680440708333334,,0x11,0x00
8.681833500000000,,0xDE,0x00
8.683248791666667,,0x01,0x00
8.684641583333333,,0xC8,0x00
8.686056875000000,,0x17,0x00
8.687449666666666,,0x90,0x00
8.688864958333333,,0x0F,0x00
8.690257750000001,,0xC7,0x00
8.691673083333333,,0x19,0x00
8.693065875000000,,0xFF,0xFF
8.694481166666666,,0xFF,0xFF
8.695873958333333,,0xC5,0x01
8.697289250000001,,0x7F,0x01
8.698682041666666,,0x81,0x01
8.700097333333334,,0x7F,0x01
8.701490124999999,,0x55,0x01
8.702905416666667,,0xFF,0x01
8.704298208333332,,0x01,0x01
8.705713541666666,,0xFF,0x01
8.707106291666667,,0x55,0x01
8.708521624999999,,0xFF,0x01
8.709914375000000,,0x01,0x01
8.711329708333333,,0xFF,0x01
8.712722458333333,,0x55,0x01
8.714137791666667,,0xFF,0x01
8.715530583333333,,0x92,0x80
8.716945875000000,,0xE0,0x80
8.718338666666666,,0xB6,0x94
8.719754000000000,,0xC0,0x80
8.721146750000001,,0xF3,0xFC
8.722562083333333,,0x80,0x80
8.723954833333334,,0xA7,0xEF
8.725370166666666,,0xD0,0x90
8.726762916666667,,0x92,0xED
8.728178249999999,,0xE0,0x90
8.729571000000000,,0x8D,0xE2
8.730986333333334,,0xF0,0x9D
8.732379083333333,,0x8D,0xA3
8.733794458333334,,0xF0,0xDC
8.735187166666666,,0xDE,0x82
8.736602541666667,,0xF0,0xFD
8.737995291666667,,0x47,0x00
8.739410625000000,,0x00,0x00
8.740803375000000,,0x07,0x01
8.742218708333333,,0x00,0x00
8.743611458333334,,0x23,0xCF
8.745026833333334,,0xC0,0x00
8.746419541666667,,0x67,0x73
8.747834916666667,,0x10,0x0C
8.749227625000000,,0x1F,0x93
8.750643000000000,,0x00,0x6C
8.752035708333333,,0x33,0x40
8.753451083333333,,0x1C,0xFF
8.754843791666667,,0x04,0x00
8.756259166666666,,0xF8,0xFF
8.757651875000001,,0x4C,0xAD
8.759067291666666,,0x70,0x5E
8.760460000000000,,0x8A,0x00
8.761875375000001,,0x01,0x00
8.763268083333333,,0xD4,0x57
8.764683458333334,,0x03,0x00
8.766076166666666,,0x21,0xCC
8.767491541666667,,0x06,0x00
8.768884249999999,,0x04,0x75
8.770299666666666,,0x09,0x0A
8.771692333333334,,0x0E,0xFF
8.773107749999999,,0x00,0x00
8.774500416666667,,0x75,0xB3
8.775915833333332,,0x00,0x44
8.777308500000000,,0x21,0xFB
8.778723916666667,,0x00,0x04
8.780116583333333,,0x05,0x68
8.781532000000000,,0x00,0x17
8.782924708333333,,0x01,0x01
8.784340125000000,,0xFF,0x01
8.785732791666666,,0x15,0x75
8.787148208333333,,0xFF,0x01
8.788540875000001,,0x01,0x4D
8.789956291666666,,0xFF,0x01
8.791348958333334,,0x11,0xD5
8.792764375000001,,0xFF,0x01
8.794157041666667,,0x01,0x4F
8.795572458333334,,0x7F,0x01
8.796965125000000,,0x95,0xA7
8.798380583333334,,0x7F,0x51
8.799773208333333,,0xC1,0xDF
8.801188666666667,,0x3F,0x21
8.802581291666666,,0xDD,0xCB
8.803996750000000,,0x7F,0x05
8.805389416666667,,0x8D,0xC4
8.806804833333333,,0xF0,0xBB
8.808197500000000,,0xDE,0xD9
8.809612916666667,,0xF1,0xB7
8.811005583333333,,0x8B,0x9F
8.812421041666667,,0xF0,0xE1
8.813813666666666,,0xD8,0xE8
8.815229125000000,,0xF7,0xE7
8.816621749999999,,0xC7,0xC9
8.818037208333333,,0xF8,0xE4
8.819429833333333,,0xF6,0xD9
8.820845291666666,,0xF9,0xE4
8.822237916666667,,0xE7,0x99
8.823653374999999,,0xF8,0xE0
8.825046000000000,,0xD4,0xC3
8.826461500000001,,0xFF,0xFC
8.827854125000000,,0x44,0x0D
8.829269583333334,,0x38,0xFE
8.830662208333333,,0x86,0x3D
8.832077666666667,,0x79,0xDE
8.833653416666667,,0xC7,0x26
8.835068916666666,,0x38,0xD9
8.836461500000000,,0xD6,0x55
8.837877000000001,,0x39,0x83
8.839269583333333,,0xC3,0x7E
8.840685083333334,,0x3C,0x81
8.842077666666667,,0xCC,0xEB
8.843493166666667,,0x30,0x14
8.844885791666666,,0xE7,0x38
8.846301250000000,,0x18,0x04
8.847693874999999,,0xAD,0x13
8.849109374999999,,0x50,0x1C
8.850501958333334,,0x00,0xAE
8.851917458333334,,0x00,0x11
8.853310041666667,,0x7F,0x71
8.854725541666667,,0x00,0x8F
8.856118125000000,,0xFF,0x1F
8.857533625000000,,0x00,0xE0
8.858926208333333,,0xC0,0xAB
8.860341708333333,,0x7F,0xD4
8.861734291666666,,0x80,0x9E
8.863149833333333,,0x7F,0x60
8.864542374999999,,0x05,0xBF
8.865957916666666,,0x7E,0x40
8.867594666666667,,0xF8,0x67
8.869010166666667,,0x07,0x00
8.870402750000000,,0x84,0x56
8.871818291666667,,0x7F,0x01
8.873210833333333,,0x89,0xFF
8.874626375000000,,0x7F,0x01
8.876018916666666,,0x95,0xE7
8.877434458333333,,0x7F,0x11
8.878826999999999,,0x61,0xBD
8.880242541666666,,0x9F,0x01
8.881635125000001,,0x77,0xC3
8.883050666666668,,0x9F,0x15
8.884504250000001,,0x01,0xE1
8.885919791666666,,0x9F,0x01
8.887312333333334,,0xFF,0x53
8.888727875000001,,0x1F,0x05
8.890120416666667,,0x33,0x47
8.891658041666666,,0x9F,0x81
8.893050583333334,,0x8D,0x43
8.894466166666666,,0x1F,0xFD
8.895858666666667,,0x88,0xE4
8.897274250000001,,0xFF,0xF8
8.898666750000000,,0xD7,0xDC
8.900082333333334,,0xFC,0xF0
8.901474875000000,,0xB1,0xD8
8.902890416666667,,0xFE,0x80
8.904282958333333,,0xFF,0xFF
8.905698541666666,,0xFF,0xFF
8.907091041666666,,0x00,0x00
8.908506624999999,,0x00,0x00
8.909899125000001,,0x00,0x00
8.911314708333334,,0x00,0x00
8.912707208333334,,0x00,0x00
8.914122791666667,,0x00,0x00
8.915515291666667,,0x00,0x00
8.916930875000000,,0x00,0x00
8.918323375000000,,0x56,0x10
8.919739000000000,,0xB8,0x00
8.921131500000000,,0x10,0x31
8.922547083333333,,0x3F,0x00
8.923939583333333,,0x81,0x19
8.925355166666666,,0x3E,0x00
8.926747666666667,,0xFF,0xFF
8.928163250000001,,0xFF,0xFF
8.929555750000000,,0x00,0x00
8.930971333333334,,0x00,0x00
8.932363833333334,,0x00,0x00
8.933779458333333,,0x00,0x00
8.935171916666667,,0x00,0x00
8.936587541666666,,0x00,0x00
8.937980000000000,,0x00,0x00
8.939395625000000,,0x00,0x00
8.940788083333333,,0x79,0xE2
8.942325791666667,,0x06,0x01
8.943718291666666,,0x2C,0x37
8.945133916666666,,0xD7,0x41
8.946526374999999,,0x80,0x4E
8.947941999999999,,0x7F,0x01
8.949334458333333,,0xFF,0xFF
8.950750083333334,,0xFF,0xFF
8.952203583333333,,0x00,0x00
8.953619208333333,,0x00,0x00
8.955011666666667,,0x00,0x00
8.956427333333334,,0x00,0x00
8.957819750000001,,0x00,0x00
8.959235416666667,,0x00,0x00
8.960627833333334,,0x00,0x00
8.962043500000000,,0x00,0x00
8.963435958333333,,0x89,0x41
8.964851583333333,,0x1F,0xFF
8.966244041666666,,0x4D,0xCD
8.967659666666666,,0x9F,0xE1
8.969052124999999,,0x59,0xCF
8.970467791666668,,0x8F,0x81
8.971860208333334,,0xFF,0xFF
8.973275875000001,,0xFF,0xFF
8.974668291666667,,0x00,0x00
8.976083958333334,,0x00,0x00
8.977476375000000,,0x00,0x00
8.978892041666667,,0x00,0x00
8.980284458333333,,0x00,0x00
8.981700166666666,,0x00,0x00
8.983092541666666,,0x00,0x00
8.984508249999999,,0x00,0x00
8.985900666666666,,0xFF,0xFF
8.987316333333334,,0xFF,0xFF
8.988708750000001,,0xDD,0xFF
8.990124416666667,,0xFF,0xFF
8.991516833333334,,0x80,0xC0
8.992932500000000,,0xFF,0xFF
8.994324916666667,,0xF1,0xD4
8.995740583333333,,0xFE,0xFF
8.997133000000000,,0x80,0x80
8.998548708333333,,0x80,0xFF
8.999941083333333,,0x80,0xC0
9.001356791666666,,0x80,0xFF
9.002749166666666,,0x80,0x83
9.004164875000001,,0x80,0xFC
9.005557250000001,,0x80,0x8A
9.006972958333334,,0x80,0xF5
9.008365375000000,,0xFF,0xFF
9.009781083333333,,0xFF,0xFF
9.011173458333333,,0x5F,0x53
9.012589166666666,,0xFF,0xFC
9.013981541666666,,0x3E,0x02
9.015397249999999,,0xC1,0xFC
9.016789624999999,,0x60,0x40
9.018205333333333,,0x00,0xFC
9.019597708333333,,0x20,0x18
9.021013416666667,,0x00,0xE4
9.022405791666667,,0x25,0x2C
9.023821541666667,,0x10,0xD4
9.025213875000000,,0x01,0xE4
9.026629625000000,,0x00,0x00
9.028021958333333,,0x10,0xE4
9.029437708333333,,0x00,0x00
9.030830083333333,,0xFF,0xFF
9.032245791666666,,0xFF,0xFF
9.033638166666666,,0xFF,0xF8
9.035053874999999,,0xFF,0x07
9.036446249999999,,0xD8,0x04
9.037862000000001,,0x27,0x0B
9.039254333333334,,0x52,0x0A
9.040670083333334,,0x7D,0x05
9.042062416666667,,0x43,0xC7
9.043478166666667,,0x2C,0x00
9.044870500000000,,0x42,0x43
9.046286250000000,,0x01,0x04
9.047678583333333,,0x00,0x85
9.049094374999999,,0x80,0x00
9.050486666666666,,0x01,0x05
9.051902458333334,,0xC0,0x00
9.053294791666668,,0xFF,0xFF
9.054710541666667,,0xFF,0xFF
9.056102875000001,,0xFF,0x0B
9.057518625000000,,0xFF,0xF5
9.058910958333334,,0x0F,0x09
9.060326708333333,,0xF1,0xF7
9.061719041666667,,0x05,0xAB
9.063134833333333,,0xC3,0x55
9.064527125000000,,0xCD,0xFF
9.065942916666666,,0x33,0x01
9.067335208333333,,0x31,0xFB
9.068751000000001,,0xDD,0x05
9.070143291666668,,0x33,0xFF
9.071559083333334,,0x0D,0x01
9.072951375000001,,0x47,0x55
9.074367166666667,,0x01,0x01
9.075759500000000,,0x80,0xFF
9.077175291666666,,0x80,0x80
9.078567583333333,,0x94,0xFD
9.079983374999999,,0xC0,0x80
9.081375666666666,,0xC1,0xF0
9.082791458333332,,0x80,0x80
9.084183749999999,,0xDE,0xD5
9.085599541666667,,0x80,0x80
9.086991833333334,,0x92,0x80
9.088407666666667,,0x80,0x80
9.089799916666667,,0xC1,0xD5
9.091215750000000,,0xF1,0x80
9.092608000000000,,0xC8,0x83
9.094023833333333,,0xF0,0x80
9.095416083333333,,0xE7,0x87
9.096831916666666,,0xD8,0xC0
9.098224208333333,,0xB0,0xCA
9.099640000000001,,0x40,0x25
9.101032291666666,,0x7C,0x4F
9.102448125000000,,0x40,0x20
9.103840375000001,,0xDE,0x4C
9.105256208333333,,0x60,0x20
9.106648458333334,,0x22,0x5A
9.108064291666667,,0x1D,0x25
9.109456541666667,,0x55,0x50
9.110872375000000,,0x2E,0x20
9.112264625000000,,0x0F,0x5A
9.113680458333333,,0xD3,0x25
9.115072708333333,,0x09,0x41
9.116488583333334,,0x07,0x2E
9.117880791666666,,0x48,0xD4
9.119296666666667,,0x17,0x20
9.120688916666667,,0xBC,0x00
9.122104750000000,,0x40,0xC0
9.123497000000000,,0x7E,0xC1
9.124912833333333,,0x05,0x00
9.126305083333333,,0x26,0x00
9.127720916666666,,0x19,0x00
9.129113166666667,,0xB6,0x80
9.130529041666666,,0x41,0x40
9.131921250000000,,0xE7,0x00
9.133337125000001,,0x00,0x00
9.134729333333333,,0xB7,0xBC
9.136145208333334,,0x41,0x40
9.137537416666667,,0xA1,0x94
9.138953291666667,,0x43,0x68
9.140345500000000,,0x97,0x45
9.141761416666666,,0x61,0x00
9.143153625000000,,0x01,0x01
9.144569499999999,,0xE1,0x01
9.145961708333333,,0x35,0x41
9.147377583333334,,0xC3,0x01
9.148769791666666,,0x95,0x01
9.150185666666667,,0x23,0x01
9.151822041666666,,0x9D,0x01
9.153237958333333,,0x61,0x01
9.154630125000001,,0x1F,0x01
9.156046041666666,,0xE1,0x01
9.157438208333334,,0x4F,0x01
9.158854125000000,,0xF1,0x01
9.160246333333333,,0x0D,0x01
9.161662208333333,,0xF1,0x01
9.163054416666666,,0x41,0xD5
9.164470333333334,,0xFD,0x01
9.165862499999999,,0x80,0xE4
9.167278416666667,,0xF8,0x80
9.168670583333334,,0xD7,0xF1
9.170086500000000,,0xF8,0x84
9.171478666666667,,0x80,0xC9
9.172894583333333,,0xFC,0xA4
9.174286750000000,,0xD3,0x94
9.175702666666666,,0xFC,0xE1
9.177094833333333,,0x84,0xA1
9.178510791666668,,0xFB,0xC0
9.179902916666666,,0xD5,0x92
9.181318875000001,,0xFF,0xC1
9.182711041666666,,0xC8,0xD3
9.184126958333334,,0xFF,0xA0
9.185763291666667,,0xD5,0xB0
9.187179250000000,,0xFF,0xC3
9.188571375000000,,0xF9,0x63
9.189987333333333,,0x00,0xAC
9.191379458333333,,0x90,0x72
9.192795416666666,,0x4F,0xED
9.194187541666667,,0x71,0x21
9.195603500000001,,0x0E,0xE0
9.196995666666666,,0x22,0x70
9.198411583333334,,0x1C,0xEF
9.199803749999999,,0x49,0x2F
9.201219708333333,,0xB6,0xE0
9.202611833333334,,0x04,0x67
9.204027791666666,,0xFF,0xE0
9.205419916666667,,0x03,0xA0
9.206835874999999,,0xFC,0x6F
9.208228000000000,,0x48,0x2E
9.209766041666667,,0xF4,0xE1
9.211158166666667,,0xC5,0x35
9.212574166666666,,0x32,0xC8
9.213966291666667,,0x10,0x2D
9.215382249999999,,0x0F,0xD0
9.216774375000000,,0x08,0x80
9.218190333333334,,0x07,0x00
9.219582458333333,,0x12,0x24
9.220998416666667,,0x05,0xD8
9.222390541666666,,0x18,0xFA
9.223806541666667,,0x07,0x00
9.225198625000001,,0x02,0xDF
9.226614625000000,,0x1D,0x00
9.228006708333334,,0x07,0x07
9.229422708333333,,0x00,0xF8
9.230814791666667,,0x06,0xF6
9.232230791666666,,0x01,0x01
9.233622875000000,,0x1B,0xA7
9.235038875000001,,0xE5,0x01
9.236492041666667,,0x41,0x59
9.237908041666667,,0xFF,0x07
9.239300125000000,,0x01,0x01
9.240716125000001,,0xFF,0x07
9.242108208333333,,0x55,0x13
9.243524208333334,,0xFF,0x05
9.244916291666666,,0x01,0x21
9.246332291666667,,0xFF,0x07
9.247724375000001,,0x51,0x5B
9.249140375000000,,0xFF,0x25
9.250532458333334,,0x01,0x5D
9.251948499999999,,0xFF,0x23
9.253401583333334,,0xA1,0xE9
9.254817624999999,,0x5F,0x15
9.256209708333333,,0xC7,0xB0
9.257625708333334,,0xFF,0xC3
9.259017791666666,,0xF5,0xB4
9.260494874999999,,0xFF,0xC3
9.261886916666667,,0xC0,0xA4
9.263302958333334,,0xFF,0xC3
9.264695000000000,,0xFF,0xFF
9.266111041666667,,0xFF,0xFF
9.267503083333333,,0x00,0x00
9.268919125000000,,0x00,0x00
9.270311166666668,,0x00,0x00
9.271727208333333,,0x00,0x00
9.273119250000001,,0x00,0x00
9.274535333333333,,0x00,0x00
9.275927333333334,,0x00,0x00
9.277343416666668,,0x00,0x00
9.278735458333333,,0x08,0x2F
9.280151500000001,,0xF0,0xE0
9.281543541666666,,0x70,0x70
9.282959583333334,,0xC0,0xEF
9.284351624999999,,0x40,0x26
9.285767666666667,,0x80,0xE0
9.287159708333334,,0xFF,0xFF
9.288575791666666,,0xFF,0xFF
9.289967791666667,,0x00,0x00
9.291383874999999,,0x00,0x00
9.292775875000000,,0x00,0x00
9.294191958333334,,0x00,0x00
9.295583958333333,,0x00,0x00
9.297000041666667,,0x00,0x00
9.298392041666666,,0x00,0x00
9.299808166666667,,0x00,0x00
9.301200166666666,,0x03,0xFE
9.302616250000000,,0x00,0x01
9.304008250000001,,0x05,0x06
9.305424333333333,,0x00,0xF9
9.306816333333334,,0x00,0x0F
9.308232416666666,,0x00,0x00
9.309624416666667,,0xFF,0xFF
9.311040500000001,,0xFF,0xFF
9.312432500000000,,0x00,0x00
9.313848625000000,,0x00,0x00
9.315240583333333,,0x00,0x00
9.316656708333333,,0x00,0x00
9.318048666666666,,0x00,0x00
9.319464791666666,,0x00,0x00
9.320856750000001,,0x00,0x00
9.322272874999999,,0x00,0x00
9.323664875000000,,0xFD,0x23
9.325080958333333,,0x03,0xD1
9.326472958333333,,0xDF,0x3F
9.327889083333334,,0x01,0xB1
9.329281041666666,,0x01,0x7F
9.330697166666667,,0x01,0x01
9.332089125000000,,0xFF,0xFF
9.333505250000000,,0xFF,0xFF
9.334897208333333,,0x00,0x00
9.336313333333333,,0x00,0x00
9.337705291666667,,0x00,0x00
9.339121416666666,,0x00,0x00
9.340513375000000,,0x00,0x00
9.341929541666667,,0x00,0x00
9.343321458333333,,0x00,0x00
9.344737625000000,,0x00,0x00
9.346129583333333,,0xFF,0xFF
9.347545708333334,,0xFF,0xFF
9.348937666666666,,0xD5,0xC0
9.350353791666667,,0xFE,0xFF
9.351745749999999,,0xBE,0x87
9.353161916666666,,0xC0,0xF8
9.354553833333334,,0x81,0xAB
9.355969999999999,,0xC0,0xD4
9.357361916666667,,0x80,0xFF
9.358778083333334,,0xC0,0x80
9.360170000000000,,0xC0,0xFD
9.361586166666667,,0xC0,0x80
9.362978083333333,,0xA0,0xE0
9.364394250000000,,0xC0,0x80
9.365786166666666,,0xC0,0xD5
9.367202375000000,,0xF0,0x80
9.368594291666666,,0xFF,0xFF
9.370010458333333,,0xFF,0xFF
9.371402375000001,,0x00,0x2A
9.372818541666666,,0x00,0xD5
9.374210458333334,,0x00,0xFF
9.375626625000001,,0x00,0x00
9.377018541666667,,0x01,0xFD
9.378434708333334,,0x00,0x00
9.379826625000000,,0x00,0x80
9.381242833333333,,0x00,0x00
9.382634708333333,,0x10,0x55
9.384050916666666,,0x00,0x00
9.385442791666666,,0x00,0x00
9.386858999999999,,0x00,0x00
9.388250875000001,,0x01,0x40
9.389667083333334,,0x00,0x00
9.391059000000000,,0xFF,0xFF
9.392475166666667,,0xFF,0xFF
9.393867083333333,,0x00,0xF6
9.395283291666667,,0x00,0x01
9.396675166666666,,0x00,0xE0
9.398091375000000,,0x00,0x03
9.399483249999999,,0xC0,0x51
9.400899458333333,,0x00,0x07
9.402291333333332,,0x18,0x03
9.403707541666666,,0x00,0x07
9.405099416666667,,0x17,0x07
9.406515666666667,,0x00,0x07
9.407907500000000,,0x00,0x07
9.409323750000000,,0x00,0x07
9.410715583333333,,0x01,0x07
9.412131833333333,,0x00,0x07
9.413523708333333,,0xFF,0xFF
9.414939916666667,,0xFF,0xFF
9.416331791666666,,0x01,0x01
9.417748000000000,,0x01,0x01
9.419139875000001,,0x01,0x5F
9.420556124999999,,0x01,0x21
9.421947958333334,,0x41,0x7F
9.423364208333334,,0x01,0x01
9.424756041666667,,0x41,0x01
9.426172291666667,,0x01,0x01
9.427564125000000,,0xC1,0x6F
9.428980375000000,,0x01,0x11
9.430372208333333,,0xF1,0x81
9.431788458333333,,0x01,0x01
9.433180291666666,,0xDB,0x3D
9.434596583333333,,0x05,0x81
9.435988416666667,,0x8C,0x80
9.437404666666668,,0xF0,0x80
9.438796500000000,,0xF3,0xD9
9.440212750000001,,0xFC,0x80
9.441604583333334,,0xC2,0xBB
9.443020833333334,,0xFC,0x80
9.444412666666667,,0xD7,0xB3
9.445828916666667,,0xFC,0x9C
9.447220750000000,,0xA8,0xAC
9.448637041666666,,0xFF,0x90
9.450028833333333,,0xDC,0xAC
9.451445124999999,,0xFF,0x90
9.452836916666667,,0xC8,0xC7
9.454253208333334,,0xFF,0x80
9.455645000000001,,0xD5,0xE5
9.457061291666667,,0xFF,0x80
9.458453125000000,,0x00,0x00
9.459869375000000,,0x00,0x00
9.461261208333333,,0x50,0x05
9.462677500000000,,0x00,0x00
9.464069291666666,,0x00,0x81
9.465485583333333,,0x00,0x00
9.466877374999999,,0x14,0x44
9.468293666666666,,0x00,0x01
9.469685458333334,,0x00,0x65
9.471101750000001,,0x00,0x00
9.472493541666667,,0x81,0xC4
9.473909875000000,,0x00,0x21
9.475301625000000,,0xC0,0x61
9.476717958333333,,0x00,0x00
9.478109708333333,,0x21,0x50
9.479526041666666,,0xC0,0x01
9.480917791666666,,0x41,0x06
9.482334125000000,,0x00,0x07
9.483725916666666,,0x3D,0x07
9.485142208333333,,0x00,0x07
9.486717125000000,,0x0C,0x0B
9.488133458333333,,0x00,0x07
9.489525208333333,,0x02,0xD7
9.490941541666666,,0x01,0x07
9.492333291666666,,0x01,0x8B
9.493749625000000,,0x00,0x07
9.495141374999999,,0x41,0x5F
9.496557749999999,,0x00,0x87
9.497949500000001,,0x03,0x0B
9.499365833333334,,0x00,0x87
9.500757583333334,,0x07,0x5F
9.502173916666667,,0x01,0x87
9.503565666666667,,0x01,0x81
9.504982000000000,,0x1F,0xBF
9.506373750000000,,0x1B,0xB5
9.507790083333333,,0x37,0x81
9.509181833333333,,0x03,0xBF
9.510598208333333,,0x37,0x81
9.511989916666666,,0x4D,0x89
9.513406291666668,,0x37,0xB7
9.514798000000001,,0xD3,0xAB
9.516214375000001,,0x2F,0x85
9.517606083333334,,0x97,0xBB
9.519022458333334,,0x7F,0x85
9.520414208333333,,0xCF,0xB1
9.521830583333333,,0x3F,0x8F
9.523222291666666,,0x1F,0x15
9.524638666666666,,0xFF,0x81
9.526030374999999,,0x90,0xBD
9.527446749999999,,0xFF,0x80
9.528838458333333,,0xDD,0xD4
9.530254833333334,,0xFF,0x80
9.531646541666667,,0x8C,0xEC
9.533062916666667,,0xFF,0x90
9.534454625000000,,0xDD,0xD1
9.535871000000000,,0xFF,0xE0
9.537384791666666,,0xDF,0xC0
9.538801208333334,,0xFF,0x80
9.540192916666667,,0xDD,0x80
9.541609291666667,,0xFF,0x80
9.543001000000000,,0xDD,0xDF
9.544417375000000,,0xFF,0xA0
9.545809083333333,,0xD5,0xC1
9.547225500000000,,0xFF,0xFD
9.548617166666666,,0x30,0x12
9.550033583333333,,0xC0,0x00
9.551425249999999,,0x70,0x43
9.552841666666666,,0xC0,0x00
9.554233333333332,,0x18,0x02
9.555649750000001,,0xE0,0x00
9.557041416666667,,0x40,0x4A
9.558457833333334,,0xFC,0x01
9.559849500000000,,0x82,0x03
9.561449083333333,,0xFC,0x00
9.562840749999999,,0xD4,0x02
9.564257166666666,,0xFF,0x01
9.565648833333332,,0x00,0x81
9.567065250000001,,0xFF,0x02
9.568456916666667,,0x55,0x05
9.569873375000000,,0xFF,0x02
9.571326041666667,,0x48,0x9B
9.572742500000000,,0x07,0x07
9.574134125000000,,0x55,0xCB
9.575550583333333,,0x0F,0x07
9.576942208333334,,0x18,0x03
9.578358666666666,,0x0F,0x8F
9.579750333333333,,0x05,0x47
9.581166750000000,,0x1F,0x87
9.582558416666666,,0x18,0x1B
9.583974874999999,,0x07,0xC7
9.585366499999999,,0x5D,0x0F
9.586782958333334,,0x07,0xC7
9.588174583333334,,0x88,0xF7
9.589591041666667,,0x07,0x4F
9.590982666666667,,0x5F,0xE7
9.592399125000000,,0x81,0x4F
9.593790750000000,,0x8B,0x3D
9.595390374999999,,0xFF,0x83
9.596781999999999,,0x77,0x01
9.598198458333334,,0xFF,0xBF
9.599590083333334,,0xBF,0x03
9.601006541666667,,0xFF,0x81
9.602398166666667,,0xDF,0x41
9.603814625000000,,0xFF,0xBF
9.605206250000000,,0x77,0x3F
9.606622750000000,,0xFF,0x81
9.608014333333333,,0x7F,0x1F
9.609430833333333,,0xFF,0x81
9.610822416666666,,0x7F,0x01
9.612238916666668,,0xFF,0xBF
9.613630499999999,,0x7F,0xBF
9.615047000000001,,0xFF,0x01
9.616438583333334,,0xC0,0xD8
9.617855083333334,,0xFF,0x80
9.619246708333334,,0xCE,0xDC
9.620663208333333,,0xF1,0x80
9.622054791666667,,0xA0,0xFD
9.623471291666666,,0xC0,0x80
9.624862875000000,,0xFF,0xFF
9.626279374999999,,0xFF,0xFF
9.627670958333333,,0x00,0x00
9.629087458333334,,0x00,0x00
9.630479041666666,,0x00,0x00
9.631895583333334,,0x00,0x00
9.633287125000001,,0x00,0x00
9.634703666666667,,0x00,0x00
9.636095208333334,,0x00,0x00
9.637511750000000,,0x00,0x00
9.638903291666667,,0x00,0x01
9.640319833333333,,0xFF,0x00
9.641711416666666,,0xA0,0x01
9.643127916666666,,0x5F,0x00
9.644519499999999,,0x7C,0x00
9.645936041666667,,0x03,0x00
9.647327583333333,,0xFF,0xFF
9.648744125000000,,0xFF,0xFF
9.650135666666667,,0x00,0x00
9.651552208333333,,0x00,0x00
9.652943750000000,,0x00,0x00
9.654360291666666,,0x00,0x00
9.655751833333333,,0x00,0x00
9.657168374999999,,0x00,0x00
9.658559916666666,,0x00,0x00
9.659976500000001,,0x00,0x00
9.661368000000000,,0x30,0xA7
9.662784583333334,,0xC1,0x4F
9.664176124999999,,0x33,0x77
9.665592666666667,,0xC1,0x0F
9.666984208333334,,0x08,0x07
9.668400750000000,,0xF3,0x0F
9.669792291666667,,0xFF,0xFF
9.671208833333333,,0xFF,0xFF
9.672600375000000,,0x00,0x00
9.674016958333333,,0x00,0x00
9.675408458333333,,0x00,0x00
9.676825041666667,,0x00,0x00
9.678216541666666,,0x00,0x00
9.679633125000001,,0x00,0x00
9.681024624999999,,0x00,0x00
9.682441208333334,,0x00,0x00
9.683832708333334,,0xED,0xBD
9.685249333333333,,0xFF,0x03
9.686640833333334,,0xF7,0x8B
9.688057416666666,,0xFF,0x75
9.689448916666667,,0xAB,0xBF
9.690865499999999,,0x7F,0x01
9.692257000000000,,0xFF,0xFF
9.693673583333334,,0xFF,0xFF
9.695065083333333,,0x00,0x00
9.696481666666667,,0x00,0x00
9.697873166666668,,0x00,0x00
9.699289791666667,,0x00,0x00
9.700681250000001,,0x00,0x00
9.702097875000000,,0x00,0x00
9.703489333333334,,0x00,0x00
9.704905958333333,,0x00,0x00
9.706297416666667,,0xFF,0xFF
9.707714041666666,,0xFF,0xFF
9.709105541666666,,0xFF,0x80
9.710522125000001,,0xFF,0x80
9.711913624999999,,0xFF,0x80
9.713330250000000,,0xFF,0x80
9.714721708333334,,0xFD,0x80
9.716138333333333,,0xFF,0x80
9.717529791666667,,0xFE,0x80
9.718946416666666,,0xFF,0x80
9.720337875000000,,0xFE,0x80
9.721754499999999,,0xFF,0x80
9.723145958333333,,0xFA,0xFC
9.724562583333332,,0xFC,0x80
9.725954041666666,,0xF4,0xBF
9.727370708333334,,0xF8,0xC0
9.728762124999999,,0xFF,0xFF
9.730178791666667,,0xFF,0xFF
9.731570250000001,,0x55,0x00
9.732986875000000,,0xFF,0x00
9.734378333333334,,0x01,0x00
9.735794958333333,,0xFF,0x00
9.737186416666667,,0x5A,0x00
9.738603041666666,,0xF5,0x00
9.739994500000000,,0x40,0x00
9.741411166666667,,0x80,0x00
9.742802583333333,,0x00,0x00
9.744219250000000,,0x00,0x00
9.745610666666666,,0x00,0x20
9.747027333333333,,0x00,0x00
9.748418750000001,,0x00,0x7D
9.749835416666667,,0x00,0x00
9.751226833333334,,0xFF,0xFF
9.752643541666666,,0xFF,0xFF
9.754034958333333,,0x7F,0x00
9.755451624999999,,0xFF,0x00
9.756843041666666,,0xFF,0x00
9.758259708333334,,0xFF,0x00
9.759651125000000,,0x9F,0x00
9.761067791666667,,0x7F,0x00
9.762459208333333,,0x0B,0x00
9.763875875000000,,0x07,0x00
9.765267291666667,,0x47,0x02
9.766684000000000,,0x01,0x01
9.768075375000000,,0x01,0x00
9.769492083333333,,0x00,0x0F
9.770883458333333,,0x01,0x45
9.772300166666666,,0x00,0x1F
9.773691541666667,,0xFF,0xFF
9.775108250000001,,0xFF,0xFF
9.776499666666666,,0xFF,0x01
9.777916333333334,,0xFF,0x01
9.779307749999999,,0xFF,0x01
9.780724458333333,,0xFF,0x01
9.782115833333334,,0xFF,0x01
9.783532541666666,,0xFF,0x01
9.784923916666667,,0xFF,0x01
9.786340624999999,,0xFF,0x01
9.787732000000000,,0x7F,0xC1
9.789148708333334,,0xFF,0x01
9.790540083333333,,0x3F,0x01
9.791956791666667,,0xFF,0xE1
9.793348166666666,,0xBF,0x41
9.794764916666667,,0x5F,0xF1
9.796156249999999,,0xF8,0xEE
9.797573000000000,,0xF0,0x90
9.798964375000001,,0xE8,0x83
9.800381083333333,,0xF0,0xFC
9.801772458333334,,0xF0,0xAF
9.803189166666666,,0xE0,0xC0
9.804580541666667,,0xF0,0xFA
9.805997291666667,,0xE0,0x85
9.807388625000000,,0xFC,0xC5
9.808805375000000,,0xE0,0xBA
9.810196708333333,,0xF8,0x8F
9.811613458333333,,0xFC,0xF0
9.813004791666666,,0xE4,0xA0
9.814421541666666,,0xF8,0xC0
9.815812875000001,,0xF7,0xCB
9.817229625000000,,0xFC,0xF4
9.818620958333334,,0x00,0xFE
9.820037749999999,,0x00,0x00
9.821612208333333,,0x00,0xFA
9.823028958333333,,0x00,0x05
9.824420291666666,,0x00,0xCE
9.825837041666666,,0x00,0x01
9.827228375000001,,0x00,0x68
9.828645166666666,,0x00,0x97
9.830036458333334,,0x00,0xFE
9.831453249999999,,0x00,0x01
9.832844541666667,,0x40,0xAD
9.834261333333334,,0x00,0x53
9.835652625000000,,0x00,0x79
9.837069416666667,,0x00,0x06
9.838460749999999,,0xC1,0x3A
9.839877500000000,,0x00,0xC5
9.841268833333332,,0x01,0x11
9.842685625000000,,0x00,0x0F
9.844076916666667,,0x00,0xCF
9.845493708333333,,0x01,0x11
9.846885000000000,,0x00,0xB6
9.848301791666668,,0x00,0x09
9.849693083333333,,0x41,0xAA
9.851109875000001,,0x00,0x55
9.852501166666666,,0x00,0xB0
9.853917958333334,,0x00,0x4F
9.855309249999999,,0x85,0xE4
9.856726083333333,,0x40,0x5F
9.858117333333333,,0xC1,0xB6
9.859534166666666,,0x00,0x4F
9.860925458333334,,0x40,0x84
9.862342249999999,,0x01,0x7F
9.863733541666667,,0x9F,0x3D
9.865150333333334,,0x0F,0xC1
9.866541625000000,,0x97,0xFD
9.867958458333334,,0x4F,0xC1
9.869349708333333,,0xEB,0x69
9.870766541666667,,0x07,0xC1
9.872279875000000,,0x4F,0x37
9.873696708333334,,0x03,0x41
9.875087958333333,,0x01,0x11
9.876504791666667,,0x03,0xE7
9.877896041666666,,0x67,0x39
9.879312916666667,,0x11,0xC7
9.880704166666666,,0x19,0x95
9.882121000000000,,0x01,0x63
9.883512250000001,,0x0B,0x8D
9.884929083333333,,0x01,0x71
9.886320333333334,,0xFA,0xB0
9.887737166666666,,0xFF,0xC3
9.889128416666667,,0xFF,0xE5
9.890545250000001,,0xFF,0xC3
9.891936500000000,,0xFE,0xCB
9.893353375000000,,0xFF,0x80
9.894744583333333,,0xFF,0x84
9.896344583333333,,0xFF,0xC3
9.897735833333334,,0xFE,0xC0
9.899152666666666,,0xFF,0xA0
9.900543916666667,,0xFF,0xD1
9.901960791666667,,0xFF,0xEE
9.903352000000000,,0xBF,0xAF
9.904768875000000,,0xFF,0xD0
9.906221125000000,,0xFF,0x86
9.907638000000000,,0xFF,0x81
9.909029208333333,,0xC0,0x3B
9.910446083333333,,0x00,0xC4
9.911837291666666,,0x10,0x1D
9.913254166666666,,0xC0,0xE6
9.914645374999999,,0x02,0x0B
9.916062291666666,,0xF0,0xC4
9.917453500000001,,0xF2,0xB3
9.918870374999999,,0xFC,0x5C
9.920261583333334,,0xF7,0x59
9.921678458333334,,0xFC,0x06
9.923130708333334,,0xFD,0x07
9.924547583333334,,0xFF,0x1C
9.925938791666667,,0xFF,0xCC
9.927355708333334,,0xFF,0x38
9.928746875000000,,0xFF,0xFA
9.930285874999999,,0xFF,0x11
9.931677041666667,,0x02,0xC0
9.933093958333334,,0x01,0x30
9.934485166666667,,0x01,0xB5
9.935902041666667,,0x00,0x40
9.937293250000000,,0x01,0x1D
9.938710166666667,,0x00,0xC2
9.940162375000000,,0x17,0x16
9.941579291666667,,0x00,0xC1
9.942970458333333,,0xC9,0x88
9.944387375000000,,0x30,0x00
9.945778541666666,,0xF1,0x55
9.947195458333333,,0xFC,0x00
9.948647666666666,,0xF8,0x00
9.950064625000000,,0xFF,0x00
9.951516833333333,,0xFF,0x00
9.952933750000000,,0xFF,0x00
9.954385958333333,,0x83,0x01
9.955802875000000,,0x01,0x01
9.957255083333333,,0x45,0xDF
9.958672041666667,,0x83,0x01
9.960124208333333,,0xC5,0x19
9.961541166666667,,0x03,0x01
9.962993333333333,,0x13,0x1F
9.964410291666667,,0xCF,0x01
9.965862500000000,,0x33,0x1D
9.967279416666667,,0xCF,0x01
9.968731625000000,,0x1F,0xDB
9.970148583333334,,0xFF,0x25
9.971600750000000,,0x3D,0x1F
9.973017708333334,,0xFF,0x01
9.974469875000000,,0xFF,0x6D
9.975886833333334,,0xFF,0x11
9.977339000000001,,0xFF,0x89
9.978756000000001,,0xFF,0x86
9.980208166666667,,0xFF,0xF5
9.981625125000001,,0xFF,0x9F
9.983077291666667,,0xFF,0x80
9.984494249999999,,0xFF,0xFF
9.985946416666666,,0xFF,0xFF
9.987363416666666,,0xFF,0xFF
9.988815541666666,,0x00,0x00
9.990232541666666,,0x00,0x00
9.991684666666666,,0x00,0x00
9.993101666666666,,0x00,0x00
9.994553833333333,,0x00,0x00
9.995970791666666,,0x00,0x00
9.997422958333333,,0x00,0x00
9.998839958333333,,0x00,0x00
10.000292083333333,,0xFF,0x8A
10.001709083333333,,0xFF,0x67
10.003161208333333,,0xFF,0x1F
10.004578208333333,,0xFF,0xFF
10.006030375000000,,0xFF,0x3E
10.007447375000000,,0xFF,0xFF
10.008899500000000,,0xFF,0xFF
10.010316500000000,,0xFF,0xFF
10.011768625000000,,0x00,0x00
10.013185625000000,,0x00,0x00
10.014637750000000,,0x00,0x00
10.016054791666667,,0x00,0x00
10.017506875000000,,0x00,0x00
10.018923916666667,,0x00,0x00
10.020376041666667,,0x00,0x00
10.021793041666667,,0x00,0x00
10.023245166666667,,0xFF,0x00
10.024662166666667,,0xFF,0x00
10.026114291666667,,0xFF,0xE1
10.027531333333334,,0xFF,0x00
10.028983416666666,,0xFF,0x22
10.030400458333334,,0xFF,0xC1
10.031852541666666,,0xFF,0xFF
10.033269583333333,,0xFF,0xFF
10.034721708333333,,0x00,0x00
10.036138749999999,,0x00,0x00
10.037590833333333,,0x00,0x00
10.039007874999999,,0x00,0x00
10.040459958333333,,0x00,0x00
10.041876999999999,,0x00,0x00
10.043329083333333,,0x00,0x00
10.044746166666666,,0x00,0x00
10.046198250000000,,0xFF,0x1D
10.047615291666666,,0xFF,0x63
10.049067375000000,,0xFF,0x29
10.050484416666666,,0xFF,0xD7
10.051936500000000,,0xFF,0x11
10.053353583333333,,0xFF,0xEF
10.054805625000000,,0xFF,0xFF
10.056222708333333,,0xFF,0xFF
10.057674750000000,,0x00,0x00
10.059091833333333,,0x00,0x00
10.060543916666667,,0x00,0x00
10.061960958333334,,0x00,0x00
10.063413041666667,,0x00,0x00
10.064830125000000,,0x00,0x00
10.066282166666667,,0x00,0x00
10.067699250000000,,0x00,0x00
10.069151291666667,,0xFF,0xFF
10.070568375000001,,0xFF,0xFF
10.072020416666666,,0xFF,0x80
10.073437541666667,,0xFF,0x80
10.074889583333333,,0xBB,0x80
10.076306666666667,,0xFF,0x80
10.077758708333333,,0xFD,0x80
10.079175791666668,,0xFF,0x80
10.080627833333333,,0xF7,0x80
10.082044958333332,,0xFF,0x80
10.083496958333333,,0xFF,0x80
10.084914083333333,,0xFF,0x80
10.086366125000000,,0xFD,0xC0
10.087783208333333,,0xFF,0x80
10.089235250000000,,0xD7,0x9E
10.090652333333333,,0xFF,0xC1
10.092104375000000,,0xFF,0xFF
10.093521500000000,,0xFF,0xFF
10.094973500000000,,0xFF,0x00
10.096390625000000,,0xFF,0x00
10.097842625000000,,0xA9,0x00
10.099259750000000,,0xFF,0x00
10.100711791666667,,0xFF,0x00
10.102128916666667,,0xFF,0x00
10.103580916666667,,0x98,0x00
10.104998041666667,,0xFF,0x00
10.106450041666667,,0x77,0x40
10.107867166666667,,0xFD,0x00
10.109319166666667,,0x20,0x78
10.110736333333334,,0xFD,0x00
10.112188291666667,,0xD5,0xBB
10.113605458333334,,0xF9,0x44
10.115057458333334,,0xFF,0xFF
10.116474583333334,,0xFF,0xFF
10.117926583333333,,0x77,0x00
10.119343708333334,,0xFF,0x00
10.120795708333333,,0x30,0x00
10.122212875000001,,0xFF,0x00
10.123664833333333,,0x55,0x00
10.125082000000001,,0xFF,0x00
10.126533999999999,,0xAA,0x00
10.127951124999999,,0xF7,0x00
10.129403125000000,,0x75,0x04
10.130820291666666,,0xFF,0x00
10.132272250000000,,0x09,0x00
10.133689416666666,,0xFF,0x00
10.135141375000000,,0x55,0xD5
10.136558541666666,,0xFF,0x00
10.138010500000000,,0xFF,0xFF
10.139427708333333,,0xFF,0xFF
10.140818625000000,,0xFF,0x01
10.142235791666666,,0xFF,0x01
10.143687750000000,,0xB3,0x01
10.145104916666666,,0xFF,0x01
10.146556875000000,,0xFD,0x01
10.147974041666666,,0xFF,0x01
10.149426000000000,,0x45,0x01
10.150843208333333,,0xFF,0x01
10.152295125000000,,0xDF,0x01
10.153712333333333,,0xFF,0x01
10.155164291666667,,0xFB,0x01
10.156581458333333,,0xFF,0x01
10.158033416666667,,0xDF,0x55
10.159450625000000,,0xFF,0x01
10.160902541666667,,0xBD,0xDF
10.162319750000000,,0xFF,0x80
10.163771666666667,,0xFF,0xFF
10.165188875000000,,0xFF,0x80
10.166640791666667,,0xB2,0xFD
10.168058041666667,,0xFF,0x80
10.169509958333334,,0xD5,0xDF
10.170927166666667,,0xFF,0x80
10.172379083333333,,0xA8,0x82
10.173796291666667,,0xFF,0x80
10.175248208333333,,0xD5,0xC5
10.176665416666667,,0xFE,0x80
10.178117333333333,,0xC0,0x85
10.179534583333334,,0xFE,0x80
10.180986458333333,,0xD6,0xFF
10.182403708333334,,0xFC,0x80
10.183855625000000,,0x71,0xFF
10.185272833333334,,0xF8,0x00
10.186724750000000,,0x59,0xF6
10.188141999999999,,0xF4,0x41
10.189593875000000,,0x13,0xFF
10.191011124999999,,0xE0,0x00
10.192463000000000,,0x10,0xA2
10.193880249999999,,0x80,0x5D
10.195332166666667,,0x03,0x3E
10.196749416666666,,0x00,0x01
10.198201291666667,,0x00,0x63
10.199618541666666,,0x01,0x1C
10.201070416666667,,0x00,0x0E
10.202487666666666,,0x00,0xF1
10.203939541666667,,0x45,0x75
10.205356791666667,,0x00,0x0F
10.206808666666667,,0x9B,0xCC
10.208225958333333,,0x7F,0x00
10.209677833333334,,0x95,0xFF
10.211095083333333,,0x7F,0x00
10.212546958333334,,0x8C,0xDC
10.213964208333334,,0x7F,0x20
10.215416083333333,,0xF7,0x97
10.216833375000000,,0x7F,0x60
10.218285208333333,,0x04,0x19
10.219702500000000,,0xFF,0xE6
10.221154333333333,,0x57,0x0B
10.222571625000000,,0xFF,0xF4
10.224023499999999,,0x89,0xC0
10.225440791666667,,0x77,0x30
10.226892625000000,,0x9D,0x8E
10.228309916666667,,0x67,0x71
10.229761750000000,,0x6D,0x13
10.231301125000000,,0xFF,0x01
10.232752958333334,,0xFD,0x5F
10.234170291666667,,0xFF,0x01
10.235622125000001,,0xA7,0xE1
10.237039416666667,,0xFF,0x01
10.238491249999999,,0xD5,0xF7
10.239908541666667,,0xFF,0x01
10.241360374999999,,0x01,0xDB
10.242777708333334,,0xFF,0x01
10.244229499999999,,0x77,0x5D
10.245646833333334,,0xFF,0x01
10.247098666666666,,0x01,0x07
10.248515958333334,,0xFF,0x01
10.249967791666666,,0x5D,0x97
10.251385083333334,,0xFF,0x01
10.252836916666666,,0x82,0xA0
10.254254250000001,,0xFC,0x80
10.255706041666667,,0xD7,0xC1
10.257123375000001,,0xFC,0x80
10.258575166666667,,0x81,0xC0
10.259992499999999,,0xFC,0x80
10.261444333333333,,0xC2,0xC1
10.262861666666666,,0xFD,0x80
10.264313458333334,,0x83,0xDF
10.265730791666666,,0xFC,0x80
10.267182583333334,,0x88,0xE8
10.268599916666666,,0xF7,0x97
10.270051708333334,,0xF0,0xBC
10.271469083333333,,0x80,0x83
10.272920833333334,,0xD2,0x82
10.274338208333333,,0x84,0x85
10.275790000000001,,0x34,0xF8
10.277207333333333,,0x42,0x07
10.278659125000001,,0x74,0x74
10.280076500000000,,0xC9,0x0F
10.281528249999999,,0x09,0x70
10.282945625000000,,0xF0,0x0F
10.284397374999999,,0x13,0xEF
10.285814750000000,,0xF0,0x11
10.287266541666666,,0x53,0x88
10.288683875000000,,0xA0,0x77
10.290135666666666,,0x80,0x89
10.291553041666667,,0x73,0x77
10.293004791666666,,0x51,0x08
10.294422166666667,,0x20,0xF7
10.295873916666666,,0x51,0x90
10.297291291666667,,0x20,0x7F
10.298743041666667,,0x96,0x08
10.300160458333334,,0x61,0xF0
10.301612208333333,,0x80,0x10
10.303029583333334,,0x71,0xE0
10.304481333333333,,0x92,0x06
10.305898708333334,,0x61,0xF8
10.307350458333334,,0xCC,0x55
10.308767874999999,,0x73,0xFC
10.310219583333334,,0x94,0x64
10.311636999999999,,0x63,0xFA
10.313088708333334,,0xD4,0x11
10.314506124999999,,0x61,0xFE
10.315957875000000,,0x5C,0xE4
10.317375250000000,,0x20,0x19
10.318827000000001,,0x52,0xB0
10.320244416666666,,0xFD,0x40
10.321696125000001,,0x83,0xFF
10.323113541666666,,0xFF,0x01
10.324565249999999,,0xD5,0xBF
10.325982666666667,,0xFF,0x41
10.327434374999999,,0x01,0x71
10.328851833333333,,0xFF,0x01
10.330303541666666,,0xD5,0x35
10.331720958333333,,0x7F,0x41
10.333172666666666,,0x81,0x05
10.334590083333334,,0x3F,0x03
10.336041791666666,,0x37,0x47
10.337459250000000,,0xDF,0x01
10.338910916666666,,0xAB,0x81
10.340328375000000,,0xDF,0x01
10.341718999999999,,0x1F,0x17
10.343136458333333,,0xFF,0x01
10.344588166666666,,0xA2,0x87
10.346005583333334,,0x80,0x80
10.347457291666666,,0xFF,0xD2
10.348935791666667,,0x80,0x85
10.350387458333334,,0xFE,0x87
10.351804916666667,,0x81,0x80
10.353256583333334,,0xFF,0xFF
10.354674041666666,,0xFF,0xFF
10.356125750000000,,0x00,0x00
10.357543208333333,,0x00,0x00
10.358994875000000,,0x00,0x00
10.360412333333333,,0x00,0x00
10.361864000000001,,0x00,0x00
10.363281458333333,,0x00,0x00
10.364733125000001,,0x00,0x00
10.366150625000000,,0x00,0x00
10.367602249999999,,0x40,0x82
10.369019750000000,,0x20,0x7D
10.370471416666666,,0x80,0x80
10.371888875000000,,0x71,0x5F
10.373340541666666,,0x10,0xB0
10.374758000000000,,0xE1,0x4F
10.376209666666666,,0xFF,0xFF
10.377627166666667,,0xFF,0xFF
10.379078791666666,,0x00,0x00
10.380496291666667,,0x00,0x00
10.381947958333333,,0x00,0x00
10.383365416666667,,0x00,0x00
10.384817083333333,,0x00,0x00
10.386234583333334,,0x00,0x00
10.387686208333333,,0x00,0x00
10.389103708333334,,0x00,0x00
10.390555333333333,,0x00,0x90
10.391972833333334,,0xFF,0x60
10.393424458333334,,0x55,0x89
10.394842000000001,,0xFF,0x70
10.396293625000000,,0x00,0x9D
10.397711125000001,,0xFF,0x62
10.399162750000000,,0xFF,0xFF
10.400580250000001,,0xFF,0xFF
10.402031875000000,,0x00,0x00
10.403449374999999,,0x00,0x00
10.404901000000001,,0x00,0x00
10.406318541666666,,0x00,0x00
10.407770125000001,,0x00,0x00
10.409187666666666,,0x00,0x00
10.410639291666667,,0x00,0x00
10.412056791666666,,0x00,0x00
10.413508416666666,,0x41,0x3F
10.414925958333333,,0xFF,0x01
10.416377541666666,,0xF5,0x8B
10.417795083333333,,0xFF,0x75
10.419246666666666,,0x09,0xF5
10.420664208333333,,0xFF,0x0B
10.422115833333333,,0xFF,0xFF
10.423533375000000,,0xFF,0xFF
10.424984958333333,,0x00,0x00
10.426402500000000,,0x00,0x00
10.427854083333333,,0x00,0x00
10.429271625000000,,0x00,0x00
10.430723208333333,,0x00,0x00
10.432201833333334,,0x00,0x00
10.433653375000000,,0x00,0x00
10.435070958333334,,0x00,0x00
10.436522541666667,,0xFF,0xFF
10.437940083333332,,0xFF,0xFF
10.439391666666667,,0xFD,0x88
10.440809208333333,,0xFF,0xF7
10.442260791666667,,0xC6,0xA4
10.443678374999999,,0xB9,0xFB
10.445129916666666,,0xE2,0xB2
10.446547499999999,,0x9D,0xDD
10.447999083333332,,0xE3,0xD4
10.449416625000000,,0x90,0xAB
10.450868208333333,,0xE3,0x84
10.452285791666666,,0x94,0xFF
10.453737333333333,,0xBF,0xB3
10.455154916666666,,0x80,0xCC
10.456606458333333,,0x85,0xA1
10.458024041666667,,0xB2,0xDF
10.459475583333333,,0xFF,0xFF
10.460893208333333,,0xFF,0xFF
10.462344750000000,,0xCD,0x2A
10.463762333333333,,0x12,0xD5
10.465213875000000,,0xDF,0x40
10.466631458333334,,0x00,0xBF
10.468083000000000,,0x04,0x29
10.469500625000000,,0xD1,0xF7
10.470952125000000,,0xB3,0x0E
10.472369750000000,,0x00,0xF1
10.473821250000000,,0x8F,0x02
10.475238875000001,,0x74,0xFD
10.476690416666667,,0x38,0xD2
10.478108000000001,,0x07,0x2D
10.479559541666667,,0x73,0x4A
10.480977166666667,,0x0C,0xF5
10.482428666666667,,0xFF,0xFF
10.483846291666667,,0xFF,0xFF
10.485297791666667,,0xE0,0x77
10.486715416666666,,0x13,0xD8
10.488166958333334,,0xFA,0x0F
10.489584583333333,,0x05,0xF0
10.491036083333332,,0x1E,0x4E
10.492453708333333,,0x01,0xF1
10.493905208333333,,0x63,0x1F
10.495322833333333,,0x04,0xE0
10.496774333333333,,0xBC,0x5B
10.498192000000000,,0x40,0xE4
10.499643458333333,,0xB8,0x3F
10.501061125000000,,0x40,0xC0
10.502512625000000,,0xA3,0xA0
10.503930250000000,,0x5C,0x5F
10.505381750000000,,0xFF,0xFF
10.506799375000000,,0xFF,0xFF
10.508250875000000,,0xAB,0xF9
10.509668541666667,,0x55,0x17
10.511120000000000,,0xAF,0xCF
10.512537666666667,,0x11,0x31
10.513989125000000,,0x57,0xB3
10.515406791666667,,0x09,0x4D
10.516858291666667,,0xAB,0xFB
10.518275958333334,,0x45,0x05
10.519727416666667,,0xCB,0xA5
10.521145083333334,,0x05,0x5F
10.522596541666667,,0x5B,0x01
10.524014208333334,,0x05,0xFF
10.525404625000000,,0x3D,0x01
10.526822333333334,,0x43,0xFF
10.528273750000000,,0x9C,0xBF
10.529691458333334,,0xA2,0xC0
10.531142916666667,,0x8D,0xBD
10.532682666666666,,0xF2,0xC0
10.534134125000000,,0x86,0xF0
10.535551833333333,,0xE8,0x80
10.537003250000000,,0x98,0xB4
10.538420958333333,,0xC4,0xC0
10.539872375000000,,0xBF,0xE0
10.541290083333333,,0x80,0x80
10.542680499999999,,0xEE,0x8B
10.544098166666666,,0x91,0xF4
10.545549625000000,,0xFD,0x81
10.546967333333333,,0x80,0xFE
10.548418750000000,,0xA4,0x82
10.549897500000000,,0xDB,0xFD
10.551348916666667,,0x2E,0xFE
10.552766625000000,,0x51,0x01
10.554218041666667,,0x9B,0x55
10.555635791666667,,0x64,0x00
10.557087208333334,,0x1C,0x60
10.558504916666667,,0x20,0x00
10.559956333333334,,0x9E,0x41
10.561374041666667,,0x60,0x00
10.562825458333334,,0x3E,0x00
10.564243208333334,,0xC0,0x00
10.565694583333332,,0x97,0xD4
10.567112333333334,,0x60,0x00
10.568563749999999,,0xB2,0xFF
10.569981458333332,,0x08,0x00
10.571432874999999,,0xD9,0xBE
10.572850624999999,,0x26,0x41
10.574301999999999,,0xFA,0x07
10.575719749999999,,0x04,0xF8
10.577171125000000,,0xCB,0x5A
10.578588874999999,,0x14,0x05
10.580040250000000,,0x38,0x10
10.581458000000000,,0x06,0x00
10.582909416666666,,0x1C,0x57
10.584327166666666,,0x03,0x00
10.585778541666667,,0x39,0x40
10.587196291666666,,0x06,0x00
10.588647666666667,,0x31,0x00
10.590065416666667,,0x0E,0x00
10.591516791666667,,0xBD,0xFF
10.592934583333333,,0x02,0x00
10.594385916666667,,0x8F,0xA0
10.595803708333333,,0x74,0x5F
10.597255083333334,,0x97,0xFD
10.598672833333334,,0x49,0x03
10.600124208333334,,0xBD,0x11
10.601542000000000,,0x01,0xFF
10.602993333333334,,0x1D,0xF9
10.604411125000000,,0x01,0x07
10.605862458333334,,0x09,0xD9
10.607280250000001,,0x95,0x07
10.608731625000001,,0x95,0x05
10.610149416666667,,0x01,0x03
10.611600749999999,,0x71,0x15
10.613018541666667,,0x09,0x03
10.614469874999999,,0x4D,0xC1
10.615887666666667,,0x23,0x03
10.617338999999999,,0xAB,0x05
10.618756791666666,,0x05,0xFF
10.620208125000000,,0xEE,0xBF
10.621625958333333,,0x90,0xC0
10.623077291666666,,0xE7,0x85
10.624495083333333,,0xD8,0x80
10.625946416666666,,0xB5,0xFE
10.627364208333333,,0xC2,0x80
10.628815541666667,,0x93,0xAB
10.630233375000000,,0xE4,0xD4
10.631684666666667,,0x8B,0x80
10.633163541666667,,0xE4,0x80
10.634614875000000,,0xD9,0xC0
10.636032666666667,,0xE4,0x80
10.637484000000001,,0x9B,0x80
10.638901833333334,,0xE0,0x80
10.640353125000001,,0x80,0x80
10.641770958333334,,0xDF,0x80
10.643222250000001,,0x77,0xFF
10.644640083333334,,0x08,0x00
10.646091374999999,,0x21,0x7F
10.647509250000001,,0x5E,0x00
10.648960541666666,,0x5D,0x00
10.650378375000001,,0x02,0x00
10.651829666666666,,0xB7,0xFF
10.653247500000001,,0x04,0x00
10.654698791666666,,0x5A,0x77
10.656116624999999,,0xA4,0x00
10.657567916666666,,0x74,0x00
10.658985791666666,,0x80,0x00
10.660437041666667,,0x77,0x00
10.661854916666666,,0x80,0x00
10.663306208333333,,0x6E,0x00
10.664724041666666,,0xD1,0x00
10.666175333333333,,0x63,0xFC
10.667593208333333,,0x9C,0x03
10.669044458333333,,0x8B,0xAA
10.670462333333333,,0x74,0x55
10.671913583333334,,0x3C,0x03
10.673331458333333,,0xC0,0x00
10.674782750000000,,0x05,0xFA
10.676200583333333,,0x72,0x05
10.677651875000000,,0x31,0xFF
10.679069750000000,,0x02,0x00
10.680521000000001,,0xE3,0x05
10.681938875000000,,0x04,0x00
10.683390125000001,,0x2A,0x03
10.684808000000000,,0x85,0x00
10.686259250000001,,0x8F,0x15
10.687677166666667,,0x70,0x00
10.689128416666666,,0x3F,0x01
10.690546291666667,,0x01,0xFF
10.691997541666666,,0x33,0x35
10.693415416666667,,0x05,0xDF
10.694866666666666,,0x7B,0xFD
10.696284583333334,,0x01,0x03
10.697735791666666,,0x03,0xA1
10.699153708333334,,0xD1,0x5F
10.700604916666666,,0xF1,0xC1
10.702022833333332,,0x03,0x3F
10.703474083333333,,0x91,0xFB
10.704891999999999,,0x47,0x05
10.706343208333333,,0x51,0xFF
10.707761124999999,,0xAD,0x01
10.709212333333333,,0x47,0xFB
10.710630249999999,,0xB9,0x05
10.712081458333333,,0xB0,0x80
10.713499375000000,,0x8F,0x80
10.714950625000000,,0xA1,0x80
10.716368541666666,,0x97,0x80
10.717819750000000,,0xA4,0x80
10.719237666666666,,0x83,0x80
10.720688875000000,,0xFF,0xFF
10.722106791666667,,0xFF,0xFF
10.723558000000001,,0x00,0x00
10.724975958333333,,0x00,0x00
10.726427125000001,,0x00,0x00
10.727845083333333,,0x00,0x00
10.729296291666667,,0x00,0x00
10.730714208333334,,0x00,0x00
10.732165416666666,,0x00,0x00
10.733644416666667,,0x00,0x00
10.735095583333333,,0x5C,0x00
10.736513541666667,,0x81,0x00
10.737964708333333,,0x26,0x00
10.739382666666666,,0xD9,0x00
10.740833875000000,,0x78,0x00
10.742251833333333,,0x81,0x00
10.743703000000000,,0xFF,0xFF
10.745120958333333,,0xFF,0xFF
10.746572125000000,,0x00,0x00
10.747990083333333,,0x00,0x00
10.749441250000000,,0x00,0x00
10.750859208333333,,0x00,0x00
10.752310375000000,,0x00,0x00
10.753728375000000,,0x00,0x00
10.755179541666667,,0x00,0x00
10.756597500000000,,0x00,0x00
10.758048666666667,,0xFA,0x00
10.759466625000000,,0x04,0x00
10.760917791666667,,0x58,0x00
10.762335791666667,,0xC4,0x00
10.763786916666668,,0xB9,0x00
10.765204916666667,,0x40,0x00
10.766656041666666,,0xFF,0xFF
10.768074041666667,,0xFF,0xFF
10.769525208333333,,0x00,0x00
10.770943208333334,,0x00,0x00
10.772394333333333,,0x00,0x00
10.773812333333334,,0x00,0x00
10.775263458333333,,0x00,0x00
10.776681458333334,,0x00,0x00
10.778132583333333,,0x00,0x00
10.779550625000001,,0x00,0x00
10.781001708333333,,0x0D,0x01
10.782419750000001,,0xF1,0x01
10.783870875000000,,0x4D,0x01
10.785288875000001,,0xF1,0x01
10.786740000000000,,0x3F,0x01
10.788157999999999,,0xC1,0x01
10.789609125000000,,0xFF,0xFF
10.791027166666666,,0xFF,0xFF
10.792478250000000,,0x00,0x00
10.793896291666666,,0x00,0x00
10.795347416666667,,0x00,0x00
10.796765416666666,,0x00,0x00
10.798216541666667,,0x00,0x00
10.799634583333333,,0x00,0x00
10.801085666666667,,0x00,0x00
10.802503708333333,,0x00,0x00
10.803954791666667,,0xFF,0xFF
10.805372833333333,,0xFF,0xFF
10.806823916666668,,0xD5,0xFF
10.808242000000000,,0xFF,0xFF
10.809693083333332,,0x80,0xFF
10.811111125000000,,0xFF,0xFF
10.812562208333333,,0xD4,0xFC
10.813980250000000,,0xFF,0xFF
10.815431333333333,,0x81,0xFA
10.816849375000000,,0xFE,0xFC
10.818300458333333,,0xC1,0xF7
10.819718541666667,,0xFE,0xF8
10.821169583333333,,0x87,0xFA
10.822587666666667,,0xF8,0xF0
10.824038750000000,,0xC3,0xE4
10.825456791666667,,0xFC,0xF0
10.826907875000000,,0xFF,0xFF
10.828325958333334,,0xFF,0xFF
10.829777000000000,,0x40,0xC9
10.831195083333334,,0xFF,0xF7
10.832646125000000,,0x10,0x22
10.834125250000000,,0xEF,0xC1
10.835576333333334,,0xF9,0xC4
10.836994416666666,,0x00,0x00
10.838445458333334,,0xFF,0x03
10.839863541666666,,0x00,0x00
10.841314583333334,,0x51,0x75
10.842732666666667,,0x84,0x03
10.844183708333333,,0xDA,0xC0
10.845601833333333,,0x05,0x3F
10.847052833333333,,0x0B,0x17
10.848470958333333,,0x34,0x7F
10.849921999999999,,0xFF,0xFF
10.851340083333334,,0xFF,0xFF
10.852791125000000,,0x85,0x1F
10.854209250000000,,0x7F,0xFF
10.855660250000000,,0x40,0x61
10.857078375000000,,0xBF,0x9F
10.858529375000000,,0x41,0x77
10.859947500000001,,0xBF,0x19
10.861398541666667,,0xF0,0x46
10.862816625000001,,0x0F,0xB9
10.864267666666667,,0x2D,0x57
10.865685791666667,,0xD7,0xFC
10.867136791666667,,0xA8,0x2D
10.868554916666668,,0x17,0xC0
10.870005916666667,,0x30,0x04
10.871424041666666,,0x4F,0xC0
10.872875041666667,,0xFF,0xFF
10.874293208333333,,0xFF,0xFF
10.875744208333334,,0xDF,0xFF
10.877162333333333,,0xFF,0xFF
10.878613333333334,,0x03,0xFF
10.880031458333333,,0xFF,0xFF
10.881482458333334,,0x15,0xFF
10.882900583333333,,0xFF,0xFF
10.884351583333334,,0x41,0x7F
10.885769750000000,,0xBF,0xFF
10.887220708333333,,0xB3,0xBF
10.888638875000000,,0x5D,0x7F
10.890089874999999,,0x49,0x1F
10.891508000000000,,0xB1,0x3F
10.892958999999999,,0xA9,0x3F
10.894377166666667,,0x51,0x1F
10.895828125000000,,0x87,0xF0
10.897246291666667,,0xF8,0xE0
10.898697250000000,,0x83,0xD9
10.900115416666667,,0xFC,0xE0
10.901566416666666,,0x8F,0xDF
10.902984583333334,,0xF0,0xE0
10.904435541666667,,0xCB,0xE2
10.905853708333334,,0xF4,0xD5
10.907304666666667,,0xBD,0xF8
10.908722833333334,,0xC2,0xC7
10.910173791666667,,0xC5,0xFD
10.911591958333334,,0xFE,0xC7
10.913042916666667,,0xA3,0xE0
10.914461125000001,,0xDC,0xCF
10.915912083333334,,0xD0,0xF8
10.917330249999999,,0xEF,0xC7
10.918781208333334,,0xB6,0x82
10.920199374999999,,0x08,0x7F
10.921650333333334,,0x2B,0xD1
10.923068541666666,,0x14,0x7F
10.924519458333334,,0x31,0xC3
10.925937666666666,,0x0C,0x3C
10.927388583333334,,0x53,0xA7
10.928806791666666,,0x84,0x5C
10.930257750000001,,0xB7,0xE2
10.931675958333333,,0x00,0x1C
10.933126874999999,,0x7F,0x63
10.934606125000000,,0x80,0xDC
10.936057041666666,,0xD0,0x01
10.937475250000000,,0x09,0xFE
10.938926166666667,,0xD9,0x27
10.940344416666667,,0x67,0xDC
10.941795333333333,,0x7D,0x3E
10.943213541666667,,0x02,0xC0
10.944664458333333,,0x62,0x76
10.946082666666667,,0x1D,0x80
10.947533583333334,,0x72,0x00
10.948951833333334,,0x8C,0x00
10.950402708333334,,0x8F,0x40
10.951820958333334,,0x54,0x00
10.953271833333334,,0xF0,0x00
10.954690083333332,,0x1C,0x00
10.956141000000001,,0xE3,0x00
10.957559208333333,,0x5C,0x00
10.959010125000001,,0xC5,0x00
10.960428374999999,,0x38,0x00
10.961879250000001,,0x87,0x40
10.963297499999999,,0x78,0x00
10.964748374999999,,0xE9,0x0F
10.966166625000000,,0x11,0x1F
10.967617499999999,,0xDD,0x0F
10.969035791666666,,0x01,0x1F
10.970486666666666,,0x79,0x07
10.971904916666666,,0x01,0x0F
10.973355791666666,,0x99,0x07
10.974774041666667,,0x07,0x0F
10.976224916666666,,0x49,0x0F
10.977643208333333,,0x07,0x07
10.979094041666666,,0x51,0x0F
10.980512333333333,,0x07,0x07
10.981963208333333,,0xE5,0x0F
10.983381458333334,,0x03,0x07
10.984832333333333,,0x51,0x0F
10.986250583333334,,0x07,0x07
10.987701458333333,,0xD4,0xED
10.989119750000000,,0xAB,0xC2
10.990570583333334,,0xDD,0xC2
10.991988875000001,,0xFF,0xF5
10.993439708333334,,0x91,0xDF
10.994858000000001,,0xEE,0xE0
10.996308875000000,,0xCA,0xEE
10.997727166666667,,0xF5,0xF1
10.999178000000001,,0x9B,0xE5
11.000596291666668,,0xE4,0xF8
11.002047125000001,,0xEA,0xF2
11.003465416666666,,0xF5,0xFD
11.004916250000001,,0xCB,0xF0
11.006334583333333,,0xF4,0xFF
11.007785374999999,,0xD3,0xFC
11.009203708333333,,0xFC,0xFF
11.010654541666666,,0x58,0x72
11.012072833333333,,0xA7,0x8C
11.013523666666666,,0x54,0xD2
11.014942000000000,,0xFF,0x0D
11.016392791666666,,0x18,0x9F
11.017811125000000,,0xE7,0x00
11.019261916666666,,0xFF,0xBA
11.020680250000000,,0x00,0x45
11.022131083333333,,0xDA,0xB4
11.023549375000000,,0x01,0x0B
11.025000208333333,,0x57,0xE2
11.026418541666667,,0x00,0x1D
11.027869333333333,,0x6E,0xF7
11.029287666666667,,0x00,0x08
11.030738458333333,,0x1F,0xA9
11.032156791666667,,0x00,0x54
11.033607583333334,,0x03,0x00
11.035087000000001,,0xFC,0x00
11.036537791666667,,0x91,0x00
11.037956124999999,,0x7C,0xC0
11.039406916666668,,0x40,0xB0
11.040825249999999,,0xBE,0x40
11.042276041666666,,0x87,0x80
11.043694416666666,,0x7C,0x70
11.045145166666666,,0xD7,0xF0
11.046563541666666,,0x08,0x00
11.048014333333333,,0x51,0xE0
11.049432666666666,,0x06,0x00
11.050883458333333,,0xCA,0x50
11.052301833333333,,0x01,0x00
11.053752583333333,,0xD0,0x00
11.055170958333333,,0x07,0xC0
11.056621708333333,,0xE1,0x0F
11.058040083333333,,0x07,0x07
11.059490833333333,,0x5B,0x07
11.060909208333333,,0x05,0x0F
11.062360000000000,,0x2B,0x07
11.063778375000000,,0x05,0x0F
11.065229125000000,,0xF5,0x1F
11.066647500000000,,0x0F,0x0F
11.068098250000000,,0x51,0x0F
11.069516625000000,,0x0F,0x1F
11.070967375000000,,0x65,0x3F
11.072385791666667,,0x9F,0x1F
11.073836500000001,,0xF3,0x1F
11.075254916666667,,0x0F,0x3F
11.076705666666667,,0x85,0x7F
11.078124041666667,,0x7F,0x7F
11.079574791666667,,0x81,0xFD
11.080993166666667,,0xFE,0xFE
11.082443916666668,,0xD5,0xFF
11.083862333333334,,0xFE,0xFF
11.085313041666666,,0x81,0xFF
11.086731458333333,,0xFE,0xFF
11.088182208333333,,0xFF,0xFF
11.089600583333333,,0xFF,0xFF
11.091051333333333,,0x00,0x00
11.092469749999999,,0x00,0x00
11.093920458333333,,0x00,0x00
11.095338874999999,,0x00,0x00
11.096789583333333,,0x00,0x00
11.098208000000000,,0x00,0x00
11.099658708333333,,0x00,0x00
11.101077166666666,,0x00,0x00
11.102527875000000,,0x4F,0xBC
11.103946291666666,,0x00,0x40
11.105397000000000,,0x85,0x7C
11.106815416666667,,0x00,0x00
11.108266125000000,,0x80,0xB0
11.109684583333333,,0x00,0xC0
11.111135250000000,,0xFF,0xFF
11.112553708333333,,0xFF,0xFF
11.114004375000000,,0x00,0x00
11.115422833333334,,0x00,0x00
11.116873541666667,,0x00,0x00
11.118291958333334,,0x00,0x00
11.119742666666667,,0x00,0x00
11.121161125000000,,0x00,0x00
11.122611791666667,,0x00,0x00
11.124030250000001,,0x00,0x00
11.125480916666667,,0x08,0x80
11.126899375000001,,0x01,0x00
11.128350083333334,,0x37,0x07
11.129768541666667,,0x00,0x01
11.131219208333333,,0x0F,0x0B
11.132637666666668,,0x00,0x07
11.134088333333333,,0xFF,0xFF
11.135506791666666,,0xFF,0xFF
11.136957458333333,,0x00,0x00
11.138375958333333,,0x00,0x00
11.139826583333333,,0x00,0x00
11.141245083333333,,0x00,0x00
11.142695750000000,,0x00,0x00
11.144114208333333,,0x00,0x00
11.145564875000000,,0x00,0x00
11.146983333333333,,0x00,0x00
11.148434000000000,,0x61,0x7F
11.149852500000000,,0x9F,0xFF
11.151303125000000,,0x05,0xFF
11.152721625000000,,0xFF,0xFF
11.154172250000000,,0x81,0xFF
11.155590750000000,,0x7F,0xFF
11.157041416666667,,0xFF,0xFF
11.158459916666667,,0xFF,0xFF
11.159910541666667,,0x00,0x00
11.161329041666667,,0x00,0x00
11.162779666666667,,0x00,0x00
11.164198166666667,,0x00,0x00
11.165648791666667,,0x00,0x00
11.167067333333334,,0x00,0x00
11.168517916666667,,0x00,0x00
11.169936458333334,,0x00,0x00
15.164488833333333,,0xFF,0x00
15.165851500000000,,0x00,0x9A
15.167296916666666,,0x00,0x00
15.168720666666667,,0x00,0x00
15.170105000000000,,0x00,0x00
15.171650833333333,,0x00,0x00
15.173035166666667,,0x00,0x00
15.174458916666667,,0x00,0x00
15.175843250000000,,0x00,0x00
15.177267041666667,,0x00,0x00
15.178651333333333,,0x00,0x00
15.180075125000000,,0x00,0x00
15.181459416666666,,0x00,0x00
15.182883208333333,,0x00,0x00
15.184267541666667,,0x00,0x00
15.185691291666666,,0x00,0x00
15.187075625000000,,0x00,0x00
15.188499374999999,,0x00,0x00
15.189883708333333,,0x00,0x00
15.191307500000001,,0x00,0x00
15.192691791666666,,0x00,0x00
15.194115583333334,,0x01,0x00
15.195499874999999,,0x00,0x01
15.196923666666667,,0xFF,0xFF
15.198369000000000,,0xFF,0xFF
15.199792791666667,,0xFF,0xD5
15.201238166666666,,0xFF,0xFF
15.202661958333334,,0xFB,0xA0
15.204107291666666,,0xFF,0xFF
15.205531083333334,,0xFC,0xF5
15.206976416666667,,0xFF,0xFF
15.208400208333334,,0x80,0x80
15.209845541666667,,0xFE,0xFF
15.211269333333334,,0xBA,0xD4
15.212714666666667,,0xC4,0xFF
15.214138500000001,,0xB4,0xC0
15.215583833333334,,0xC8,0xFF
15.217007625000001,,0xA5,0xD4
15.218452958333334,,0xD8,0xFF
15.219876749999999,,0xFF,0xFF
15.221322083333334,,0xFF,0xFF
15.222745916666666,,0x8D,0x54
15.224191208333334,,0xC0,0xFF
15.225615041666666,,0x17,0x01
15.227060333333334,,0x88,0xFE
15.228484166666666,,0x2D,0x54
15.229929500000001,,0x10,0xFF
15.231353333333333,,0xDF,0x01
15.232798624999999,,0x20,0xFE
15.234222458333333,,0x09,0x53
15.235667749999999,,0x74,0xFC
15.237091583333333,,0xB0,0x2B
15.238536874999999,,0x48,0xD4
15.239960750000000,,0x29,0x00
15.241406000000000,,0xD0,0xDF
15.242829875000000,,0xFF,0xFF
15.244275166666666,,0xFF,0xFF
15.245699000000000,,0x7C,0x93
15.247144291666666,,0x00,0x6C
15.248568125000000,,0xE0,0x10
15.250013416666667,,0x1C,0xEE
15.251437291666667,,0xEB,0x4D
15.252882541666667,,0x14,0xF6
15.254306416666667,,0xFD,0x01
15.255751708333333,,0x02,0xFE
15.257175541666667,,0x0E,0xD4
15.258620833333334,,0x11,0x7F
15.260044708333334,,0x83,0xE9
15.261489958333334,,0x08,0x16
15.262913833333334,,0xC7,0x88
15.264359083333334,,0x18,0x77
15.265782958333334,,0xFF,0xFF
15.267228208333334,,0xFF,0xFF
15.268652124999999,,0xC5,0xD9
15.270097375000001,,0x7F,0x07
15.271704375000001,,0x01,0x11
15.273149625000000,,0x7F,0x0F
15.274573500000001,,0x15,0x05
15.276018750000000,,0x3F,0x7F
15.277442666666667,,0x21,0x01
15.278887916666667,,0x1F,0xFF
15.280311791666668,,0x15,0x55
15.281757041666667,,0x0F,0xFF
15.283180916666666,,0x09,0x61
15.284626166666667,,0x87,0xDF
15.286050083333333,,0x5D,0x25
15.287495291666668,,0x87,0xDF
15.288919208333333,,0xF0,0x80
15.290364416666666,,0x88,0xFF
15.291788333333333,,0x88,0xC2
15.293233583333333,,0xE4,0xFD
15.294657500000000,,0xC8,0x88
15.296102708333333,,0xA4,0xF0
15.297526625000000,,0xB0,0xC0
15.298971833333333,,0xC4,0xF0
15.300395750000000,,0x99,0xA0
15.301840958333333,,0xC2,0xF0
15.303264875000000,,0x99,0xC0
15.304710083333333,,0xC2,0xF0
15.306134041666667,,0xAA,0xC5
15.307579250000000,,0x81,0xF8
15.309003166666667,,0xE5,0xD4
15.310448375000000,,0x81,0xFF
15.311872291666667,,0x11,0x43
15.313317500000000,,0x48,0x9C
15.314741458333334,,0x33,0x40
15.316186625000000,,0x44,0x9F
15.317610583333334,,0x5F,0x90
15.319055791666667,,0x20,0x0F
15.320479708333334,,0xCF,0x11
15.321924916666667,,0x30,0x0F
15.323348875000001,,0xA1,0x18
15.324794041666667,,0x18,0x07
15.326218000000001,,0x60,0x1A
15.327663166666667,,0x1F,0x04
15.329087124999999,,0x31,0x18
15.330532291666668,,0x00,0x00
15.331956291666666,,0xF3,0xDC
15.333401458333332,,0x04,0x00
15.334825416666666,,0x1E,0x0B
15.336270583333333,,0x01,0xF4
15.337694541666666,,0x3E,0x66
15.339139708333333,,0x11,0x10
15.340563666666666,,0xCD,0xB0
15.342008833333333,,0x32,0x00
15.343432833333333,,0x6B,0x2A
15.344877958333333,,0x14,0xD4
15.346301958333333,,0xD3,0x8E
15.347747125000000,,0x0C,0x30
15.349171083333333,,0x06,0x0A
15.350616250000000,,0xF8,0x34
15.352040250000000,,0x8D,0x0A
15.353485375000000,,0x00,0x34
15.354909375000000,,0x63,0x0B
15.356354500000000,,0x04,0x34
15.357778500000000,,0x89,0xC1
15.359223625000000,,0x07,0x3F
15.360647666666667,,0x55,0x6B
15.362092791666667,,0x0B,0x15
15.363516791666667,,0x69,0x7D
15.364961916666667,,0x11,0x03
15.366385916666667,,0x7D,0x31
15.367831041666667,,0x11,0x4F
15.369255041666667,,0x9F,0x7F
15.370700166666667,,0x21,0x01
15.372124208333334,,0x8B,0xBF
15.373569333333334,,0x65,0x41
15.374993333333334,,0xA7,0xFF
15.376438458333332,,0x49,0x01
15.377862458333333,,0x1B,0xBF
15.379307583333333,,0xC1,0x41
15.380731624999999,,0xC5,0xC0
15.382176708333333,,0x80,0xFF
15.383600749999999,,0xF1,0xD2
15.385045833333333,,0xC4,0xFD
15.386469875000000,,0x9C,0x89
15.387915000000000,,0xC1,0xF0
15.389339041666666,,0xDE,0xC0
15.390784125000000,,0xE1,0xF0
15.392208166666666,,0xD1,0x80
15.393653250000000,,0xE2,0x80
15.395077291666666,,0xE0,0x80
15.396522375000000,,0xF6,0x80
15.397946416666667,,0xC0,0x80
15.399391500000000,,0xF4,0x80
15.400815583333333,,0xD4,0xD0
15.402260666666667,,0xF8,0xA0
15.403684708333333,,0x4C,0x7C
15.405129791666667,,0x80,0x80
15.406553833333334,,0xD5,0xF8
15.407998916666667,,0xFF,0x00
15.409423000000000,,0x06,0x10
15.410868041666667,,0x80,0x00
15.412292125000000,,0xD4,0x00
15.413737166666667,,0x00,0x00
15.415161250000001,,0x18,0x00
15.416606333333334,,0x00,0x00
15.418030416666667,,0x73,0x01
15.419475458333334,,0x1C,0x00
15.420899541666667,,0x5E,0x07
15.422344583333333,,0x20,0x00
15.423768666666666,,0x38,0x19
15.425213708333333,,0x44,0x07
15.426637791666666,,0x63,0x0F
15.428082874999999,,0x00,0x30
15.429506958333333,,0x11,0x08
15.430952000000000,,0xFF,0x37
15.432376083333333,,0x7E,0x3B
15.433821125000000,,0x01,0x04
15.435245208333333,,0x4D,0x18
15.436690250000000,,0x00,0x07
15.438114375000000,,0x0C,0x32
15.439559375000000,,0x00,0x0D
15.440983500000000,,0x65,0xA0
15.442428541666667,,0x18,0x5F
15.443852625000000,,0x2B,0x0D
15.445297666666667,,0x04,0xF2
15.446721791666667,,0x19,0x00
15.448166791666667,,0x06,0xFF
15.449590916666667,,0x55,0x9B
15.451035916666667,,0x81,0x65
15.452460041666667,,0xE5,0x29
15.453905041666667,,0x11,0xD7
15.455329208333334,,0x13,0x87
15.456774208333334,,0x81,0x79
15.458198333333334,,0x43,0x43
15.459643333333334,,0x9D,0xFD
15.461067458333334,,0xAF,0x05
15.462512458333334,,0x41,0xFB
15.463936583333334,,0xB3,0x0F
15.465381583333333,,0x41,0xF1
15.466805750000001,,0x05,0x89
15.468250749999999,,0x33,0x73
15.469674875000001,,0x73,0x05
15.471119874999999,,0x17,0xFF
15.472605041666666,,0x84,0xBD
15.474050041666667,,0xF8,0xC0
15.475474208333333,,0xD6,0x92
15.476919166666667,,0xFC,0xED
15.478343333333333,,0x80,0x80
15.479788291666667,,0xFF,0xFF
15.481212458333333,,0xFF,0xFF
15.482657458333334,,0xFF,0xFF
15.484081625000000,,0x00,0x00
15.485526583333334,,0x00,0x00
15.486950750000000,,0x00,0x00
15.488395708333334,,0x00,0x00
15.489819875000000,,0x00,0x00
15.491264833333334,,0x00,0x00
15.492689041666667,,0x00,0x00
15.494134000000001,,0x00,0x00
15.495558166666667,,0xA8,0xE4
15.497003125000001,,0x40,0x1B
15.498427291666667,,0x7D,0x15
15.499872249999999,,0x00,0xFB
15.501296416666667,,0x34,0x07
15.502741374999999,,0x00,0xFB
15.504165583333334,,0xFF,0xFF
15.505610500000000,,0xFF,0xFF
15.507034708333334,,0x00,0x00
15.508479666666666,,0x00,0x00
15.509903833333333,,0x00,0x00
15.511348791666666,,0x00,0x00
15.512772999999999,,0x00,0x00
15.514217916666666,,0x00,0x00
15.515642124999999,,0x00,0x00
15.517087041666667,,0x00,0x00
15.518511250000000,,0x27,0x08
15.519956166666667,,0x10,0xF7
15.521380416666666,,0xDF,0x5D
15.522825333333333,,0x01,0xF7
15.524249541666666,,0x31,0x1C
15.525694458333334,,0x02,0xF7
15.527118666666667,,0xFF,0xFF
15.528563583333334,,0xFF,0xFF
15.529987791666667,,0x00,0x00
15.531432708333334,,0x00,0x00
15.532856958333333,,0x00,0x00
15.534301833333334,,0x00,0x00
15.535726083333333,,0x00,0x00
15.537171000000001,,0x00,0x00
15.538595208333334,,0x00,0x00
15.540040125000001,,0x00,0x00
15.541464375000000,,0x11,0x01
15.542909249999999,,0x0F,0xFF
15.544333500000000,,0xC5,0xF5
15.545778374999999,,0x1F,0xFF
15.547202625000001,,0x21,0x11
15.548647541666666,,0x1F,0xEF
15.550071791666667,,0xFF,0xFF
15.551516666666666,,0xFF,0xFF
15.552940916666667,,0x00,0x00
15.554385791666666,,0x00,0x00
15.555810041666666,,0x00,0x00
15.557254916666666,,0x00,0x00
15.558679208333333,,0x00,0x00
15.560124041666667,,0x00,0x00
15.561548333333333,,0x00,0x00
15.562993208333333,,0x00,0x00
15.564417458333333,,0xFF,0xFF
15.565862333333333,,0xFF,0xFF
15.567286583333333,,0xD4,0xBD
15.568731458333334,,0xF8,0xC0
15.570155750000000,,0xE4,0xBF
15.571600583333334,,0xF8,0xC0
15.573085916666667,,0xF2,0xD7
15.574530791666668,,0xFD,0xFC
15.575955041666667,,0xC0,0x87
15.577399916666666,,0xFF,0xF8
15.578824208333334,,0xF5,0xDE
15.580269041666666,,0xFF,0xF1
15.581693333333334,,0xC8,0x83
15.583138166666666,,0xFF,0xF0
15.584562458333334,,0xD5,0xC3
15.586007291666666,,0xFF,0xF0
15.587431625000001,,0xFF,0xFF
15.588876458333333,,0xFF,0xFF
15.590300750000001,,0xDD,0x00
15.591745583333333,,0x7F,0x00
15.593169874999999,,0x00,0xC3
15.594614708333333,,0xFF,0x00
15.596039041666666,,0x40,0x77
15.597483833333333,,0xFF,0x00
15.598908166666666,,0x18,0x00
15.600352958333334,,0xE7,0x03
15.601777291666666,,0x58,0xB6
15.603222125000000,,0xE7,0x01
15.604646416666666,,0x1F,0x04
15.606091250000000,,0xE0,0x01
15.607515583333333,,0x4A,0x13
15.608960375000001,,0xF5,0x00
15.610384708333333,,0xFF,0xFF
15.611829500000001,,0xFF,0xFF
15.613253833333333,,0x51,0x16
15.614698625000001,,0xFF,0x01
15.616123000000000,,0x00,0xC0
15.617567791666668,,0xFF,0x03
15.618992125000000,,0x15,0xE7
15.620436916666666,,0xFF,0x11
15.621861250000000,,0x20,0xDE
15.623306041666666,,0xDF,0x01
15.624730416666667,,0xE4,0xC8
15.626175166666666,,0x1F,0x17
15.627599541666667,,0x62,0x90
15.629044333333333,,0x9D,0x0F
15.630468666666667,,0x80,0xC7
15.631913458333333,,0x7F,0x19
15.633337791666667,,0xFF,0xFF
15.634782583333333,,0xFF,0xFF
15.636206958333334,,0x57,0xC5
15.637651708333333,,0xFF,0x7F
15.639076083333334,,0x01,0x81
15.640520833333333,,0xFF,0x7F
15.641945208333333,,0x15,0x55
15.643390000000000,,0xFF,0xFF
15.644814374999999,,0x01,0x01
15.646259125000000,,0xFF,0xFF
15.647683499999999,,0x11,0x55
15.649128250000000,,0xFF,0xFF
15.650552625000000,,0x69,0x01
15.651997375000001,,0x97,0xFF
15.653421791666666,,0x01,0x55
15.654866500000001,,0xFF,0xFF
15.656290916666666,,0x80,0x92
15.657735666666667,,0xFF,0xE0
15.659160041666667,,0xD4,0xB6
15.660604791666668,,0xFF,0xC0
15.662029166666667,,0x80,0xF3
15.663473916666666,,0xFF,0x80
15.664898333333333,,0xD5,0xA7
15.666343041666666,,0xFF,0xD0
15.667767458333334,,0x80,0x92
15.669212208333333,,0xFF,0xE0
15.670636583333334,,0xD5,0x8D
15.672081333333333,,0xFF,0xF0
15.673566791666667,,0x80,0x8D
15.675011500000000,,0xFF,0xF0
15.676435916666666,,0xD4,0xDE
15.677880625000000,,0xFF,0xF0
15.679305041666666,,0x1F,0x47
15.680749750000000,,0xE0,0x00
15.682174208333333,,0x77,0x07
15.683618916666667,,0xC0,0x00
15.685043333333333,,0x39,0x23
15.686488041666667,,0xC0,0xC0
15.687912458333333,,0x35,0x67
15.689357166666667,,0xC0,0x10
15.690781625000000,,0x20,0x1F
15.692226291666667,,0xC0,0x00
15.693650750000000,,0x20,0x33
15.695095458333334,,0xC0,0x1C
15.696519875000000,,0x20,0x04
15.697964583333333,,0xC0,0xF8
15.699389000000000,,0x00,0x4C
15.700833708333333,,0xC0,0x70
15.702258166666667,,0x62,0x8A
15.703702833333333,,0x1D,0x01
15.705127291666667,,0xA2,0xD4
15.706571958333333,,0x5D,0x03
15.707996416666667,,0x74,0x21
15.709441125000000,,0x0B,0x06
15.710865583333334,,0x60,0x04
15.712310250000000,,0x1F,0x09
15.713734708333334,,0x1C,0x0E
15.715179375000000,,0x03,0x00
15.716603833333334,,0x13,0x75
15.718048500000000,,0x0C,0x00
15.719473000000001,,0x1C,0x21
15.720917625000000,,0x03,0x00
15.722342125000001,,0x18,0x05
15.723786791666667,,0x07,0x00
15.725211249999999,,0x85,0x01
15.726655916666667,,0x7B,0xFF
15.728080416666666,,0x01,0x15
15.729525041666667,,0xFF,0xFF
15.730949541666666,,0x49,0x01
15.732394166666667,,0xB7,0xFF
15.733818666666666,,0x29,0x11
15.735263291666667,,0xD7,0xFF
15.736687791666666,,0x71,0x01
15.738132458333334,,0x8F,0x7F
15.739556958333333,,0xEF,0x95
15.741001583333333,,0x11,0x7F
15.742426083333333,,0x7F,0xC1
15.743870708333333,,0x81,0x3F
15.745295208333333,,0xA9,0xDD
15.746739833333333,,0x57,0x7F
15.748164375000000,,0x80,0x8D
15.749609000000000,,0xFF,0xF0
15.751033500000000,,0xD5,0xDE
15.752478125000000,,0xFF,0xF1
15.753902625000000,,0x80,0x8B
15.755347250000000,,0xFF,0xF0
15.756771791666667,,0xD1,0xD8
15.758216375000000,,0xFF,0xF7
15.759640916666667,,0xC0,0xC7
15.761085500000000,,0xFF,0xF8
15.762510041666667,,0xC5,0xF6
15.763954666666667,,0xFF,0xF9
15.765379166666667,,0xE0,0xE7
15.766823791666667,,0xFF,0xF8
15.768248333333334,,0xD5,0xD4
15.769692916666667,,0xFF,0xFF
15.771117458333332,,0x40,0x44
15.772562041666667,,0x80,0x38
15.774047625000000,,0x00,0x86
15.775492249999999,,0xC0,0x79
15.776916791666666,,0x20,0xC7
15.778361374999999,,0xC0,0x38
15.779785916666667,,0x20,0xD6
15.781230499999999,,0xC0,0x39
15.782655041666667,,0x20,0xC3
15.784099625000000,,0xC0,0x3C
15.785524208333333,,0x40,0xCC
15.786968750000000,,0xE0,0x30
15.788393333333334,,0x00,0xE7
15.789837916666666,,0xE0,0x18
15.791262458333334,,0x50,0xAD
15.792707041666667,,0xE0,0x50
15.794131625000000,,0x1E,0x00
15.795576166666667,,0x01,0x00
15.797000750000000,,0x12,0x7F
15.798445291666667,,0x0D,0x00
15.799869875000001,,0x1F,0xFF
15.801314416666667,,0x00,0x00
15.802739000000001,,0x10,0xC0
15.804183583333334,,0x0F,0x7F
15.805608166666667,,0x1E,0x80
15.807052708333334,,0x01,0x7F
15.808477291666666,,0x00,0x05
15.809921833333334,,0x1F,0x7E
15.811346416666666,,0x10,0xF8
15.812790958333334,,0x0F,0x07
15.814215583333333,,0x05,0x84
15.815660125000001,,0x1F,0x7F
15.817084708333333,,0x79,0x89
15.818529249999999,,0x87,0x7F
15.819953833333333,,0x2D,0x95
15.821398374999999,,0xD3,0x7F
15.822823000000000,,0xE5,0x61
15.824267499999999,,0x1B,0x9F
15.825692125000000,,0x83,0x77
15.827136625000000,,0x7D,0x9F
15.828561250000000,,0x7D,0x01
15.830005791666666,,0x83,0x9F
15.831430375000000,,0x81,0xFF
15.832874916666666,,0x7F,0x1F
15.834299541666667,,0x45,0x33
15.835744041666667,,0xBB,0x9F
15.837168666666667,,0x01,0x8D
15.838613166666667,,0xFF,0x1F
15.840037791666667,,0xEF,0x88
15.841482291666667,,0xFF,0xFF
15.842906958333334,,0xFF,0xD7
15.844351458333334,,0xFF,0xFC
15.845776083333334,,0xFF,0xB1
15.847220583333334,,0xFF,0xFE
15.848645208333334,,0xFF,0xFF
15.850089708333334,,0xFF,0xFF
15.851514375000001,,0x00,0x00
15.852958833333334,,0x00,0x00
15.854383500000001,,0x00,0x00
15.855827958333334,,0x00,0x00
15.857252624999999,,0x00,0x00
15.858697125000001,,0x00,0x00
15.860121749999999,,0x00,0x00
15.861566249999999,,0x00,0x00
15.862990916666666,,0xD0,0x56
15.864435374999999,,0xE0,0xB8
15.865860041666666,,0xF7,0x10
15.867304499999999,,0xE0,0x3F
15.868729166666666,,0xFF,0x81
15.870173666666666,,0xE0,0x3E
15.871598333333333,,0xFF,0xFF
15.873042791666666,,0xFF,0xFF
15.874528500000000,,0x00,0x00
15.875972958333334,,0x00,0x00
15.877397625000000,,0x00,0x00
15.878842083333334,,0x00,0x00
15.880266791666667,,0x00,0x00
15.881711208333334,,0x00,0x00
15.883135916666667,,0x00,0x00
15.884580375000001,,0x00,0x00
15.886005041666667,,0x00,0x79
15.887449500000001,,0x1F,0x06
15.888874208333334,,0xB1,0x2C
15.890318625000001,,0x1F,0xD7
15.891743333333334,,0xEC,0x80
15.893187749999999,,0x1F,0x7F
15.894612458333333,,0xFF,0xFF
15.896056916666666,,0xFF,0xFF
15.897481624999999,,0x00,0x00
15.898926041666666,,0x00,0x00
15.900350749999999,,0x00,0x00
15.901795166666666,,0x00,0x00
15.903219875000000,,0x00,0x00
15.904664291666666,,0x00,0x00
15.906089000000000,,0x00,0x00
15.907533416666666,,0x00,0x00
15.908958166666666,,0x01,0x89
15.910402583333333,,0xFF,0x1F
15.911827291666667,,0x05,0x4D
15.913271708333333,,0xFF,0x9F
15.914696416666667,,0x01,0x59
15.916140833333333,,0xFF,0x8F
15.917565583333333,,0xFF,0xFF
15.919009958333334,,0xFF,0xFF
15.920434708333334,,0x00,0x00
15.921879083333334,,0x00,0x00
15.923303833333334,,0x00,0x00
15.924748250000000,,0x00,0x00
15.926173000000000,,0x00,0x00
15.927617375000001,,0x00,0x00
15.929042125000000,,0x00,0x00
15.930486500000001,,0x00,0x00
15.931911250000001,,0xFF,0xFF
15.933355625000001,,0xFF,0xFF
15.934780375000001,,0xFF,0xDD
15.936224791666667,,0xFF,0xFF
15.937649541666667,,0xFF,0x80
15.939093916666666,,0xFF,0xFF
15.940518666666666,,0xFF,0xF1
15.941963041666666,,0xFF,0xFE
15.943387791666666,,0xFF,0x80
15.944832166666666,,0xFF,0x80
15.946256958333333,,0xFF,0x80
15.947701291666666,,0xFF,0x80
15.949126083333333,,0xFC,0x80
15.950570458333333,,0xFF,0x80
15.951995208333333,,0xF0,0x80
15.953439583333333,,0xFF,0x80
15.954864375000000,,0xFF,0xFF
15.956308708333333,,0xFF,0xFF
15.957733500000000,,0xF8,0x5F
15.959177833333333,,0xFF,0xFF
15.960602625000000,,0x84,0x3E
15.962046958333334,,0xFB,0xC1
15.963471750000000,,0x70,0x60
15.964916125000000,,0xFF,0x00
15.966340916666667,,0x00,0x20
15.967785250000000,,0xFF,0x00
15.969210041666667,,0x09,0x25
15.970654375000001,,0xF7,0x10
15.972079166666667,,0xFB,0x01
15.973523500000001,,0x04,0x00
15.975009375000001,,0xEB,0x10
15.976453708333333,,0x14,0x00
15.977878499999999,,0xFF,0xFF
15.979322833333333,,0xFF,0xFF
15.980747624999999,,0x5F,0xFF
15.982191958333333,,0xFF,0xFF
15.983616791666666,,0x01,0xD8
15.985061083333333,,0xFF,0x27
15.986485916666666,,0x54,0x52
15.987930208333333,,0xFF,0x7D
15.989355041666666,,0x3C,0x43
15.990799375000000,,0xFF,0x2C
15.992224208333333,,0x5F,0x42
15.993668500000000,,0xFF,0x01
15.995093333333333,,0x1F,0x00
15.996537625000000,,0xFF,0x80
15.997962458333333,,0x9F,0x01
15.999406750000000,,0x7F,0xC0
16.000831625000000,,0xFF,0xFF
16.002275874999999,,0xFF,0xFF
16.003700750000000,,0xFF,0xFF
16.005145041666665,,0xFF,0xFF
16.006569875000000,,0xFF,0x0F
16.008014166666666,,0xFF,0xF1
16.009439000000000,,0x7F,0x05
16.010883291666666,,0xFF,0xC3
16.012308166666667,,0x3F,0xCD
16.013752416666666,,0xFF,0x33
16.015177291666667,,0xBF,0x31
16.016621583333333,,0xDF,0xDD
16.018046416666667,,0x23,0x33
16.019490708333333,,0xDF,0x0D
16.020915583333334,,0x8F,0x47
16.022359833333333,,0xF7,0x01
16.023784708333334,,0xE0,0x80
16.025228958333333,,0xFF,0x80
16.026653833333334,,0xF0,0x94
16.028098083333333,,0xFF,0xC0
16.029523000000001,,0xF3,0xC1
16.030967250000000,,0xFC,0x80
16.032392125000001,,0xD3,0xDE
16.033836375000000,,0xFC,0x80
16.035261250000001,,0xD7,0x92
16.036705500000000,,0xF8,0x80
16.038130375000001,,0xD2,0xC1
16.039574625000000,,0xFD,0xF1
16.040999541666668,,0xC7,0xC8
16.042443750000000,,0xF8,0xF0
16.043868666666668,,0xC7,0xE7
16.045312916666667,,0xF8,0xD8
16.046737791666665,,0xFB,0xB0
16.048182041666667,,0x00,0x40
16.049606958333332,,0xF7,0x7C
16.051051166666667,,0x00,0x40
16.052476083333332,,0xE0,0xDE
16.053920291666667,,0x00,0x60
16.055345208333332,,0xC0,0x22
16.056789458333334,,0x00,0x1D
16.058214374999999,,0xC0,0x55
16.059658583333334,,0x00,0x2E
16.061083499999999,,0xC0,0x0F
16.062527708333334,,0x00,0xD3
16.063952624999999,,0x80,0x09
16.065396833333335,,0x00,0x07
16.066821749999999,,0xC0,0x48
16.068265958333335,,0x00,0x17
16.069690916666666,,0xC0,0xBC
16.071135125000001,,0x3F,0x40
16.072560041666666,,0xA0,0x7E
16.074004250000002,,0x5F,0x05
16.075490208333335,,0x7D,0x26
16.076934416666667,,0x00,0x19
16.078359375000002,,0x19,0xB6
16.079803541666667,,0x00,0x41
16.081228500000002,,0x00,0xE7
16.082672666666667,,0x00,0x00
16.084097624999998,,0x01,0xB7
16.085541833333334,,0x00,0x41
16.086966791666665,,0x01,0xA1
16.088410958333334,,0x00,0x43
16.089835916666665,,0x01,0x97
16.091280083333334,,0x00,0x61
16.092705041666665,,0x3B,0x01
16.094149208333334,,0xC7,0xE1
16.095574208333332,,0x1B,0x35
16.097018375000001,,0xE7,0xC3
16.098443333333332,,0x3D,0x95
16.099887500000001,,0xC3,0x23
16.101312458333332,,0x89,0x9D
16.102756625000001,,0x77,0x61
16.104181624999999,,0x51,0x1F
16.105625750000002,,0xAF,0xE1
16.107050749999999,,0x21,0x4F
16.108494875000002,,0xDF,0xF1
16.109919874999999,,0xC1,0x0D
16.111364041666668,,0x3F,0xF1
16.112788999999999,,0xA5,0x41
16.114233166666665,,0x5F,0xFD
16.115658166666666,,0xEF,0x80
16.117102291666665,,0xF0,0xF8
16.118527291666666,,0xE2,0xD7
16.119971416666665,,0xF5,0xF8
16.121396416666666,,0xDF,0x80
16.122840541666665,,0xE0,0xFC
16.124265583333333,,0xEA,0xD3
16.125709708333332,,0xF5,0xFC
16.127134708333333,,0xE4,0x84
16.128578833333332,,0xFB,0xFB
16.130003833333333,,0xFD,0xD5
16.131447958333332,,0xF3,0xFF
16.132873000000000,,0xF6,0xC8
16.134317083333332,,0xF9,0xFF
16.135742125000000,,0xFA,0xD5
16.137186249999999,,0xFD,0xFF
16.138611250000000,,0x80,0xF9
16.140055374999999,,0x00,0x00
16.141480375000000,,0x8D,0x90
16.142924499999999,,0x00,0x4F
16.144349541666667,,0xFF,0x71
16.145793625000000,,0x00,0x0E
16.147218666666667,,0x2A,0x22
16.148662750000000,,0xD5,0x1C
16.150087791666667,,0x03,0x49
16.151531916666666,,0xFC,0xB6
16.152956958333334,,0x50,0x04
16.154401041666667,,0xFF,0xFF
16.155826083333334,,0x90,0x03
16.157270166666667,,0xFF,0xFC
16.158695208333334,,0x74,0x48
16.160139291666667,,0xFF,0xF4
16.161564375000001,,0x01,0xC5
16.163008416666667,,0x00,0x32
16.164433500000001,,0x07,0x10
16.165877583333334,,0x00,0x0F
16.167302625000001,,0x07,0x08
16.168746708333334,,0x00,0x07
16.170171750000002,,0x7E,0x12
16.171615833333334,,0x01,0x05
16.173040916666668,,0x1F,0x18
16.174484958333334,,0x00,0x07
16.175910041666668,,0x6A,0x02
16.177354125000001,,0x15,0x1D
16.178779166666665,,0xBE,0x07
16.180223250000001,,0x41,0x00
16.181648333333332,,0x2B,0x06
16.183092375000001,,0xD5,0x01
16.184517458333332,,0xE1,0x1B
16.185961500000001,,0x1F,0xE5
16.187386583333332,,0xA5,0x41
16.188830625000001,,0x5F,0xFF
16.190255749999999,,0xF9,0x01
16.191699791666668,,0x07,0xFF
16.193124874999999,,0x8B,0x55
16.194568916666668,,0x77,0xFF
16.195993999999999,,0x83,0x01
16.197438041666668,,0x7F,0xFF
16.198863124999999,,0xD7,0x51
16.200307166666665,,0x7F,0xFF
16.201732291666666,,0x03,0x01
16.203176291666665,,0xFF,0xFF
16.204601416666666,,0x7F,0xA1
16.206045458333332,,0xFF,0x5F
16.207470541666666,,0xFE,0xC7
16.208914583333332,,0xFF,0xFF
16.210339708333333,,0xFF,0xF5
16.211783708333332,,0xFF,0xFF
16.213208833333333,,0xFF,0xC0
16.214652833333332,,0xFF,0xFF
16.216077958333333,,0xFF,0xFF
16.217521958333332,,0xFF,0xFF
16.218947125000000,,0x00,0x00
16.220391124999999,,0x00,0x00
16.221816250000000,,0x00,0x00
16.223260249999999,,0x00,0x00
16.224685375000000,,0x00,0x00
16.226129374999999,,0x00,0x00
16.227554541666667,,0x00,0x00
16.228998499999999,,0x00,0x00
16.230423666666667,,0x7C,0x08
16.231867666666666,,0xFF,0xF0
16.233292791666667,,0xFD,0x70
16.234736791666666,,0xFF,0xC0
16.236161916666667,,0xFC,0x40
16.237605916666666,,0xFF,0x80
16.239031083333334,,0xFF,0xFF
16.240475041666667,,0xFF,0xFF
16.241900208333334,,0x00,0x00
16.243344166666667,,0x00,0x00
16.244769333333334,,0x00,0x00
16.246213333333333,,0x00,0x00
16.247638500000001,,0x00,0x00
16.249082458333334,,0x00,0x00
16.250507625000001,,0x00,0x00
16.251951583333334,,0x00,0x00
16.253376750000001,,0xAC,0x03
16.254820708333334,,0x53,0x00
16.256245916666668,,0x2D,0x05
16.257689833333334,,0xD7,0x00
16.259115041666668,,0x30,0x00
16.260559000000001,,0xCF,0x00
16.261984166666668,,0xFF,0xFF
16.263428125000001,,0xFF,0xFF
16.264853291666668,,0x00,0x00
16.266297250000001,,0x00,0x00
16.267722458333335,,0x00,0x00
16.269166375000001,,0x00,0x00
16.270591583333335,,0x00,0x00
16.272035500000001,,0x00,0x00
16.273460708333332,,0x00,0x00
16.274904666666668,,0x00,0x00
16.276390916666667,,0x07,0xFD
16.277834833333333,,0xFF,0x03
16.279260041666667,,0x1F,0xDF
16.280703958333334,,0xFF,0x01
16.282129166666667,,0x7F,0x01
16.283573083333334,,0xFF,0x01
16.284998333333334,,0xFF,0xFF
16.286442250000000,,0xFF,0xFF
16.287867458333334,,0x00,0x00
16.289311375000000,,0x00,0x00
16.290736583333334,,0x00,0x00
16.292180500000001,,0x00,0x00
16.293605750000001,,0x00,0x00
16.295049625000001,,0x00,0x00
16.296474875000001,,0x00,0x00
16.297918750000001,,0x00,0x00
16.299344000000001,,0xFF,0xFF
16.300787916666668,,0xFF,0xFF
16.302213166666668,,0x80,0xD5
16.303657041666668,,0xFF,0xFE
16.305082291666668,,0x86,0xBE
16.306526166666668,,0xF9,0xC0
16.307951416666668,,0xA9,0x81
16.309395291666668,,0xD6,0xC0
16.310820541666665,,0x96,0x80
16.312264458333335,,0xE9,0xC0
16.313689708333332,,0xBF,0xC0
16.315133583333335,,0xC0,0xC0
16.316558833333332,,0x9E,0xA0
16.318002708333335,,0xE1,0xC0
16.319427958333332,,0x8F,0xC0
16.320871833333332,,0xF0,0xF0
16.322297124999999,,0xFF,0xFF
16.323740958333332,,0xFF,0xFF
16.325166249999999,,0xB6,0x00
16.326610124999998,,0x4D,0x00
16.328035374999999,,0x24,0x00
16.329479249999999,,0x9B,0x00
16.330904499999999,,0xA8,0x01
16.332348374999999,,0x57,0x00
16.333773666666666,,0xF9,0x00
16.335217499999999,,0x06,0x00
16.336642791666666,,0xB2,0x10
16.338086624999999,,0x4D,0x00
16.339511916666666,,0x9F,0x00
16.340955791666666,,0x40,0x00
16.342381083333333,,0xF2,0x01
16.343824916666666,,0x0D,0x00
16.345250208333333,,0xFF,0xFF
16.346694041666666,,0xFF,0xFF
16.348119333333333,,0x15,0x00
16.349563166666666,,0xFF,0x00
16.350988500000000,,0x00,0x00
16.352432333333333,,0xFF,0x00
16.353857625000000,,0x80,0xC0
16.355301458333333,,0x7F,0x00
16.356726750000000,,0x60,0x18
16.358170583333333,,0x9F,0x00
16.359595916666667,,0xA0,0x17
16.361039708333333,,0x5F,0x00
16.362465041666667,,0xFA,0x00
16.363908833333333,,0x05,0x00
16.365334166666667,,0xAA,0x01
16.366778000000000,,0x55,0x00
16.368203291666667,,0xFF,0xFF
16.369647125000000,,0xFF,0xFF
16.371072458333334,,0x55,0x01
16.372516250000000,,0xFF,0x01
16.373941583333334,,0x01,0x01
16.375385375000000,,0xFF,0x01
16.376871749999999,,0x1D,0x41
16.378315541666666,,0xF7,0x01
16.379740916666666,,0x11,0x41
16.381184708333333,,0xEF,0x01
16.382610041666666,,0x23,0xC1
16.384053833333333,,0xDD,0x01
16.385479166666666,,0x49,0xF1
16.386922958333333,,0xB7,0x01
16.388348333333333,,0x01,0xDB
16.389792083333333,,0xFF,0x05
16.391217458333333,,0xBF,0x8C
16.392661250000000,,0xC0,0xF0
16.394086583333333,,0xCE,0xF3
16.395530375000000,,0xB1,0xFC
16.396955750000000,,0xB5,0xC2
16.398399500000000,,0xC0,0xFC
16.399824875000000,,0xAF,0xD7
16.401268625000000,,0xD0,0xFC
16.402694000000000,,0xFA,0xA8
16.404137750000000,,0x80,0xFF
16.405563125000000,,0xAF,0xDC
16.407006916666667,,0xD0,0xFF
16.408432291666667,,0xFB,0xC8
16.409876041666667,,0x80,0xFF
16.411301416666667,,0xEE,0xD5
16.412745166666667,,0x91,0xFF
16.414170541666667,,0xDF,0x00
16.415614291666667,,0x00,0x00
16.417039708333334,,0xFE,0x50
16.418483416666668,,0x01,0x00
16.419908833333334,,0x5D,0x00
16.421352583333334,,0x00,0x00
16.422777958333334,,0x0F,0x14
16.424221708333334,,0x50,0x00
16.425647125000001,,0xAF,0x00
16.427090833333335,,0x00,0x00
16.428516250000001,,0x7C,0x81
16.429959958333335,,0x01,0x00
16.431385375000001,,0x55,0xC0
16.432829125000001,,0x00,0x00
16.434254500000002,,0x7F,0x21
16.435698250000002,,0x00,0xC0
16.437123666666668,,0xFE,0x41
16.438567375000002,,0x01,0x00
16.439992791666668,,0xEE,0x3D
16.441436499999998,,0x11,0x00
16.442861916666665,,0xFF,0x0C
16.444305624999998,,0x00,0x00
16.445731083333332,,0xDE,0x02
16.447174791666665,,0x01,0x01
16.448600208333332,,0x59,0x01
16.450043916666665,,0x02,0x00
16.451469333333332,,0x1F,0x41
16.452913041666665,,0x40,0x00
16.454338499999999,,0xF9,0x03
16.455782166666665,,0x02,0x00
16.457207624999999,,0xED,0x07
16.458651291666666,,0x02,0x01
16.460076749999999,,0xD7,0x01
16.461520458333332,,0x29,0x1F
16.462945916666666,,0xAB,0x1B
16.464389583333332,,0x55,0x37
16.465815041666666,,0xA9,0x03
16.467258708333333,,0x57,0x37
16.468684166666666,,0xA5,0x4D
16.470127833333333,,0x5B,0x37
16.471553291666666,,0xF5,0xD3
16.472996958333333,,0x0B,0x2F
16.474422458333333,,0xD7,0x97
16.475866125000000,,0x29,0x7F
16.477352625000002,,0x0B,0xCF
16.478796291666665,,0xA5,0x3F
16.480221749999998,,0x5F,0x1F
16.481665416666665,,0xA5,0xFF
16.483090916666665,,0xFF,0x90
16.484534541666665,,0x80,0xFF
16.485960041666665,,0xAF,0xDD
16.487403708333332,,0xD0,0xFF
16.488829166666665,,0xFF,0x8C
16.490272833333332,,0x80,0xFF
16.491698333333332,,0xAB,0xDD
16.493141958333332,,0xD4,0xFF
16.494567458333332,,0xFF,0xDF
16.496011083333332,,0x80,0xFF
16.497436583333332,,0xAA,0xDD
16.498880208333333,,0xD5,0xFF
16.500305749999999,,0xCF,0xDD
16.501749374999999,,0xB0,0xFF
16.503174874999999,,0x88,0xD5
16.504618499999999,,0xF7,0xFF
16.506043999999999,,0xAA,0x30
16.507487625000000,,0x00,0xC0
16.508913124999999,,0xF7,0x70
16.510356750000000,,0x00,0xC0
16.511782291666666,,0xD5,0x18
16.513225916666666,,0x00,0xE0
16.514651416666666,,0xFE,0x40
16.516095041666667,,0x01,0xFC
16.517520541666666,,0xFA,0x82
16.518964166666667,,0x00,0xFC
16.520389708333333,,0xA1,0xD4
16.521833291666667,,0x54,0xFF
16.523258833333333,,0xEB,0x00
16.524702416666667,,0x00,0xFF
16.526127958333333,,0xAB,0x55
16.527571583333334,,0x54,0xFF
16.528997125000000,,0xA9,0x48
16.530440708333334,,0x02,0x07
16.531866250000000,,0xE3,0x55
16.533309833333334,,0x08,0x0F
16.534735375000000,,0xB9,0x18
16.536178958333334,,0x02,0x0F
16.537604500000000,,0x7D,0x05
16.539048083333334,,0x02,0x1F
16.540473666666667,,0x6E,0x18
16.541917250000001,,0x00,0x07
16.543342791666667,,0xDB,0x5D
16.544786375000001,,0x00,0x07
16.546211916666667,,0xB1,0x88
16.547655500000001,,0x02,0x07
16.549081083333334,,0xA8,0x5F
16.550524625000001,,0x47,0x81
16.551950208333334,,0x79,0x8B
16.553393791666668,,0x87,0xFF
16.554819333333334,,0xE9,0x77
16.556262916666668,,0x17,0xFF
16.557688500000001,,0xED,0xBF
16.559132041666668,,0x13,0xFF
16.560557625000001,,0x8D,0xDF
16.562001166666668,,0x53,0xFF
16.563426750000001,,0xC3,0x77
16.564870291666665,,0x19,0xFF
16.566295875000002,,0x93,0x7F
16.567739458333332,,0x4D,0xFF
16.569165041666668,,0x79,0x7F
16.570608583333332,,0x07,0xFF
16.572034166666668,,0x4D,0x7F
16.573477708333332,,0x33,0xFF
16.574903291666665,,0x89,0xC0
16.576346833333332,,0xF6,0xFF
16.577833500000001,,0xC0,0xCE
16.579277041666668,,0xFF,0xF1
16.580702625000001,,0x80,0xA0
16.582146166666668,,0xFF,0xC0
16.583571750000001,,0xFF,0xFF
16.585015291666668,,0xFF,0xFF
16.586440916666668,,0x00,0x00
16.587884416666668,,0x00,0x00
16.589310041666668,,0x00,0x00
16.590753541666668,,0x00,0x00
16.592179166666668,,0x00,0x00
16.593622708333335,,0x00,0x00
16.595048333333335,,0x00,0x00
16.596491833333335,,0x00,0x00
16.597917458333335,,0xFE,0x00
16.599360958333332,,0x01,0xFF
16.600786583333335,,0x2B,0xA0
16.602230083333332,,0xD4,0x5F
16.603655708333335,,0x16,0x7C
16.605099208333332,,0xE9,0x03
16.606524875000002,,0xFF,0xFF
16.607968374999999,,0xFF,0xFF
16.609394000000002,,0x00,0x00
16.610837499999999,,0x00,0x00
16.612263124999998,,0x00,0x00
16.613706624999999,,0x00,0x00
16.615132291666665,,0x00,0x00
16.616575749999999,,0x00,0x00
16.618001416666665,,0x00,0x00
16.619444874999999,,0x00,0x00
16.620870541666665,,0x94,0x30
16.622314041666666,,0x09,0xC1
16.623739708333332,,0x97,0x33
16.625183166666666,,0x60,0xC1
16.626608833333332,,0xD9,0x08
16.628052291666666,,0x06,0xF3
16.629477958333332,,0xFF,0xFF
16.630921416666666,,0xFF,0xFF
16.632347083333332,,0x00,0x00
16.633790541666666,,0x00,0x00
16.635216249999999,,0x00,0x00
16.636659708333333,,0x00,0x00
16.638085374999999,,0x00,0x00
16.639528833333333,,0x00,0x00
16.640954499999999,,0x00,0x00
16.642397958333333,,0x00,0x00
16.643823666666666,,0x55,0xED
16.645267083333334,,0x8B,0xFF
16.646692791666666,,0xB9,0xF7
16.648136250000000,,0x47,0xFF
16.649561916666666,,0xC7,0xAB
16.651005375000000,,0x39,0x7F
16.652431083333333,,0xFF,0xFF
16.653874500000001,,0xFF,0xFF
16.655300208333333,,0x00,0x00
16.656743625000001,,0x00,0x00
16.658169333333333,,0x00,0x00
16.659612750000001,,0x00,0x00
16.661038500000000,,0x00,0x00
16.662481916666668,,0x00,0x00
16.663907625000000,,0x00,0x00
16.665351041666668,,0x00,0x00
16.666776750000000,,0xFF,0xFF
16.668220166666668,,0xFF,0xFF
16.669645875000001,,0xE5,0xFF
16.671089291666668,,0xC0,0xFF
16.672515041666667,,0xF8,0xFF
16.673958416666668,,0x87,0xFF
16.675384166666667,,0x82,0xFD
16.676827583333335,,0xFC,0xFF
16.678314333333333,,0xB4,0xFE
16.679757750000000,,0x83,0xFF
16.681183499999999,,0xC5,0xFE
16.682626875000000,,0x98,0xFF
16.684052625000000,,0x94,0xFA
16.685496000000001,,0x83,0xFC
16.686921750000000,,0xCB,0xF4
16.688365166666667,,0x85,0xF8
16.689790916666666,,0xFF,0xFF
16.691234291666667,,0xFF,0xFF
16.692660041666667,,0xF3,0x55
16.694103416666668,,0x0C,0xFF
16.695529166666667,,0x2C,0x01
16.696972541666668,,0x03,0xFF
16.698398333333333,,0x65,0x5A
16.699841666666668,,0x1F,0xF5
16.701267458333334,,0x83,0x40
16.702710833333335,,0x7C,0x80
16.704136583333334,,0x6A,0x00
16.705579958333335,,0xF1,0x00
16.707005708333334,,0x1B,0x00
16.708449083333335,,0xE0,0x00
16.709874875000001,,0xE4,0x00
16.711318208333335,,0xD6,0x00
16.712744000000001,,0xFF,0xFF
16.714187375000002,,0xFF,0xFF
16.715613125000001,,0x2B,0x7F
16.717056500000002,,0x54,0xFF
16.718482291666668,,0x39,0xFF
16.719925624999998,,0x84,0xFF
16.721351416666668,,0x4A,0x9F
16.722794749999998,,0x84,0x7F
16.724220541666668,,0x2E,0x0B
16.725663874999999,,0xC0,0x07
16.727089708333335,,0xD7,0x47
16.728533041666665,,0x60,0x01
16.729958833333335,,0x5A,0x01
16.731402166666665,,0xA1,0x00
16.732827958333335,,0x59,0x01
16.734271291666666,,0x24,0x00
16.735697083333335,,0xFF,0xFF
16.737140416666666,,0xFF,0xFF
16.738566250000002,,0xD7,0xFF
16.740009541666666,,0x01,0xFF
16.741435374999998,,0x93,0xFF
16.742878708333333,,0x01,0xFF
16.744304499999998,,0x03,0xFF
16.745747833333333,,0x51,0xFF
16.747173666666665,,0x13,0xFF
16.748616958333333,,0x41,0xFF
16.750042791666665,,0x5D,0x7F
16.751486083333333,,0x41,0xFF
16.752911916666665,,0x4D,0x3F
16.754355250000000,,0x01,0xFF
16.755781083333332,,0x03,0xBF
16.757224375000000,,0xD1,0x5F
16.758650208333332,,0xBB,0xF8
16.760093500000000,,0x85,0xF0
16.761519333333332,,0x8D,0xE8
16.762962625000000,,0xD3,0xF0
16.764388499999999,,0x85,0xF0
16.765831750000000,,0xEB,0xE0
16.767257624999999,,0xA1,0xF0
16.768700916666667,,0xD7,0xE0
16.770126749999999,,0x98,0xFC
16.771570041666667,,0xA7,0xE0
16.772995874999999,,0xDF,0xF8
16.774439166666667,,0x87,0xFC
16.775865041666666,,0x98,0xE4
16.777308291666667,,0x87,0xF8
16.778795208333332,,0xAB,0xF7
16.780238499999999,,0x97,0xFC
16.781664333333332,,0x6A,0x00
16.783107625000000,,0xD4,0x00
16.784533499999998,,0xF4,0x00
16.785976750000000,,0xDF,0x00
16.787402624999999,,0x20,0x00
16.788845875000000,,0xDF,0x00
16.790271749999999,,0x1A,0x00
16.791715000000000,,0xC5,0x00
16.793140916666665,,0xC1,0x00
16.794584166666667,,0x82,0x00
16.796010041666666,,0x0C,0x40
16.797453291666667,,0xD7,0x00
16.798879166666666,,0x05,0x00
16.800322416666667,,0xD2,0x00
16.801748333333332,,0xEC,0xC1
16.803191541666667,,0xD7,0x00
16.804617458333333,,0x42,0x01
16.806060666666667,,0x24,0x00
16.807486583333333,,0x40,0x00
16.808929833333334,,0xF2,0x01
16.810355708333333,,0x02,0x00
16.811798958333334,,0xFC,0x00
16.813224875000000,,0x94,0x41
16.814668083333334,,0x70,0x00
16.816094000000000,,0xCA,0x00
16.817537208333334,,0x31,0x00
16.818963125000000,,0x4C,0x85
16.820406333333334,,0xB0,0x40
16.821832291666666,,0x04,0xC1
16.823275500000001,,0xF8,0x00
16.824701416666667,,0xDD,0x40
16.826144625000001,,0x72,0x01
16.827570541666667,,0x13,0x9F
16.829013750000001,,0x01,0x0F
16.830439708333333,,0x49,0x97
16.831882875000002,,0x81,0x4F
16.833308833333334,,0x01,0xEB
16.834752041666668,,0x01,0x07
16.836177958333334,,0x41,0x4F
16.837621166666668,,0x1D,0x03
16.839047083333334,,0x03,0x01
16.840490291666665,,0x3D,0x03
16.841916250000001,,0x83,0x67
16.843359416666665,,0x3D,0x11
16.844785375000001,,0x17,0x19
16.846228541666665,,0x29,0x01
16.847654500000001,,0x69,0x0B
16.849097708333332,,0x15,0x01
16.850523666666668,,0xF8,0xFA
16.851966833333332,,0x87,0xFF
16.853392791666668,,0xBD,0xFF
16.854835958333332,,0xC7,0xFF
16.856261916666668,,0xD8,0xFE
16.857705083333332,,0x87,0xFF
16.859131083333335,,0x95,0xFF
16.860574208333333,,0xC7,0xFF
16.862000208333335,,0xA2,0xFE
16.863443374999999,,0x87,0xFF
16.864869333333335,,0xA9,0xFF
16.866312499999999,,0x87,0xFF
16.867738500000002,,0x8C,0xBF
16.869181625000000,,0x87,0xFF
16.870607625000002,,0xE5,0xFF
16.872050750000000,,0x9F,0xFF
16.873476749999998,,0x81,0xC0
16.874919875000000,,0xFE,0x00
16.876345874999998,,0x50,0x10
16.877789041666666,,0xFF,0xC0
16.879276083333334,,0x10,0x02
16.880719208333332,,0xFF,0xF0
16.882145208333334,,0x15,0xF2
16.883588333333332,,0xDF,0xFC
16.885014333333334,,0xC8,0xF7
16.886457458333332,,0x9F,0xFC
16.887883500000001,,0xF5,0xFD
16.889326624999999,,0x0F,0xFF
16.890752625000001,,0x40,0xFF
16.892195749999999,,0x8F,0xFF
16.893621750000001,,0x5D,0xFF
16.895064874999999,,0xE7,0xFF
16.896490916666668,,0x8E,0x02
16.897933999999999,,0x70,0x01
16.899360041666668,,0xCE,0x01
16.900803124999999,,0x70,0x00
16.902229166666668,,0xA7,0x01
16.903672291666666,,0xC0,0x00
16.905098333333335,,0xC9,0x17
16.906541416666666,,0xC4,0x00
16.907967458333335,,0x5B,0xC9
16.909410541666666,,0xE0,0x30
16.910836583333332,,0x51,0xF1
16.912279666666667,,0xE4,0xFC
16.913705708333332,,0x08,0xF8
16.915148833333333,,0xE4,0xFF
16.916574874999998,,0x48,0xFF
16.918017958333333,,0xF5,0xFF
16.919443999999999,,0x01,0x83
16.920887083333334,,0x01,0x01
16.922313124999999,,0x29,0x45
16.923756208333334,,0x81,0x83
16.925182291666665,,0x05,0xC5
16.926625333333334,,0x01,0x03
16.928051416666666,,0xE1,0x13
16.929494500000001,,0x05,0xCF
16.930920541666666,,0x59,0x33
16.932363625000001,,0x01,0xCF
16.933789708333332,,0xDD,0x1F
16.935232750000001,,0x01,0xFF
16.936658833333333,,0xA5,0x3D
16.938101875000001,,0x01,0xFF
16.939527958333333,,0xA5,0xFF
16.940971000000001,,0x01,0xFF
16.942397083333333,,0xE9,0xFF
16.943840166666668,,0x9F,0xFF
16.945266250000000,,0x95,0xFF
16.946709291666668,,0xFF,0xFF
16.948135375000000,,0xB9,0xFF
16.949578416666668,,0xFF,0xFF
16.951004500000000,,0xFF,0xFF
16.952447541666668,,0xFF,0xFF
16.953873666666667,,0x00,0x00
16.955316708333335,,0x00,0x00
16.956742791666667,,0x00,0x00
16.958185833333335,,0x00,0x00
16.959611916666667,,0x00,0x00
16.961054958333332,,0x00,0x00
16.962481083333333,,0x00,0x00
16.963924083333332,,0x00,0x00
16.965350208333334,,0x0C,0xFF
16.966793208333332,,0xF3,0xFF
16.968219333333334,,0xD0,0xFF
16.969662374999999,,0xFD,0xFF
16.971088458333334,,0x42,0xFF
16.972531499999999,,0xFC,0xFF
16.973957625000001,,0xFF,0xFF
16.975400624999999,,0xFF,0xFF
16.976826750000001,,0x00,0x00
16.978269749999999,,0x00,0x00
16.979695875000001,,0x00,0x00
16.981138874999999,,0x00,0x00
16.982565041666668,,0x00,0x00
16.984008041666666,,0x00,0x00
16.985434166666668,,0x00,0x00
16.986877166666666,,0x00,0x00
16.988303291666668,,0x1C,0xFF
16.989746291666666,,0xE2,0xFF
16.991172458333335,,0x0A,0xFF
16.992615416666666,,0xF5,0xFF
16.994041583333335,,0x1F,0xFF
16.995484541666666,,0xE0,0xFF
16.996910708333335,,0xFF,0xFF
16.998353708333333,,0xFF,0xFF
16.999779833333335,,0x00,0x00
17.001222833333333,,0x00,0x00
17.002649000000002,,0x00,0x00
17.004091958333333,,0x00,0x00
17.005518124999998,,0x00,0x00
17.006961083333334,,0x00,0x00
17.008387249999998,,0x00,0x00
17.009830250000000,,0x00,0x00
17.011256416666665,,0xA9,0xFF
17.012699375000000,,0x01,0xFF
17.014125541666665,,0x75,0xFF
17.015568500000001,,0x09,0xFF
17.016994666666665,,0x6D,0xFF
17.018437625000001,,0x01,0xFF
17.019863833333332,,0xFF,0xFF
17.021306750000001,,0xFF,0xFF
17.022732958333332,,0x00,0x00
17.024175916666668,,0x00,0x00
17.025602083333332,,0x00,0x00
17.027045041666668,,0x00,0x00
17.028471249999999,,0x00,0x00
17.029914166666668,,0x00,0x00
17.031340374999999,,0x00,0x00
17.032783291666668,,0x00,0x00
17.034209499999999,,0xFF,0xFF
17.035652416666668,,0xFF,0xFF
17.037078624999999,,0xFF,0xFF
17.038521583333335,,0xFF,0xFF
17.039947791666666,,0xFF,0xBB
17.041390708333335,,0xFF,0xFF
17.042816916666666,,0xFF,0xFD
17.044259833333335,,0xFF,0xFF
17.045686041666666,,0xFD,0xF7
17.047128958333332,,0xFE,0xFF
17.048555208333333,,0xFF,0xFF
17.049998083333332,,0xFC,0xFF
17.051424333333333,,0xFD,0xFD
17.052867249999998,,0xF8,0xFF
17.054293458333333,,0xD6,0xD7
17.055736374999999,,0xF9,0xFF
17.057162625000000,,0xFF,0xFF
17.058605499999999,,0xFF,0xFF
17.060031750000000,,0xCD,0xFF
17.061474624999999,,0xF0,0xFF
17.062900875000000,,0x4E,0xA9
17.064343791666666,,0x81,0xFF
17.065770000000001,,0xE3,0xFF
17.067212916666666,,0x1D,0xFF
17.068639166666667,,0x76,0x98
17.070082041666666,,0x09,0xFF
17.071508291666667,,0x80,0x77
17.072951166666666,,0x7F,0xFD
17.074377416666668,,0xCE,0x20
17.075820291666666,,0x31,0xFD
17.077246583333334,,0x0A,0xD5
17.078689458333333,,0xF5,0xF9
17.080176750000000,,0xFF,0xFF
17.081619624999998,,0xFF,0xFF
17.083045875000000,,0xD9,0x77
17.084488749999998,,0x07,0xFF
17.085915041666667,,0xA3,0x30
17.087357874999999,,0x40,0xFF
17.088784166666667,,0xB3,0x55
17.090227041666665,,0x4C,0xFF
17.091653291666667,,0x37,0xAA
17.093096166666665,,0xC8,0xF7
17.094522458333334,,0x82,0x75
17.095965291666666,,0x7D,0xFF
17.097391583333334,,0xF1,0x09
17.098834416666666,,0x0E,0xFF
17.100260708333334,,0xA8,0x55
17.101703541666666,,0x57,0xFF
17.103129833333334,,0xFF,0xFF
17.104572708333333,,0xFF,0xFF
17.105999000000001,,0xFF,0xFF
17.107441833333333,,0xFF,0xFF
17.108868125000001,,0x7F,0xB3
17.110310958333333,,0xFF,0xFF
17.111737250000001,,0xFF,0xFD
17.113180083333333,,0x7F,0xFF
17.114606416666668,,0x5F,0x45
17.116049208333333,,0x3F,0xFF
17.117475541666668,,0xFF,0xDF
17.118918375000000,,0x1F,0xFF
17.120344666666668,,0xDF,0xFB
17.121787500000000,,0x0F,0xFF
17.123213833333335,,0x37,0xDF
17.124656625000000,,0xCF,0xFF
17.126082958333335,,0xFF,0xBD
17.127525750000000,,0xF0,0xFF
17.128952083333335,,0xE8,0xFF
17.130394916666667,,0xF7,0xFF
17.131821250000002,,0xE6,0xB2
17.133264041666667,,0xF1,0xFF
17.134690375000002,,0xE6,0xD5
17.136133166666667,,0xF1,0xFF
17.137559499999998,,0xE8,0xA8
17.139002291666667,,0xE7,0xFF
17.140428624999998,,0xFA,0xD5
17.141871416666667,,0xE5,0xFE
17.143297791666665,,0xEE,0xC0
17.144740583333334,,0xE1,0xFE
17.146166916666665,,0xF8,0xD6
17.147609708333334,,0xE7,0xFC
17.149036041666665,,0x57,0x71
17.150478833333334,,0xA8,0xF8
17.151905208333332,,0x28,0x59
17.153347958333335,,0xD7,0xF4
17.154774333333332,,0xFF,0x13
17.156217083333335,,0x00,0xE0
17.157643458333332,,0x02,0x10
17.159086250000001,,0xFD,0x80
17.160512624999999,,0x7F,0x03
17.161955375000002,,0x80,0x00
17.163381749999999,,0xAA,0x00
17.164824500000002,,0x55,0x01
17.166250874999999,,0xAF,0x00
17.167693624999998,,0x50,0x00
17.169119999999999,,0x1B,0x45
17.170562749999998,,0xE4,0x00
17.171989166666666,,0x76,0x9B
17.173431916666665,,0x89,0x7F
17.174858291666666,,0x82,0x95
17.176301041666665,,0x7D,0x7F
17.177727416666666,,0xEF,0x8C
17.179170166666665,,0x10,0x7F
17.180657624999998,,0xA8,0xF7
17.182100333333334,,0x57,0x7F
17.183526749999999,,0xED,0x04
17.184969500000001,,0x12,0xFF
17.186395874999999,,0xA8,0x57
17.187838625000001,,0xD7,0xFF
17.189265041666665,,0xB9,0x89
17.190707750000001,,0xC6,0x77
17.192134166666666,,0xEC,0x9D
17.193576875000002,,0x13,0x67
17.195003291666666,,0x6F,0x6D
17.196446000000002,,0x87,0xFF
17.197872458333332,,0x37,0xFD
17.199315166666668,,0xC7,0xFF
17.200741583333333,,0xB3,0xA7
17.202184291666665,,0x47,0xFF
17.203610708333333,,0x23,0xD5
17.205053416666665,,0xD7,0xFF
17.206479833333333,,0x57,0x01
17.207922541666665,,0xA3,0xFF
17.209349000000000,,0xAF,0x77
17.210791708333332,,0x53,0xFF
17.212218125000000,,0xBF,0x01
17.213660833333332,,0x43,0xFF
17.215087250000000,,0x03,0x5D
17.216529958333332,,0xF7,0xFF
17.217956416666667,,0xF7,0x82
17.219399083333332,,0xE0,0xFC
17.220825541666667,,0xC2,0xD7
17.222268208333332,,0xF5,0xFC
17.223694666666667,,0xCD,0x81
17.225137374999999,,0xF2,0xFC
17.226563833333334,,0xFF,0xC2
17.228006499999999,,0xF0,0xFD
17.229432958333334,,0xF2,0x83
17.230875624999999,,0xF9,0xFC
17.232302083333334,,0xF2,0x88
17.233744750000000,,0xFD,0xF7
17.235171250000000,,0xFA,0xF0
17.236613875000000,,0xFC,0x80
17.238040375000001,,0xDC,0xD2
17.239483041666666,,0xFF,0x84
17.240909500000001,,0x4F,0x34
17.242352166666667,,0xB0,0x42
17.243778625000001,,0xA8,0x74
17.245221291666667,,0x55,0xC9
17.246647791666668,,0x77,0x09
17.248090416666667,,0x88,0xF0
17.249516916666668,,0x22,0x13
17.250959541666667,,0xDD,0xF0
17.252386041666668,,0x0E,0x53
17.253828708333334,,0xF1,0xA0
17.255255208333335,,0x8A,0x80
17.256697833333334,,0x75,0x73
17.258124333333335,,0xB0,0x51
17.259566958333334,,0x4F,0x20
17.260993458333335,,0x31,0x51
17.262436083333334,,0x4F,0x20
17.263862625000002,,0xB9,0x96
17.265305250000001,,0x46,0x61
17.266731750000002,,0xAA,0x80
17.268174375000001,,0x55,0x71
17.269600874999998,,0xCB,0x92
17.271043500000001,,0x34,0x61
17.272469999999998,,0x04,0xCC
17.273912625000001,,0xFB,0x73
17.275339166666665,,0xB9,0x94
17.276781750000001,,0x46,0x63
17.278208291666665,,0xA8,0xD4
17.279650916666668,,0x57,0x61
17.281138458333334,,0x87,0x5C
17.282581083333334,,0x78,0x20
17.284007625000001,,0xA7,0x52
17.285450208333334,,0x58,0xFD
17.286876750000001,,0x73,0x83
17.288319333333334,,0x87,0xFF
17.289745875000001,,0xB3,0xD5
17.291188500000001,,0x47,0xFF
17.292615041666668,,0x7B,0x01
17.294057625000001,,0x87,0xFF
17.295484166666668,,0x7F,0xD5
17.296926750000001,,0x87,0x7F
17.298353291666668,,0x77,0x81
17.299795875000001,,0x8F,0x3F
17.301222458333335,,0xEF,0x37
17.302665000000001,,0x1F,0xDF
17.304091583333335,,0x3F,0xAB
17.305534166666668,,0x1F,0xDF
17.306960708333332,,0x1F,0x1F
17.308403291666668,,0x7F,0xFF
17.309829833333332,,0xFE,0xA2
17.311272416666668,,0xFF,0x80
17.312698999999999,,0xFF,0xFF
17.314141541666668,,0xFF,0x80
17.315568124999999,,0xFB,0xFE
17.317010666666668,,0xFF,0x81
17.318437249999999,,0xFF,0xFF
17.319879833333335,,0xFF,0xFF
17.321306416666665,,0x00,0x00
17.322748958333332,,0x00,0x00
17.324175541666666,,0x00,0x00
17.325618083333332,,0x00,0x00
17.327044666666666,,0x00,0x00
17.328487208333332,,0x00,0x00
17.329913833333332,,0x00,0x00
17.331356374999999,,0x00,0x00
17.332782958333333,,0xFC,0x40
17.334225499999999,,0x03,0x20
17.335652083333333,,0xB6,0x80
17.337094624999999,,0xC1,0x71
17.338521208333333,,0xE7,0x10
17.339963749999999,,0xF8,0xE1
17.341390375000000,,0xFF,0xFF
17.342832874999999,,0xFF,0xFF
17.344259500000000,,0x00,0x00
17.345702041666666,,0x00,0x00
17.347128625000000,,0x00,0x00
17.348571166666666,,0x00,0x00
17.349997791666667,,0x00,0x00
17.351440291666666,,0x00,0x00
17.352866916666667,,0x00,0x00
17.354309416666666,,0x00,0x00
17.355736041666667,,0xBE,0x00
17.357178541666666,,0x40,0xFF
17.358605208333334,,0xB6,0x55
17.360047708333333,,0x41,0xFF
17.361474333333334,,0xF3,0x00
17.362916833333333,,0x0F,0xFF
17.364343458333334,,0xFF,0xFF
17.365785958333333,,0xFF,0xFF
17.367212625000001,,0x00,0x00
17.368655083333334,,0x00,0x00
17.370081750000001,,0x00,0x00
17.371524208333334,,0x00,0x00
17.372950875000001,,0x00,0x00
17.374393375000000,,0x00,0x00
17.375820000000001,,0x00,0x00
17.377262500000001,,0x00,0x00
17.378689166666668,,0x7F,0x41
17.380131625000001,,0xFF,0xFF
17.381619333333333,,0xFF,0xF5
17.383061791666666,,0xFF,0xFF
17.384488458333333,,0xFF,0x09
17.385930958333333,,0xFF,0xFF
17.387357625000000,,0xFF,0xFF
17.388800083333333,,0xFF,0xFF
17.390226750000000,,0x00,0x00
17.391669208333333,,0x00,0x00
17.393095875000000,,0x00,0x00
17.394538333333333,,0x00,0x00
17.395965041666667,,0x00,0x00
17.397407458333333,,0x00,0x00
17.398834166666667,,0x00,0x00
17.400276625000000,,0x00,0x00
17.401703291666667,,0xFF,0xFF
17.403145750000000,,0xFF,0xFF
17.404572416666667,,0xFF,0xFD
17.406014875000000,,0xFF,0xFF
17.407441583333334,,0xFF,0xC6
17.408884000000000,,0xFF,0xB9
17.410310708333334,,0xFF,0xE2
17.411753166666667,,0xFF,0x9D
17.413179833333334,,0xFE,0xE3
17.414622291666667,,0xFF,0x90
17.416049000000001,,0xFF,0xE3
17.417491416666667,,0xFC,0x94
17.418918125000001,,0xF6,0xBF
17.420360541666668,,0xF8,0x80
17.421787250000001,,0xF5,0x85
17.423229666666668,,0xF8,0xB2
17.424656416666668,,0xFF,0xFF
17.426098833333334,,0xFF,0xFF
17.427525541666668,,0xF2,0xCD
17.428967958333335,,0xFD,0x12
17.430394666666668,,0xD4,0xDF
17.431837083333335,,0xE3,0x00
17.433263833333335,,0x0F,0x04
17.434706208333335,,0xF0,0xD1
17.436132958333335,,0x30,0xB3
17.437575333333335,,0x00,0x00
17.439002083333332,,0x2E,0x8F
17.440444500000002,,0x41,0x74
17.441871208333332,,0x8C,0x38
17.443313624999998,,0x43,0x07
17.444740374999999,,0x57,0x73
17.446182749999998,,0x81,0x0C
17.447609499999999,,0xFF,0xFF
17.449051874999999,,0xFF,0xFF
17.450478624999999,,0xA7,0xE0
17.451920999999999,,0x5F,0x13
17.453347791666666,,0x1D,0xFA
17.454790166666665,,0xE3,0x05
17.456216916666666,,0xD8,0x1E
17.457659291666666,,0x07,0x01
17.459086041666666,,0x84,0x63
17.460528416666666,,0x02,0x04
17.461955208333332,,0x36,0xBC
17.463397541666666,,0xC1,0x40
17.464824333333333,,0x1D,0xB8
17.466266708333333,,0xE0,0x40
17.467693458333333,,0x41,0xA3
17.469135833333333,,0xF0,0x5C
17.470562583333333,,0xFF,0xFF
17.472004958333333,,0xFF,0xFF
17.473431750000000,,0xFF,0xAB
17.474874083333333,,0xFF,0x55
17.476300875000000,,0xFF,0xAF
17.477743208333333,,0xFF,0x11
17.479170000000000,,0x7F,0x57
17.480612375000000,,0xFF,0x09
17.482100208333332,,0x1F,0xAB
17.483542541666665,,0x7F,0x45
17.484969333333332,,0x6F,0xCB
17.486411666666665,,0x1F,0x05
17.487838458333332,,0x67,0x5B
17.489280791666665,,0x8F,0x05
17.490707624999999,,0x5F,0x3D
17.492149958333332,,0x87,0x43
17.493576749999999,,0xE8,0x9C
17.495019083333332,,0xF0,0xA2
17.496445874999999,,0xED,0x8D
17.497888208333332,,0xF0,0xF2
17.499315041666666,,0xF1,0x86
17.500757333333333,,0xE0,0xE8
17.502184166666666,,0xED,0x98
17.503626458333333,,0xF0,0xC4
17.505053291666666,,0xE1,0xBF
17.506495624999999,,0xF0,0x80
17.507922458333333,,0xF4,0xEE
17.509364750000000,,0xF3,0x91
17.510791583333333,,0xF1,0xFD
17.512233875000000,,0xFE,0x80
17.513660708333333,,0xF0,0xA4
17.515103000000000,,0xFC,0xDB
17.516529833333333,,0x0F,0x2E
17.517972125000000,,0x80,0x51
17.519399000000000,,0x04,0x9B
17.520841291666667,,0x80,0x64
17.522268125000000,,0x80,0x1C
17.523710416666667,,0x00,0x20
17.525137250000000,,0x14,0x9E
17.526579541666667,,0x80,0x60
17.528006416666667,,0x80,0x3E
17.529448666666667,,0x00,0xC0
17.530875541666667,,0xA3,0x97
17.532317833333334,,0x40,0x60
17.533744666666667,,0x90,0xB2
17.535186958333334,,0x60,0x08
17.536613833333334,,0x19,0xD9
17.538056083333334,,0x74,0x26
17.539482958333334,,0xF0,0xFA
17.540925208333334,,0x00,0x04
17.542352083333334,,0x20,0xCB
17.543794333333334,,0x10,0x14
17.545221208333334,,0x0A,0x38
17.546663500000001,,0x00,0x06
17.548090375000001,,0x14,0x1C
17.549532625000001,,0x00,0x03
17.550959500000001,,0x09,0x39
17.552401750000001,,0x00,0x06
17.553828625000001,,0x66,0x31
17.555270875000001,,0x01,0x0E
17.556697791666668,,0x84,0xBD
17.558140000000002,,0x03,0x02
17.559566916666668,,0x58,0x8F
17.561009166666668,,0x07,0x74
17.562436041666668,,0x0F,0x97
17.563878291666665,,0xC3,0x49
17.565305208333335,,0xD3,0xBD
17.566747416666665,,0x47,0x01
17.568174333333332,,0x9B,0x1D
17.569616541666665,,0x47,0x01
17.571043458333332,,0xEB,0x09
17.572485666666665,,0x47,0x95
17.573912583333332,,0x53,0x95
17.575354833333332,,0xA7,0x01
17.576781749999999,,0x1F,0x71
17.578223958333332,,0xF7,0x09
17.579650874999999,,0x67,0x4D
17.581093083333332,,0x9F,0x23
17.582581041666668,,0x9F,0xAB
17.584023250000001,,0x07,0x05
17.585450208333334,,0xF0,0xEE
17.586892416666668,,0xF8,0x90
17.588319333333335,,0xFD,0xE7
17.589761541666668,,0xF8,0xD8
17.591188458333335,,0xFC,0xB5
17.592630666666668,,0xF8,0xC2
17.594057625000001,,0xF9,0x93
17.595499791666665,,0xFC,0xE4
17.596926750000002,,0xFB,0x8B
17.598368916666665,,0xFC,0xE4
17.599795875000002,,0xFC,0xD9
17.601238083333332,,0xFF,0xE4
17.602665041666668,,0xFC,0x9B
17.604107208333332,,0xFF,0xE0
17.605534166666665,,0xFF,0x80
17.606976333333332,,0xFF,0xDF
17.608403291666665,,0x2B,0x77
17.609845458333332,,0x1C,0x08
17.611272416666665,,0x10,0x21
17.612714624999999,,0x0F,0x5E
17.614141583333332,,0x8C,0x5D
17.615583749999999,,0x03,0x02
17.617010708333332,,0xF6,0xB7
17.618452874999999,,0x01,0x04
17.619879833333332,,0xFB,0x5A
17.621321999999999,,0x00,0xA4
17.622748999999999,,0x74,0x74
17.624191124999999,,0x81,0x80
17.625618124999999,,0x79,0x77
17.627060291666666,,0x80,0x80
17.628487249999999,,0x30,0x6E
17.629929416666666,,0xC5,0xD1
17.631356416666666,,0x20,0x63
17.632798541666666,,0x1F,0x9C
17.634225541666666,,0x97,0x8B
17.635667666666667,,0x78,0x74
17.637094666666666,,0xC9,0x3C
17.638536791666667,,0x30,0xC0
17.639963791666666,,0x32,0x05
17.641405958333333,,0xC1,0x72
17.642832958333333,,0x27,0x31
17.644275083333333,,0xC0,0x02
17.645702083333333,,0x37,0xE3
17.647144208333334,,0xC0,0x04
17.648571208333333,,0x07,0x2A
17.650013333333334,,0xC0,0x85
17.651440375000000,,0x7C,0x8F
17.652882458333334,,0xC1,0x70
17.654309500000000,,0x2F,0x3F
17.655751625000001,,0x07,0x01
17.657178625000000,,0xC7,0x33
17.658620750000001,,0x1F,0x05
17.660047791666667,,0xE7,0x7B
17.661489875000001,,0x0F,0x01
17.662916916666667,,0xD7,0x03
17.664359000000001,,0x0F,0xD1
17.665786041666667,,0xFF,0xF1
17.667228166666668,,0x0F,0x03
17.668655208333334,,0xDF,0x91
17.670097291666668,,0x7F,0x47
17.671524333333334,,0xBF,0x51
17.672966416666668,,0x7F,0xAD
17.674393458333334,,0x7F,0x47
17.675835541666668,,0xFF,0xB9
17.677262583333334,,0xFF,0xB0
17.678704666666668,,0xFF,0x8F
17.680131750000001,,0xFF,0xA1
17.681573833333335,,0xFF,0x97
17.683061916666666,,0xFF,0xA4
17.684504000000000,,0xFF,0x83
17.685931041666667,,0xFF,0xFF
17.687373125000001,,0xFF,0xFF
17.688800208333333,,0x00,0x00
17.690242250000001,,0x00,0x00
17.691669333333333,,0x00,0x00
17.693111416666667,,0x00,0x00
17.694538458333334,,0x00,0x00
17.695980541666668,,0x00,0x00
17.697407625000000,,0x00,0x00
17.698849666666668,,0x00,0x00
17.700276750000000,,0x99,0x5C
17.701718791666668,,0xE4,0x81
17.703145875000001,,0xF5,0x26
17.704587916666668,,0xC0,0xD9
17.706015041666667,,0xE3,0x78
17.707457083333335,,0xFC,0x81
17.708884166666667,,0xFF,0xFF
17.710326208333335,,0xFF,0xFF
17.711753291666668,,0x00,0x00
17.713195333333335,,0x00,0x00
17.714622416666668,,0x00,0x00
17.716064458333335,,0x00,0x00
17.717491583333334,,0x00,0x00
17.718933583333332,,0x00,0x00
17.720360708333335,,0x00,0x00
17.721802749999998,,0x00,0x00
17.723229833333335,,0x29,0xFA
17.724671874999999,,0xC0,0x04
17.726099000000001,,0x3E,0x58
17.727540999999999,,0xC1,0xC4
17.728968125000002,,0x73,0xB9
17.730410124999999,,0x0F,0x40
17.731837250000002,,0xFF,0xFF
17.733279249999999,,0xFF,0xFF
17.734706416666668,,0x00,0x00
17.736148416666666,,0x00,0x00
17.737575541666665,,0x00,0x00
17.739017541666666,,0x00,0x00
17.740444666666665,,0x00,0x00
17.741886666666666,,0x00,0x00
17.743313833333332,,0x00,0x00
17.744755791666666,,0x00,0x00
17.746182958333332,,0x7F,0x0D
17.747624958333333,,0xFF,0xF1
17.749052083333332,,0x7F,0x4D
17.750494083333333,,0xFF,0xF1
17.751921208333332,,0xFF,0x3F
17.753363208333333,,0xFF,0xC1
17.754790374999999,,0xFF,0xFF
17.756232333333333,,0xFF,0xFF
17.757659499999999,,0x00,0x00
17.759101458333333,,0x00,0x00
17.760528624999999,,0x00,0x00
17.761970625000000,,0x00,0x00
17.763397791666666,,0x00,0x00
17.764839750000000,,0x00,0x00
17.766266916666666,,0x00,0x00
17.767708875000000,,0x00,0x00
17.769136041666666,,0xFF,0xFF
17.770578000000000,,0xFF,0xFF
17.772005208333333,,0xDC,0xD5
17.773447125000001,,0x80,0xFF
17.774874333333333,,0x90,0x80
17.776316291666667,,0x80,0xFF
17.777743458333333,,0xF4,0xD4
17.779185416666667,,0x80,0xFF
17.780612583333333,,0xFC,0x81
17.782054541666668,,0x83,0xFE
17.783481750000000,,0xC0,0xC1
17.784923666666668,,0x87,0xFE
17.786350875000000,,0x88,0x87
17.787792833333334,,0x87,0xF8
17.789220000000000,,0xD5,0xC3
17.790661958333335,,0x8F,0xFC
17.792089166666667,,0xFF,0xFF
17.793531083333335,,0xFF,0xFF
17.794958291666667,,0x44,0x40
17.796400208333335,,0x00,0xFF
17.797827416666667,,0x20,0x10
17.799269333333335,,0x00,0xEF
17.800696583333334,,0x97,0xF9
17.802138500000002,,0x78,0x00
17.803565708333334,,0x01,0xFF
17.805007624999998,,0xFE,0x00
17.806434833333334,,0x19,0x51
17.807876749999998,,0xE7,0x84
17.809304000000001,,0x20,0xDA
17.810745874999999,,0x80,0x05
17.812173125000001,,0x74,0x0B
17.813614999999999,,0x80,0x34
17.815042250000001,,0xFF,0xFF
17.816484166666665,,0xFF,0xFF
17.817911375000001,,0x85,0x85
17.819353291666665,,0x1F,0x7F
17.820780541666668,,0xC3,0x40
17.822222416666666,,0x3F,0xBF
17.823649666666668,,0x17,0x41
17.825091541666666,,0x7F,0xBF
17.826518791666668,,0xA6,0xF0
17.827960666666666,,0x7F,0x0F
17.829387958333335,,0x55,0x2D
17.830829833333333,,0xFF,0xD7
17.832257083333332,,0x02,0xA8
17.833698958333333,,0xFC,0x17
17.835126208333332,,0x50,0x30
17.836568083333333,,0xFC,0x4F
17.837995333333332,,0xFF,0xFF
17.839437208333333,,0xFF,0xFF
17.840864499999999,,0x21,0xDF
17.842306375000000,,0xC1,0xFF
17.843733624999999,,0x91,0x03
17.845175500000000,,0xE1,0xFF
17.846602749999999,,0x41,0x15
17.848044625000000,,0xF1,0xFF
17.849471916666666,,0x19,0x41
17.850913750000000,,0xE1,0xBF
17.852341041666666,,0x09,0xB3
17.853782875000000,,0xF1,0x5D
17.855210166666666,,0x99,0x49
17.856652041666667,,0x61,0xB1
17.858079333333333,,0x29,0xA9
17.859521166666667,,0x51,0x51
17.860948458333333,,0xD4,0x87
17.862390291666667,,0x8F,0xF8
17.863817583333333,,0xA4,0x83
17.865259416666667,,0xDF,0xFC
17.866686750000000,,0xC0,0x8F
17.868128541666668,,0xBF,0xF0
17.869555875000000,,0xD4,0xCB
17.870997708333334,,0xFF,0xF4
17.872425000000000,,0x89,0xBD
17.873866833333334,,0xF6,0xC2
17.875294125000000,,0xCC,0xC5
17.876735958333335,,0xF7,0xFE
17.878163291666667,,0x80,0xA3
17.879605083333335,,0xFF,0xDC
17.881032416666667,,0xDC,0xD0
17.882474250000001,,0xFF,0xEF
17.883962583333332,,0x1E,0xB6
17.885404416666667,,0xE0,0x08
17.886831749999999,,0x0E,0x2B
17.888273541666667,,0xF1,0x14
17.889700874999999,,0x94,0x31
17.891142666666667,,0x60,0x0C
17.892569999999999,,0x4B,0x53
17.894011791666667,,0x94,0x84
17.895439166666666,,0xD7,0xB7
17.896880958333334,,0x08,0x00
17.898308291666666,,0xEC,0x7F
17.899750083333334,,0x10,0x80
17.901177416666666,,0xBC,0xD0
17.902619208333334,,0x00,0x09
17.904046583333333,,0x8A,0xD9
17.905488333333334,,0x74,0x67
17.906915708333333,,0x86,0x7D
17.908357458333334,,0x78,0x02
17.909784833333333,,0x9F,0x62
17.911226625000001,,0x70,0x1D
17.912653958333333,,0xEE,0x72
17.914095750000001,,0x10,0x8C
17.915523125000000,,0xBF,0x8F
17.916964875000001,,0x10,0x54
17.918392250000000,,0xAB,0xF0
17.919834000000002,,0x10,0x1C
17.921261375000000,,0x46,0xE3
17.922703166666668,,0x19,0x5C
17.924130541666667,,0x17,0xC5
17.925572291666668,,0x08,0x38
17.926999666666667,,0x43,0x87
17.928441416666665,,0x1C,0x78
17.929868791666667,,0xF1,0xE9
17.931310541666665,,0x01,0x11
17.932737958333334,,0xF1,0xDD
17.934179666666665,,0x01,0x01
17.935607083333334,,0x01,0x79
17.937048833333332,,0x01,0x01
17.938476208333334,,0xD1,0x99
17.939917958333332,,0x01,0x07
17.941345333333334,,0x01,0x49
17.942787083333332,,0x01,0x07
17.944214500000001,,0xC1,0x51
17.945656208333332,,0x01,0x07
17.947083625000001,,0x01,0xE5
17.948525333333333,,0x01,0x03
17.949952750000001,,0x11,0x51
17.951394499999999,,0x01,0x07
17.952821916666668,,0x89,0xD4
17.954263624999999,,0xFE,0xAB
17.955691041666668,,0xDD,0xDD
17.957132750000000,,0xFF,0xFF
17.958560166666668,,0x98,0x91
17.960001875000000,,0xFF,0xEE
17.961429333333335,,0xDC,0xCA
17.962871041666666,,0xFF,0xF5
17.964298458333332,,0xCA,0x9B
17.965740166666667,,0xFC,0xE4
17.967167583333332,,0xD2,0xEA
17.968609291666667,,0xFC,0xF5
17.970036708333332,,0x8B,0xCB
17.971478416666667,,0xF0,0xF4
17.972905874999999,,0xCD,0xD3
17.974347541666667,,0xF0,0xFC
17.975774999999999,,0x7F,0x58
17.977216708333334,,0x00,0xA7
17.978644124999999,,0x85,0x54
17.980085833333334,,0x40,0xFF
17.981513291666666,,0x2A,0x18
17.982954958333334,,0xC1,0xE7
17.984443458333335,,0x41,0xFF
17.985885124999999,,0xFF,0x00
17.987312583333335,,0x40,0xDA
17.988754250000000,,0x3F,0x01
17.990181750000001,,0x04,0x57
17.991623416666666,,0x1F,0x00
17.993050875000002,,0x30,0x6E
17.994492541666666,,0x0E,0x00
17.995920000000002,,0x4F,0x1F
17.997361666666666,,0x14,0x00
17.998789166666668,,0xEC,0x03
18.000230791666667,,0x10,0xFC
18.001658291666665,,0x04,0x91
18.003099958333333,,0xF0,0x7C
18.004527416666665,,0x60,0x40
18.005969083333333,,0x80,0xBE
18.007396583333332,,0x52,0x87
18.008838208333334,,0x80,0x7C
18.010265708333332,,0x80,0xD7
18.011707333333334,,0x00,0x08
18.013134833333332,,0xC0,0x51
18.014576458333334,,0x00,0x06
18.016003958333332,,0xC0,0xCA
18.017445625000001,,0x00,0x01
18.018873124999999,,0x41,0xD0
18.020314750000001,,0x00,0x07
18.021742249999999,,0x01,0xE1
18.023183875000001,,0x01,0x07
18.024611374999999,,0x51,0x5B
18.026053000000001,,0x01,0x05
18.027480541666666,,0x01,0x2B
18.028922125000001,,0x01,0x05
18.030349666666666,,0x41,0xF5
18.031791291666668,,0x01,0x0F
18.033218791666666,,0x01,0x51
18.034660416666668,,0x01,0x0F
18.036087958333333,,0x51,0x65
18.037529541666668,,0x01,0x9F
18.038957083333333,,0x01,0xF3
18.040398666666668,,0x01,0x0F
18.041826208333333,,0x41,0x85
18.043267833333335,,0x01,0x7F
18.044695333333333,,0x8C,0x81
18.046136958333335,,0xF0,0xFE
18.047564500000000,,0xC3,0xD5
18.049006083333332,,0xFC,0xFE
18.050433625000000,,0x8E,0x81
18.051875208333332,,0xF0,0xFE
18.053302750000000,,0xFF,0xFF
18.054744333333332,,0xFF,0xFF
18.056171916666667,,0x00,0x00
18.057613499999999,,0x00,0x00
18.059041041666667,,0x00,0x00
18.060482624999999,,0x00,0x00
18.061910166666667,,0x00,0x00
18.063351749999999,,0x00,0x00
18.064779333333334,,0x00,0x00
18.066220874999999,,0x00,0x00
18.067648458333334,,0x1C,0x4F
18.069089999999999,,0x00,0x00
18.070517583333334,,0x71,0x85
18.071959166666666,,0x0C,0x00
18.073386708333334,,0x30,0x80
18.074828291666666,,0x0C,0x00
18.076255875000001,,0xFF,0xFF
18.077697416666666,,0xFF,0xFF
18.079125000000001,,0x00,0x00
18.080566541666666,,0x00,0x00
18.081994125000001,,0x00,0x00
18.083435666666666,,0x00,0x00
18.084924333333333,,0x00,0x00
18.086365874999998,,0x00,0x00
18.087793458333334,,0x00,0x00
18.089234999999999,,0x00,0x00
18.090662583333334,,0x00,0x08
18.092104124999999,,0x00,0x01
18.093531750000000,,0x50,0x37
18.094973249999999,,0x00,0x00
18.096400875000000,,0x00,0x0F
18.097842416666666,,0x00,0x00
18.099270000000001,,0xFF,0xFF
18.100711541666666,,0xFF,0xFF
18.102139166666667,,0x00,0x00
18.103580666666666,,0x00,0x00
18.105008291666667,,0x00,0x00
18.106449791666666,,0x00,0x00
18.107877416666668,,0x00,0x00
18.109318916666666,,0x00,0x00
18.110746541666668,,0x00,0x00
18.112188083333333,,0x00,0x00
18.113615708333334,,0x01,0x61
18.115057208333333,,0x01,0x9F
18.116484833333335,,0x05,0x05
18.117926333333333,,0x01,0xFF
18.119353958333335,,0x01,0x81
18.120795458333333,,0x01,0x7F
18.122223125000001,,0xFF,0xFF
18.123664625000000,,0xFF,0xFF
18.125092250000002,,0x00,0x00
18.126533750000000,,0x00,0x00
18.127961375000002,,0x00,0x00
18.129402875000000,,0x00,0x00
18.130830541666668,,0x00,0x00
18.132272000000000,,0x00,0x00
18.133699666666665,,0x00,0x00
18.135141125000001,,0x00,0x00
21.812515999999999,,0xFF,0x00
21.813887500000000,,0x00,0x9B
21.815324083333334,,0x00,0x00
21.816695583333335,,0x00,0x00
21.818071124999999,,0x00,0x00
21.819625791666667,,0x00,0x00
21.821001333333335,,0x00,0x00
21.822372833333333,,0x00,0x00
21.823748375000001,,0x00,0x00
21.825119874999999,,0x00,0x00
21.826495416666667,,0x00,0x00
21.827866916666668,,0x00,0x00
21.829242458333333,,0x00,0x00
21.830613958333334,,0x00,0x00
21.831989499999999,,0x00,0x00
21.833361000000000,,0x00,0x00
21.834736541666668,,0x00,0x00
21.836108041666666,,0x00,0x00
21.837483583333334,,0x00,0x00
21.838855083333332,,0x00,0x00
21.840230625000000,,0x00,0x00
21.841602166666668,,0x00,0x00
21.842977666666666,,0x00,0x00
21.844410249999999,,0x01,0x00
21.845785750000001,,0x00,0x01
21.847218333333334,,0xFF,0xFF
21.848654875000001,,0xFF,0xFF
21.850087458333334,,0xFF,0xFF
21.851524000000001,,0x80,0xFF
21.853139750000000,,0xCE,0xFB
21.854576291666667,,0x80,0xFF
21.856008875000001,,0xFA,0xFC
21.857445416666668,,0x85,0xFF
21.858878000000001,,0xB8,0x80
21.860314541666668,,0x87,0xFE
21.861747166666667,,0xF5,0xBA
21.863183708333334,,0x8F,0xC4
21.864616291666668,,0xD4,0xB4
21.866052833333335,,0x8F,0xC8
21.867485416666668,,0xB7,0xA5
21.868921958333335,,0xDE,0xD8
21.870354583333334,,0xFF,0xFF
21.871791083333335,,0xFF,0xFF
21.873223708333335,,0x00,0x8D
21.874660208333335,,0x00,0xC0
21.876092833333335,,0x80,0x17
21.877529375000002,,0x00,0x88
21.878962000000001,,0x45,0x2D
21.880398499999998,,0xF8,0x10
21.881831125000001,,0x03,0xDF
21.883267624999998,,0xFC,0x20
21.884700250000002,,0xC0,0x09
21.886136749999999,,0x07,0x74
21.887569375000002,,0x64,0xB0
21.889005874999999,,0x01,0x48
21.890438541666665,,0x3C,0x29
21.891875041666665,,0x41,0xD0
21.893307666666665,,0xFF,0xFF
21.894744166666666,,0xFF,0xFF
21.896176791666665,,0x27,0x7C
21.897613291666666,,0x1F,0x00
21.899045958333332,,0x43,0xE0
21.900482416666666,,0x3F,0x1C
21.901915083333332,,0x15,0xEB
21.903351583333333,,0x7F,0x14
21.904784208333332,,0x96,0xFD
21.906220708333333,,0x78,0x02
21.907653374999999,,0x93,0x0E
21.909089833333333,,0x7C,0x11
21.910522499999999,,0x83,0x83
21.911958958333333,,0x7C,0x08
21.913391624999999,,0x90,0xC7
21.914828083333333,,0x7D,0x18
21.916260749999999,,0xFF,0xFF
21.917697250000000,,0xFF,0xFF
21.919129916666666,,0xD1,0xC5
21.920566375000000,,0xE1,0x7F
21.921999041666666,,0x91,0x01
21.923435500000000,,0xE1,0x7F
21.924868166666666,,0x49,0x15
21.926304625000000,,0xF1,0x3F
21.927737333333333,,0x89,0x21
21.929173750000000,,0x71,0x1F
21.930606458333333,,0x49,0x15
21.932042916666667,,0x15,0x0F
21.933475583333333,,0x9D,0x09
21.934912041666667,,0x01,0x87
21.936405791666665,,0xB5,0x5D
21.937842208333333,,0x41,0x87
21.939274916666665,,0xAD,0xF0
21.940711333333333,,0x9E,0x88
21.942144041666666,,0x94,0x88
21.943580499999999,,0xFF,0xE4
21.945013208333332,,0x81,0xC8
21.946449625000000,,0xFE,0xA4
21.947882333333332,,0xDC,0xB0
21.949318750000000,,0xFF,0xC4
21.950751458333333,,0x88,0x99
21.952187875000000,,0xFE,0xC2
21.953620583333333,,0xC5,0x99
21.955057000000000,,0xFE,0xC2
21.956489749999999,,0xD0,0xAA
21.957926166666667,,0xEE,0x81
21.959358875000000,,0xD4,0xE5
21.960795291666667,,0xFE,0x81
21.962228000000000,,0xF7,0x11
21.963664416666667,,0x00,0x48
21.965097166666666,,0x92,0x33
21.966533541666667,,0x65,0x44
21.967966291666666,,0xFF,0x5F
21.969402666666667,,0x00,0x20
21.970835416666667,,0x8C,0xCF
21.972271833333334,,0x73,0x30
21.973704583333333,,0x56,0xA1
21.975140958333334,,0x28,0x18
21.976573708333333,,0x7D,0x60
21.978010083333334,,0x00,0x1F
21.979442833333334,,0x74,0x31
21.980879208333334,,0x00,0x00
21.982311958333334,,0x0B,0xF3
21.983748333333335,,0x74,0x04
21.985181125000000,,0x44,0x1E
21.986617500000001,,0x39,0x01
21.988050250000001,,0x82,0x3E
21.989486625000001,,0x7D,0x11
21.990919375000001,,0x39,0xCD
21.992355750000002,,0x06,0x32
21.993788541666667,,0x1C,0x6B
21.995224875000002,,0x07,0x14
21.996657666666668,,0x09,0xD3
21.998094041666668,,0x06,0x0C
21.999526791666668,,0x10,0x06
22.000963166666665,,0x07,0xF8
22.002395958333334,,0x01,0x8D
22.003832291666665,,0x06,0x00
22.005265083333335,,0x50,0x63
22.006701416666665,,0x07,0x04
22.008134208333335,,0x69,0x89
22.009570541666665,,0x01,0x07
22.011003375000001,,0x25,0x55
22.012439708333332,,0x01,0x0B
22.013872500000002,,0xA1,0x69
22.015308833333332,,0x01,0x11
22.016741625000002,,0x2D,0x7D
22.018177958333332,,0x11,0x11
22.019610749999998,,0x59,0x9F
22.021047083333332,,0x21,0x21
22.022479916666665,,0xF1,0x8B
22.023916208333333,,0x01,0x65
22.025349041666665,,0xE1,0xA7
22.026785374999999,,0x01,0x49
22.028218166666665,,0xD1,0x1B
22.029654499999999,,0x01,0xC1
22.031087333333332,,0xB0,0xC5
22.032523625000000,,0xFE,0x80
22.033956458333332,,0xFD,0xF1
22.035392750000000,,0xFE,0xC4
22.036886625000001,,0xFA,0x9C
22.038322958333332,,0xFF,0xC1
22.039755791666668,,0xF9,0xDE
22.041192083333332,,0xFF,0xE1
22.042624916666668,,0xF8,0xD1
22.044061208333332,,0xFD,0xE2
22.045494041666668,,0xF2,0xE0
22.046930333333332,,0xFC,0xF6
22.048363166666668,,0xF2,0xC0
22.049799458333332,,0xF8,0xF4
22.051232333333335,,0xD9,0xD4
22.052668624999999,,0xF0,0xF8
22.054101458333335,,0xE7,0x4C
22.055537749999999,,0x00,0x80
22.056970583333332,,0x84,0xD5
22.058406874999999,,0x01,0xFF
22.059839749999998,,0x34,0x06
22.061275999999999,,0xCB,0x80
22.062708874999998,,0x54,0xD4
22.064145125000000,,0xFF,0x00
22.065577999999999,,0x80,0x18
22.067014291666666,,0xFF,0x00
22.068447166666665,,0x95,0x73
22.069883416666666,,0x7F,0x1C
22.071316291666665,,0x70,0x5E
22.072752541666667,,0x0F,0x20
22.074185416666666,,0x25,0x38
22.075621666666667,,0x1B,0x44
22.077054583333332,,0x09,0x63
22.078490833333333,,0x06,0x00
22.079923708333332,,0xE3,0x11
22.081359958333334,,0x1C,0xFF
22.082792833333333,,0xC8,0x7E
22.084229083333334,,0x30,0x01
22.085661958333333,,0x55,0x4D
22.087098208333334,,0xE0,0x00
22.088531124999999,,0x20,0x0C
22.089967333333334,,0xC0,0x00
22.091400250000000,,0x20,0x65
22.092836500000001,,0xD0,0x18
22.094269375000000,,0x12,0x2B
22.095705625000001,,0xA0,0x04
22.097138541666666,,0xA4,0x19
22.098574750000001,,0x10,0x06
22.100007666666666,,0x81,0x55
22.101443875000001,,0x01,0x81
22.102876791666667,,0x41,0xE5
22.104313000000001,,0x01,0x11
22.105745958333333,,0x01,0x13
22.107182166666668,,0x01,0x81
22.108615083333333,,0x05,0x43
22.110051291666668,,0x01,0x9D
22.111484208333334,,0x01,0xAF
22.112920416666668,,0x01,0x41
22.114353375000000,,0x05,0xB3
22.115789541666668,,0x01,0x41
22.117222500000000,,0x01,0x05
22.118658666666665,,0x01,0x33
22.120091625000001,,0x55,0x73
22.121527833333332,,0x01,0x17
22.122960750000001,,0x85,0x84
22.124396958333332,,0xF8,0xF8
22.125829916666667,,0xC5,0xD6
22.127266083333332,,0xF8,0xFC
22.128699041666668,,0x8A,0x80
22.130135208333332,,0xF0,0xFF
22.131568166666668,,0xFF,0xFF
22.133004374999999,,0xFF,0xFF
22.134437333333334,,0x00,0x00
22.135873499999999,,0x00,0x00
22.137367500000000,,0x00,0x00
22.138803666666668,,0x00,0x00
22.140236625000000,,0x00,0x00
22.141672791666668,,0x00,0x00
22.143105791666667,,0x00,0x00
22.144541916666668,,0x00,0x00
22.145974916666667,,0x10,0xA8
22.147411083333335,,0x03,0x40
22.148844041666667,,0xF4,0x7D
22.150280208333335,,0x03,0x00
22.151713208333334,,0xF0,0x34
22.153149333333332,,0x03,0x00
22.154582333333334,,0xFF,0xFF
22.156018458333332,,0xFF,0xFF
22.157451458333334,,0x00,0x00
22.158887624999998,,0x00,0x00
22.160320625000001,,0x00,0x00
22.161756749999999,,0x00,0x00
22.163189750000001,,0x00,0x00
22.164625874999999,,0x00,0x00
22.166058875000001,,0x00,0x00
22.167494999999999,,0x00,0x00
22.168928000000001,,0x90,0x27
22.170364124999999,,0x00,0x10
22.171797166666668,,0x85,0xDF
22.173233291666666,,0x00,0x01
22.174666291666668,,0x80,0x31
22.176102416666666,,0x00,0x02
22.177535416666668,,0xFF,0xFF
22.178971541666666,,0xFF,0xFF
22.180404583333335,,0x00,0x00
22.181840666666666,,0x00,0x00
22.183273708333335,,0x00,0x00
22.184709791666666,,0x00,0x00
22.186142833333335,,0x00,0x00
22.187578958333333,,0x00,0x00
22.189011958333332,,0x00,0x00
22.190448083333333,,0x00,0x00
22.191881124999998,,0x01,0x11
22.193317208333333,,0x01,0x0F
22.194750249999998,,0x01,0xC5
22.196186333333333,,0x01,0x1F
22.197619374999999,,0x01,0x21
22.199055458333333,,0x01,0x1F
22.200488541666665,,0xFF,0xFF
22.201924625000000,,0xFF,0xFF
22.203357666666665,,0x00,0x00
22.204793750000000,,0x00,0x00
22.206226791666666,,0x00,0x00
22.207662875000000,,0x00,0x00
22.209095958333332,,0x00,0x00
22.210532000000001,,0x00,0x00
22.211965083333332,,0x00,0x00
22.213401166666667,,0x00,0x00
22.214834208333333,,0xFF,0xFF
22.216270291666667,,0xFF,0xFF
22.217703333333333,,0xAB,0xD4
22.219139416666668,,0xD4,0xF8
22.220572499999999,,0x85,0xE4
22.222008541666668,,0xF8,0xF8
22.223441625000000,,0x99,0xF2
22.224877666666668,,0xE4,0xFD
22.226310750000000,,0xCF,0xC0
22.227746833333335,,0x80,0xFF
22.229179916666666,,0xAB,0xF5
22.230615958333335,,0xD4,0xFF
22.232049041666667,,0xBF,0xC8
22.233485083333335,,0xF0,0xFF
22.234918166666667,,0xC2,0xD5
22.236354208333335,,0xFD,0xFF
22.237848374999999,,0xFF,0xFF
22.239284416666667,,0xFF,0xFF
22.240717499999999,,0x7D,0xDD
22.242153541666667,,0x00,0x7F
22.243586624999999,,0x10,0x00
22.245022666666667,,0x00,0xFF
22.246455791666666,,0x50,0x40
22.247891791666667,,0x00,0xFF
22.249324916666666,,0x90,0x18
22.250760916666668,,0x00,0xE7
22.252194041666666,,0xED,0x58
22.253630083333334,,0x10,0xE7
22.255063166666666,,0xFF,0x1F
22.256499208333334,,0x00,0xE0
22.257932333333333,,0xFD,0x4A
22.259368333333335,,0x00,0xF5
22.260801458333333,,0xFF,0xFF
22.262237458333335,,0xFF,0xFF
22.263670583333333,,0xD6,0x51
22.265106583333335,,0x00,0xFF
22.266539750000000,,0x02,0x00
22.267975750000002,,0x00,0xFF
22.269408875000000,,0x40,0x15
22.270844875000002,,0x00,0xFF
22.272278000000000,,0x02,0x20
22.273713999999998,,0x00,0xDF
22.275147166666667,,0xD7,0xE4
22.276583124999998,,0x00,0x1F
22.278016291666667,,0xFF,0x62
22.279452249999999,,0x00,0x9D
22.280885416666667,,0xD7,0x80
22.282321416666665,,0x00,0x7F
22.283754583333334,,0xFF,0xFF
22.285190541666665,,0xFF,0xFF
22.286623708333334,,0x51,0x57
22.288059666666665,,0x01,0xFF
22.289492833333334,,0x01,0x01
22.290928791666666,,0x01,0xFF
22.292361958333334,,0x01,0x15
22.293797958333332,,0x01,0xFF
22.295231125000001,,0x01,0x01
22.296667083333332,,0x01,0xFF
22.298100250000001,,0x41,0x11
22.299536208333333,,0x01,0xFF
22.300969375000001,,0x01,0x69
22.302405333333333,,0x01,0x97
22.303838541666668,,0x09,0x01
22.305274458333333,,0x01,0xFF
22.306707666666668,,0x9F,0x80
22.308143625000000,,0xF0,0xFF
22.309576791666668,,0xD3,0xD4
22.311012750000000,,0xFC,0xFF
22.312445916666668,,0x87,0x80
22.313881875000000,,0xF8,0xFF
22.315315083333335,,0xAA,0xD5
22.316751000000000,,0xD5,0xFF
22.318184208333335,,0x83,0x80
22.319620125000000,,0xFC,0xFF
22.321053333333332,,0x82,0xD5
22.322489291666667,,0xFD,0xFF
22.323922499999998,,0xBF,0x80
22.325358416666667,,0xC0,0xFF
22.326791624999998,,0xAA,0xD4
22.328227541666667,,0xD5,0xFF
22.329660749999999,,0xFA,0x1F
22.331096666666667,,0x00,0xE0
22.332529916666665,,0xFD,0x77
22.333965791666667,,0x00,0xC0
22.335399041666665,,0xFE,0x39
22.336834958333334,,0x00,0xC0
22.338268166666666,,0xFF,0x35
22.339704083333334,,0x00,0xC0
22.341137333333332,,0xFF,0x20
22.342573208333334,,0x00,0xC0
22.344006458333332,,0x2B,0x20
22.345442333333335,,0xD4,0xC0
22.346875583333333,,0xFF,0x20
22.348311500000001,,0x00,0xC0
22.349744708333333,,0xAA,0x00
22.351180625000001,,0x55,0xC0
22.352613874999999,,0xC2,0x62
22.354049750000001,,0x00,0x1D
22.355483000000000,,0xD7,0xA2
22.356918875000002,,0x00,0x5D
22.358352125000000,,0xC2,0x74
22.359788000000002,,0x00,0x0B
22.361221291666666,,0xB7,0x60
22.362657166666665,,0x40,0x1F
22.364090416666667,,0xFF,0x1C
22.365526291666665,,0x00,0x03
22.366959541666667,,0xBF,0x13
22.368395416666665,,0x40,0x0C
22.369828708333333,,0xE2,0x1C
22.371264541666665,,0x00,0x03
22.372697833333334,,0x3E,0x18
22.374133666666665,,0xC1,0x07
22.375566958333334,,0x09,0x85
22.377002833333332,,0x01,0x7B
22.378436083333334,,0x09,0x01
22.379871958333332,,0x01,0xFF
22.381305250000000,,0x09,0x49
22.382741083333332,,0x01,0xB7
22.384174375000001,,0x09,0x29
22.385610208333333,,0x01,0xD7
22.387043500000001,,0x09,0x71
22.388479333333333,,0x01,0x8F
22.389912666666667,,0x09,0xEF
22.391348499999999,,0x01,0x11
22.392781791666668,,0x09,0x7F
22.394217625000000,,0x01,0x81
22.395650916666668,,0x5D,0xA9
22.397086750000000,,0x01,0x57
22.398520083333334,,0xFA,0x80
22.399955875000000,,0x85,0xFF
22.401389208333335,,0xA2,0xD5
22.402825041666667,,0xDD,0xFF
22.404258333333335,,0x82,0x80
22.405694166666667,,0xFD,0xFF
22.407127458333335,,0xD7,0xD1
22.408563291666667,,0xFD,0xFF
22.409996625000002,,0x83,0xC0
22.411432416666667,,0xFC,0xFF
22.412865750000002,,0xD7,0xC5
22.414301541666667,,0xF8,0xFF
22.415734874999998,,0x8F,0xE0
22.417170708333334,,0xF0,0xFF
22.418604041666665,,0xEA,0xD5
22.420039833333334,,0xF5,0xFF
22.421473166666665,,0x40,0x40
22.422908958333334,,0xFF,0x80
22.424342291666665,,0x87,0x00
22.425778083333334,,0x7F,0xC0
22.427211458333332,,0x03,0x20
22.428647208333334,,0xFF,0xC0
22.430080583333332,,0x57,0x20
22.431516375000001,,0xFF,0xC0
22.432949708333332,,0xFF,0x20
22.434385500000001,,0x00,0xC0
22.435818874999999,,0x73,0x40
22.437254625000001,,0x04,0xE0
22.438749041666668,,0xE8,0x00
22.440184791666667,,0x00,0xE0
22.441618166666668,,0xBA,0x50
22.443053958333333,,0x45,0xE0
22.444487333333335,,0x1E,0x1E
22.445923083333334,,0xE0,0x01
22.447356458333335,,0x6B,0x12
22.448792208333334,,0xF4,0x0D
22.450225583333335,,0xCF,0x1F
22.451661333333334,,0xF0,0x00
22.453094708333332,,0xCF,0x10
22.454530458333334,,0xF0,0x0F
22.455963874999998,,0x07,0x1E
22.457399625000001,,0x00,0x01
22.458832999999998,,0x50,0x00
22.460268750000001,,0x00,0x1F
22.461702124999999,,0x30,0x10
22.463137875000001,,0x00,0x0F
22.464571291666665,,0xA2,0x05
22.466007000000001,,0x5D,0x1F
22.467440416666665,,0x09,0x79
22.468876125000001,,0x01,0x87
22.470309541666666,,0x5D,0x2D
22.471745291666668,,0x01,0xD3
22.473178708333332,,0x29,0xE5
22.474614416666668,,0x11,0x1B
22.476047833333332,,0x5D,0x83
22.477483541666668,,0x31,0x7D
22.478916958333333,,0x01,0x7D
22.480352666666668,,0x01,0x83
22.481786083333333,,0x61,0x81
22.483221833333332,,0x01,0x7F
22.484655249999999,,0x23,0x45
22.486090958333332,,0x01,0xBB
22.487524375000000,,0xAB,0x01
22.488960083333332,,0x55,0xFF
22.490393500000000,,0xE8,0xEF
22.491829208333332,,0xFF,0xFF
22.493262666666666,,0xF5,0xFF
22.494698333333332,,0xFF,0xFF
22.496131791666667,,0xE0,0xFF
22.497567499999999,,0xFF,0xFF
22.499000916666667,,0xFF,0xFF
22.500436624999999,,0xFF,0xFF
22.501870083333333,,0x00,0x00
22.503305749999999,,0x00,0x00
22.504739208333334,,0x00,0x00
22.506174874999999,,0x00,0x00
22.507608333333334,,0x00,0x00
22.509043999999999,,0x00,0x00
22.510477458333334,,0x00,0x00
22.511913166666666,,0x00,0x00
22.513346625000001,,0x00,0xD0
22.514782291666666,,0xFF,0xE0
22.516215750000001,,0x40,0xF7
22.517651416666666,,0xFF,0xE0
22.519084875000001,,0x01,0xFF
22.520520541666667,,0xFE,0xE0
22.521954041666667,,0xFF,0xFF
22.523389666666667,,0xFF,0xFF
22.524823166666668,,0x00,0x00
22.526258833333333,,0x00,0x00
22.527692291666668,,0x00,0x00
22.529127958333333,,0x00,0x00
22.530561458333334,,0x00,0x00
22.531997083333334,,0x00,0x00
22.533430583333335,,0x00,0x00
22.534866208333334,,0x00,0x00
22.536299708333335,,0xFF,0x00
22.537735375000000,,0x00,0x1F
22.539229916666667,,0xAE,0xB1
22.540665541666666,,0x51,0x1F
22.542099041666667,,0xFF,0xEC
22.543534666666666,,0x00,0x1F
22.544968166666667,,0xFF,0xFF
22.546403791666666,,0xFF,0xFF
22.547837333333334,,0x00,0x00
22.549272916666666,,0x00,0x00
22.550706458333334,,0x00,0x00
22.552142083333333,,0x00,0x00
22.553575583333334,,0x00,0x00
22.555011208333333,,0x00,0x00
22.556444708333334,,0x00,0x00
22.557880333333333,,0x00,0x00
22.559313875000001,,0xFF,0x01
22.560749458333333,,0x01,0xFF
22.562183000000001,,0xFF,0x05
22.563618625000000,,0x01,0xFF
22.565052125000001,,0xFF,0x01
22.566487750000000,,0x01,0xFF
22.567921291666668,,0xFF,0xFF
22.569356875000000,,0xFF,0xFF
22.570790416666668,,0x00,0x00
22.572226000000001,,0x00,0x00
22.573659541666668,,0x00,0x00
22.575095125000001,,0x00,0x00
22.576528708333335,,0x00,0x00
22.577964291666667,,0x00,0x00
22.579397833333335,,0x00,0x00
22.580833416666668,,0x00,0x00
22.582266958333335,,0xFF,0xFF
22.583702541666668,,0xFF,0xFF
22.585136083333332,,0x85,0xFF
22.586571666666668,,0xBF,0xFF
22.588005249999998,,0x80,0xFF
22.589440791666668,,0x9F,0xFF
22.590874374999999,,0x85,0xFF
22.592309958333335,,0x9F,0xFF
22.593743499999999,,0x80,0xFF
22.595179083333335,,0x9F,0xFF
22.596612666666665,,0x81,0xFF
22.598048208333335,,0x9F,0xFF
22.599481791666665,,0x90,0xFC
22.600917333333335,,0x8F,0xFF
22.602350916666666,,0x81,0xF0
22.603786458333332,,0x9F,0xFF
22.605220083333332,,0xFF,0xFF
22.606655624999998,,0xFF,0xFF
22.608089208333332,,0xB0,0xF8
22.609524749999999,,0x40,0xFF
22.610958333333333,,0x10,0x84
22.612393874999999,,0xE0,0xFB
22.613827458333333,,0x30,0x70
22.615262999999999,,0xC0,0xFF
22.616696624999999,,0x20,0x00
22.618132166666665,,0xC0,0xFF
22.619565750000000,,0x20,0x09
22.621001291666666,,0xC0,0xF7
22.622434875000000,,0x40,0xFB
22.623870416666666,,0x80,0x04
22.625304041666666,,0x00,0xEB
22.626739541666666,,0xC0,0x14
22.628173166666667,,0xFF,0xFF
22.629608666666666,,0xFF,0xFF
22.631042291666667,,0x18,0x5F
22.632477833333333,,0x07,0xFF
22.633911458333333,,0x0C,0x01
22.635346958333333,,0x03,0xFF
22.636780583333334,,0x02,0x54
22.638216083333333,,0x05,0xFF
22.639710749999999,,0x06,0x3C
22.641146249999998,,0x01,0xFF
22.642579916666666,,0x06,0x5F
22.644015416666665,,0x01,0xFF
22.645449041666666,,0x02,0x1F
22.646884541666665,,0x01,0xFF
22.648318166666666,,0x06,0x9F
22.649753666666665,,0x01,0x7F
22.651187333333333,,0xFF,0xFF
22.652622791666666,,0xFF,0xFF
22.654056458333333,,0x47,0xFF
22.655491916666666,,0xF9,0xFF
22.656925583333333,,0x03,0xFF
22.658361083333332,,0xF1,0xFF
22.659794708333333,,0x5D,0x7F
22.661230208333333,,0xF1,0xFF
22.662663875000000,,0x0D,0x3F
22.664099333333333,,0xF1,0xFF
22.665533000000000,,0x4D,0xBF
22.666968458333333,,0xF1,0xDF
22.668402125000000,,0x09,0x23
22.669837583333333,,0xF1,0xDF
22.671271291666667,,0x4D,0x8F
22.672706750000000,,0xF1,0xF7
22.674140416666667,,0x90,0xE0
22.675575875000000,,0x8F,0xFF
22.677009541666667,,0x81,0xF0
22.678445000000000,,0x9F,0xFF
22.679878708333334,,0x80,0xF3
22.681314125000000,,0x9F,0xFC
22.682747833333334,,0xEB,0xD3
22.684183250000000,,0x94,0xFC
22.685616958333334,,0xEF,0xD7
22.687052416666667,,0x90,0xF8
22.688486083333334,,0xC0,0xD2
22.689921541666667,,0xFF,0xFD
22.691355250000001,,0x80,0xC7
22.692790666666667,,0xFF,0xF8
22.694224375000001,,0xD5,0xC7
22.695659791666667,,0xFF,0xF8
22.697093500000001,,0x40,0xFB
22.698528958333334,,0x80,0x00
22.699962666666668,,0x00,0xF7
22.701398083333334,,0xC0,0x00
22.702831791666668,,0x60,0xE0
22.704267208333334,,0x80,0x00
22.705700916666668,,0xB0,0xC0
22.707136333333334,,0x40,0x00
22.708570083333335,,0xF0,0xC0
22.710005458333335,,0x00,0x00
22.711439208333335,,0x10,0xC0
22.712874625000001,,0xE0,0x00
22.714308333333335,,0x20,0x80
22.715743750000001,,0xC0,0x00
22.717177499999998,,0x30,0xC0
22.718612875000002,,0xC0,0x00
22.720046624999998,,0x03,0xC0
22.721482000000002,,0x00,0x3F
22.722915749999999,,0x06,0xA0
22.724351124999998,,0x01,0x5F
22.725784874999999,,0x05,0x7D
22.727220291666665,,0x02,0x00
22.728654041666665,,0x03,0x19
22.730089416666665,,0x04,0x00
22.731523166666666,,0x07,0x00
22.732958541666665,,0x00,0x00
22.734392291666666,,0x00,0x01
22.735827666666665,,0x07,0x00
22.737261458333332,,0x04,0x01
22.738696791666666,,0x03,0x00
22.740191625000001,,0x07,0x01
22.741627000000001,,0x01,0x00
22.743060750000001,,0x09,0x3B
22.744496125000001,,0xF1,0xC7
22.745929916666668,,0x4D,0x1B
22.747365250000001,,0xF1,0xE7
22.748799041666668,,0x09,0x3D
22.750234375000002,,0xF1,0xC3
22.751668166666665,,0xDD,0x89
22.753103541666668,,0x21,0x77
22.754537291666665,,0x7F,0x51
22.755972666666668,,0x81,0xAF
22.757406458333332,,0x09,0x21
22.758841791666665,,0xF7,0xDF
22.760275583333332,,0x01,0xC1
22.761710916666665,,0xFF,0x3F
22.763144708333332,,0x45,0xA5
22.764580041666665,,0xFF,0x5F
22.766013874999999,,0x84,0xEF
22.767449208333332,,0xFF,0xF0
22.768882999999999,,0xD5,0xE2
22.770318333333332,,0xFF,0xF5
22.771752124999999,,0x90,0xDF
22.773187458333332,,0xFF,0xE0
22.774621291666666,,0xD5,0xEA
22.776056583333332,,0xFF,0xF5
22.777490416666666,,0xA5,0xE4
22.778925749999999,,0xDF,0xFB
22.780359541666666,,0xFD,0xFD
22.781794874999999,,0xFF,0xF3
22.783228708333333,,0xFF,0xF6
22.784663999999999,,0xFF,0xF9
22.786097833333333,,0xFF,0xFA
22.787533125000000,,0xFF,0xFD
22.788966958333333,,0x30,0x80
22.790402250000000,,0xC0,0x00
22.791836083333333,,0x30,0x8D
22.793271416666666,,0xC0,0x00
22.794705250000000,,0x10,0xFF
22.796140541666666,,0xE0,0x00
22.797574375000000,,0x40,0x2A
22.799009666666667,,0xF0,0xD5
22.800443500000000,,0x88,0x03
22.801878791666667,,0xF0,0xFC
22.803312666666667,,0xD0,0x50
22.804747916666667,,0xFF,0xFF
22.806181791666667,,0xE0,0x90
22.807617083333334,,0xFF,0xFF
22.809050916666667,,0xF7,0x74
22.810486208333334,,0xFF,0xFF
22.811920083333334,,0x06,0x01
22.813355333333334,,0x01,0x00
22.814789208333334,,0x00,0x07
22.816224458333334,,0x07,0x00
22.817658333333334,,0x00,0x07
22.819093583333334,,0x07,0x00
22.820527458333334,,0x09,0x7E
22.821962750000001,,0x07,0x01
22.823396625000001,,0x08,0x1F
22.824831875000001,,0x07,0x00
22.826265750000001,,0x15,0x6A
22.827701000000001,,0xFF,0x15
22.829134875000001,,0x37,0xBE
22.830570125000001,,0xFF,0x41
22.832004041666668,,0x5F,0x2B
22.833439291666668,,0xFF,0xD5
22.834873166666668,,0x01,0xE1
22.836308416666668,,0xFF,0x1F
22.837742291666668,,0x51,0xA5
22.839177541666668,,0xFF,0x5F
22.840672500000000,,0x03,0xF9
22.842107708333334,,0xFF,0x07
22.843541625000000,,0xD7,0x8B
22.844976833333334,,0xFF,0x77
22.846410750000000,,0x21,0x83
22.847846000000001,,0xFF,0x7F
22.849279916666667,,0x7D,0xD7
22.850715125000001,,0xFF,0x7F
22.852149041666667,,0xFB,0x03
22.853584250000001,,0xFF,0xFF
22.855018166666667,,0xFF,0x7F
22.856453375000001,,0xFF,0xFF
22.857887333333334,,0xFF,0xFE
22.859322500000001,,0xFF,0xFF
22.860756458333334,,0xFF,0xFF
22.862191666666668,,0xFF,0xFF
22.863625583333334,,0xFF,0xFF
22.865060791666668,,0xFF,0xFF
22.866494708333335,,0xFF,0xFF
22.867929916666668,,0xFF,0xFF
22.869363875000001,,0x00,0x00
22.870799041666668,,0x00,0x00
22.872233000000001,,0x00,0x00
22.873668208333335,,0x00,0x00
22.875102125000002,,0x00,0x00
22.876537333333335,,0x00,0x00
22.877971291666668,,0x00,0x00
22.879406458333332,,0x00,0x00
22.880840416666668,,0xFF,0x7C
22.882275583333332,,0xFF,0xFF
22.883709541666665,,0xFF,0xFD
22.885144708333332,,0xFF,0xFF
22.886578666666665,,0xFF,0xFC
22.888013874999999,,0xFF,0xFF
22.889447833333332,,0xFF,0xFF
22.890882999999999,,0xFF,0xFF
22.892316958333332,,0x00,0x00
22.893752124999999,,0x00,0x00
22.895186083333332,,0x00,0x00
22.896621249999999,,0x00,0x00
22.898055249999999,,0x00,0x00
22.899490374999999,,0x00,0x00
22.900924374999999,,0x00,0x00
22.902359541666666,,0x00,0x00
22.903793499999999,,0xFF,0xAC
22.905228666666666,,0xFF,0x53
22.906662666666666,,0xFF,0x2D
22.908097791666666,,0xFF,0xD7
22.909531791666666,,0xFF,0x30
22.910966916666666,,0xFF,0xCF
22.912400916666666,,0xFF,0xFF
22.913836041666666,,0xFF,0xFF
22.915270041666666,,0x00,0x00
22.916705208333333,,0x00,0x00
22.918139208333333,,0x00,0x00
22.919574333333333,,0x00,0x00
22.921008333333333,,0x00,0x00
22.922443458333333,,0x00,0x00
22.923877458333333,,0x00,0x00
22.925312583333334,,0x00,0x00
22.926746625000000,,0xFF,0x07
22.928181750000000,,0xFF,0xFF
22.929615750000000,,0xFF,0x1F
22.931050875000000,,0xFF,0xFF
22.932484875000000,,0xFF,0x7F
22.933920000000001,,0xFF,0xFF
22.935354041666667,,0xFF,0xFF
22.936789125000001,,0xFF,0xFF
22.938223166666667,,0x00,0x00
22.939658250000001,,0x00,0x00
22.941153333333332,,0x00,0x00
22.942588458333333,,0x00,0x00
22.944022499999999,,0x00,0x00
22.945457583333333,,0x00,0x00
22.946891624999999,,0x00,0x00
22.948326708333333,,0x00,0x00
22.949760749999999,,0xFF,0xFF
22.951195833333333,,0xFF,0xFF
22.952629916666666,,0xFF,0x80
22.954065000000000,,0xFF,0xFF
22.955499041666666,,0xFF,0x86
22.956934125000000,,0xFF,0xF9
22.958368166666666,,0xFF,0xA9
22.959803250000000,,0xFF,0xD6
22.961237291666666,,0xFF,0x96
22.962672375000000,,0xFF,0xE9
22.964106458333333,,0xFF,0xBF
22.965541500000000,,0xFF,0xC0
22.966975583333333,,0xFF,0x9E
22.968410666666667,,0xFF,0xE1
22.969844708333333,,0xDF,0x8F
22.971279791666667,,0xFF,0xF0
22.972713875000000,,0xFF,0xFF
22.974148916666667,,0xFF,0xFF
22.975583000000000,,0xFF,0xB6
22.977018041666668,,0xFF,0x4D
22.978452125000000,,0xFF,0x24
22.979887166666668,,0xFF,0x9B
22.981321250000001,,0xFF,0xA8
22.982756333333334,,0xFF,0x57
22.984190416666667,,0xFF,0xF9
22.985625458333335,,0xFF,0x06
22.987059541666667,,0xFF,0xB2
22.988494583333335,,0xFF,0x4D
22.989928666666668,,0xFF,0x9F
22.991363708333335,,0xFF,0x40
22.992797833333334,,0xFF,0xF2
22.994232833333335,,0xFF,0x0D
22.995666958333334,,0xFF,0xFF
22.997102000000002,,0xFF,0xFF
22.998536083333335,,0xFC,0x15
22.999971124999998,,0xFF,0xFF
23.001405250000001,,0xFA,0x00
23.002840249999998,,0xFC,0xFF
23.004274375000001,,0xFC,0x80
23.005709374999999,,0xF0,0x7F
23.007143500000002,,0xEC,0x60
23.008578541666665,,0xF0,0x9F
23.010012666666668,,0xEC,0xA0
23.011447666666665,,0xF0,0x5F
23.012881791666668,,0xFC,0xFA
23.014316791666666,,0xE0,0x05
23.015750916666665,,0xE0,0xAA
23.017185916666666,,0xF0,0x55
23.018620041666665,,0xFF,0xFF
23.020055041666666,,0xFF,0xFF
23.021489208333332,,0xAF,0x55
23.022924208333333,,0x5F,0xFF
23.024358333333332,,0x03,0x01
23.025793333333333,,0x07,0xFF
23.027227458333332,,0x05,0x1D
23.028662458333333,,0x03,0xF7
23.030096624999999,,0x03,0x11
23.031531583333333,,0x01,0xEF
23.032965749999999,,0x1B,0x23
23.034400708333333,,0x05,0xDD
23.035834874999999,,0x01,0x49
23.037269875000000,,0x0F,0xB7
23.038704041666666,,0x07,0x01
23.040139000000000,,0x0F,0xFF
23.041634208333335,,0xFF,0xBF
23.043069166666665,,0xFF,0xC0
23.044503333333335,,0xFF,0xCE
23.045938291666666,,0xFF,0xB1
23.047372500000002,,0xFF,0xB5
23.048807458333332,,0xFF,0xC0
23.050241625000002,,0xFF,0xAF
23.051676583333332,,0xFF,0xD0
23.053110749999998,,0xFC,0xFA
23.054545708333332,,0xFE,0x80
23.055979874999998,,0xFA,0xAF
23.057414833333333,,0xFC,0xD0
23.058849041666665,,0x80,0xFB
23.060283958333333,,0xF0,0x80
23.061718166666665,,0x80,0xEE
23.063153124999999,,0xC0,0x91
23.064587291666665,,0xFF,0xDF
23.066022250000000,,0xFF,0x00
23.067456458333332,,0xFF,0xFE
23.068891375000000,,0xFF,0x01
23.070325583333332,,0xA7,0x5D
23.071760500000000,,0xDF,0x00
23.073194708333332,,0x83,0x0F
23.074629625000000,,0x07,0x50
23.076063874999999,,0x03,0xAF
23.077498791666667,,0x01,0x00
23.078932999999999,,0x03,0x7C
23.080367916666667,,0x01,0x01
23.081802124999999,,0x01,0x55
23.083237041666667,,0x06,0x00
23.084671250000000,,0x04,0x7F
23.086106166666667,,0x0F,0x00
23.087540416666666,,0xF0,0xFE
23.088975333333334,,0xE0,0x01
23.090409541666666,,0xF0,0xEE
23.091844458333334,,0xE0,0x11
23.093278666666667,,0xE0,0xFF
23.094713583333334,,0xE0,0x00
23.096147833333333,,0xF4,0xDE
23.097582708333334,,0xE0,0x01
23.099016958333333,,0x80,0x59
23.100451833333334,,0xE0,0x02
23.101886083333333,,0x34,0x1F
23.103321000000001,,0xE0,0x40
23.104755250000000,,0xD0,0xF9
23.106190125000001,,0xA0,0x02
23.107624375000000,,0xE4,0xED
23.109059250000001,,0xA0,0x02
23.110493500000000,,0x03,0xD7
23.111928375000002,,0x0F,0x29
23.113362666666667,,0x19,0xAB
23.114797500000002,,0x07,0x55
23.116231791666667,,0x09,0xA9
23.117666666666668,,0x01,0x57
23.119100916666667,,0x01,0xA5
23.120535791666665,,0x0D,0x5B
23.121970041666668,,0x07,0xF5
23.123404916666665,,0x01,0x0B
23.124839208333334,,0x15,0xD7
23.126274041666665,,0x0F,0x29
23.127708333333334,,0x09,0x0B
23.129143166666665,,0x07,0xA5
23.130577458333335,,0x5D,0x5F
23.132012333333332,,0x07,0xA5
23.133446625000001,,0x80,0xFF
23.134881458333332,,0x82,0x80
23.136315750000001,,0x82,0xAF
23.137750583333332,,0x90,0xD0
23.139184875000002,,0x92,0xFF
23.140619708333332,,0x80,0x80
23.142054041666668,,0x82,0xAB
23.143488874999999,,0x80,0xD4
23.144923166666668,,0xA2,0xFF
23.146357999999999,,0x80,0x80
23.147792291666665,,0xA2,0xAA
23.149227124999999,,0x90,0xD5
23.150661416666665,,0x80,0xCF
23.152096250000000,,0x80,0xB0
23.153530583333332,,0x90,0x88
23.154965375000000,,0x80,0xF7
23.156399708333332,,0x09,0xAA
23.157834541666666,,0x06,0x00
23.159268833333332,,0x04,0xF7
23.160703666666667,,0x03,0x00
23.162137999999999,,0x09,0xD5
23.163572791666667,,0x02,0x00
23.165007124999999,,0x00,0xFE
23.166441916666667,,0x0F,0x01
23.167876249999999,,0x0D,0xFA
23.169311041666667,,0x02,0x00
23.170745416666666,,0x00,0xA1
23.172180208333334,,0x0F,0x54
23.173614541666666,,0x0C,0xEB
23.175049333333334,,0x03,0x00
23.176483666666666,,0x01,0xAB
23.177918458333334,,0x03,0x54
23.179352791666666,,0x50,0xA9
23.180787583333334,,0xA0,0x02
23.182221958333333,,0xB4,0xE3
23.183656708333334,,0xE0,0x08
23.185091083333333,,0xE0,0xB9
23.186525875000001,,0xA0,0x02
23.187960208333333,,0xB4,0x7D
23.189395000000001,,0xE0,0x02
23.190829375000000,,0xC0,0x6E
23.192264125000001,,0xA0,0x00
23.193698500000000,,0xB0,0xDB
23.195133250000001,,0xE0,0x00
23.196567625000000,,0xE0,0xB1
23.198002416666668,,0xB0,0x02
23.199436791666667,,0x38,0xA8
23.200871541666668,,0xF0,0x47
23.202305916666667,,0x09,0x79
23.203740666666668,,0x07,0x87
23.205175041666667,,0x05,0xE9
23.206609791666665,,0x07,0x17
23.208044208333334,,0x01,0xED
23.209478916666665,,0x01,0x13
23.210913333333334,,0x01,0x8D
23.212348083333332,,0x01,0x53
23.213782458333334,,0x01,0xC3
23.215217208333332,,0x01,0x19
23.216651583333334,,0x01,0x93
23.218086333333332,,0x01,0x4D
23.219520750000001,,0x01,0x79
23.220955458333332,,0x01,0x07
23.222389875000001,,0x05,0x4D
23.223824583333332,,0x03,0x33
23.225259000000001,,0x95,0x89
23.226693749999999,,0x9A,0xF6
23.228128166666668,,0xF5,0xC0
23.229562874999999,,0x9F,0xFF
23.230997291666668,,0xD8,0x80
23.232431999999999,,0xBF,0xFF
23.233866416666668,,0xFF,0xFF
23.235301124999999,,0xFF,0xFF
23.236735583333335,,0x00,0x00
23.238170250000000,,0x00,0x00
23.239604708333335,,0x00,0x00
23.241039416666666,,0x00,0x00
23.242534875000000,,0x00,0x00
23.243969583333332,,0x00,0x00
23.245404041666667,,0x00,0x00
23.246838708333332,,0x00,0x00
23.248273166666667,,0x04,0xFE
23.249707833333332,,0x03,0x01
23.251142291666667,,0x27,0x2B
23.252576999999999,,0xDF,0xD4
23.254011416666668,,0x02,0x16
23.255446124999999,,0xFF,0xE9
23.256880583333334,,0xFF,0xFF
23.258315249999999,,0xFF,0xFF
23.259749708333334,,0x00,0x00
23.261184374999999,,0x00,0x00
23.262618833333335,,0x00,0x00
23.264053499999999,,0x00,0x00
23.265488000000001,,0x00,0x00
23.266922666666666,,0x00,0x00
23.268357125000001,,0x00,0x00
23.269791791666666,,0x00,0x00
23.271226250000002,,0x25,0x94
23.272660916666666,,0xFE,0x09
23.274095416666668,,0xF5,0x97
23.275530041666666,,0xFF,0x60
23.276964541666668,,0xB4,0xD9
23.278399166666667,,0xFF,0x06
23.279833666666665,,0xFF,0xFF
23.281268333333333,,0xFF,0xFF
23.282702833333332,,0x00,0x00
23.284137458333333,,0x00,0x00
23.285571958333332,,0x00,0x00
23.287006583333334,,0x00,0x00
23.288441083333332,,0x00,0x00
23.289875708333334,,0x00,0x00
23.291310208333332,,0x00,0x00
23.292744875000000,,0x00,0x00
23.294179374999999,,0x07,0x55
23.295614000000000,,0xFF,0x8B
23.297048499999999,,0xFF,0xB9
23.298483125000001,,0xFF,0x47
23.299917624999999,,0xFF,0xC7
23.301352250000001,,0xFF,0x39
23.302786791666666,,0xFF,0xFF
23.304221375000001,,0xFF,0xFF
23.305655916666666,,0x00,0x00
23.307090541666668,,0x00,0x00
23.308525041666666,,0x00,0x00
23.309959666666668,,0x00,0x00
23.311394166666666,,0x00,0x00
23.312828791666668,,0x00,0x00
23.314263333333333,,0x00,0x00
23.315697916666668,,0x00,0x00
23.317132458333333,,0xFF,0xFF
23.318567041666668,,0xFF,0xFF
23.320001583333333,,0xFF,0xE5
23.321436208333335,,0xFF,0xC0
23.322870750000000,,0xFF,0xF8
23.324305333333335,,0xFF,0x87
23.325739875000000,,0xFD,0x82
23.327174458333332,,0xFF,0xFC
23.328609000000000,,0xE0,0xB4
23.330043583333332,,0xF0,0x83
23.331478166666667,,0xE5,0xC5
23.332912749999998,,0xF0,0x98
23.334347291666667,,0xF0,0x94
23.335781874999999,,0xE0,0x83
23.337216416666667,,0xEC,0xCB
23.338650999999999,,0xF0,0x85
23.340085541666667,,0xFF,0xFF
23.341520124999999,,0xFF,0xFF
23.343015749999999,,0xD1,0xF3
23.344450291666668,,0xFE,0x0C
23.345884874999999,,0xC7,0x2C
23.347319458333335,,0xF8,0x03
23.348754041666666,,0xC3,0x65
23.350188583333335,,0xFC,0x1F
23.351623166666666,,0x8C,0x83
23.353057708333335,,0x70,0x7C
23.354492291666666,,0x41,0x6A
23.355926833333335,,0x00,0xF1
23.357361416666667,,0x02,0x1B
23.358796000000002,,0x00,0xE0
23.360230583333333,,0x00,0xE4
23.361665124999998,,0x01,0xD6
23.363099708333333,,0xFF,0xFF
23.364534249999998,,0xFF,0xFF
23.365968833333334,,0xBE,0x2B
23.367403374999999,,0x44,0x54
23.368838000000000,,0xD0,0x39
23.370272499999999,,0x20,0x84
23.371707125000000,,0x15,0x4A
23.373141666666665,,0x40,0x84
23.374576250000000,,0x41,0x2E
23.376010791666666,,0x00,0xC0
23.377445416666667,,0x15,0xD7
23.378879916666666,,0x00,0x60
23.380314541666667,,0x07,0x5A
23.381749041666666,,0x08,0xA1
23.383183666666667,,0x28,0x59
23.384618166666666,,0xD7,0x24
23.386052791666668,,0xFF,0xFF
23.387487333333333,,0xFF,0xFF
23.388921958333334,,0x45,0xD7
23.390356458333333,,0x3F,0x01
23.391791083333334,,0x21,0x93
23.393225583333333,,0x1F,0x01
23.394660208333335,,0xE5,0x03
23.396094708333333,,0x1F,0x51
23.397529375000001,,0x79,0x13
23.398963833333333,,0x07,0x41
23.400398500000001,,0x39,0x5D
23.401833000000000,,0x47,0x41
23.403267625000002,,0x39,0x4D
23.404702125000000,,0xC7,0x01
23.406136791666668,,0xFD,0x03
23.407571250000000,,0x07,0xD1
23.409005916666668,,0xE8,0xBB
23.410440375000000,,0xF0,0x85
23.411875041666665,,0xF8,0x8D
23.413309500000000,,0xF0,0xD3
23.414744166666665,,0xE0,0x85
23.416178666666667,,0xF0,0xEB
23.417613333333332,,0xF0,0xA1
23.419047791666667,,0xF0,0xD7
23.420482458333332,,0xF0,0x98
23.421916916666667,,0xF0,0xA7
23.423351583333332,,0xF0,0xDF
23.424786041666668,,0xF0,0x87
23.426220749999999,,0xE0,0x98
23.427655208333334,,0xF0,0x87
23.429089874999999,,0xF4,0xAB
23.430524333333334,,0xF0,0x97
23.431958999999999,,0x00,0x6A
23.433393458333335,,0x00,0xD4
23.434828166666666,,0x00,0xF4
23.436262583333335,,0x00,0xDF
23.437697291666666,,0x00,0x20
23.439131708333335,,0x00,0xDF
23.440566416666666,,0x00,0x1A
23.442000875000002,,0x00,0xC5
23.443496625000002,,0x00,0xC1
23.444931041666667,,0x00,0x82
23.446365749999998,,0x00,0x0C
23.447800166666667,,0x00,0xD7
23.449234874999998,,0x00,0x05
23.450669291666667,,0x00,0xD2
23.452103999999999,,0x00,0xEC
23.453538458333334,,0x00,0xD7
23.454973166666665,,0x00,0x42
23.456407583333334,,0x00,0x24
23.457842291666665,,0x00,0x40
23.459276708333334,,0x00,0xF2
23.460711416666665,,0x00,0x02
23.462145833333334,,0x00,0xFC
23.463580583333332,,0x00,0x94
23.465014958333335,,0x00,0x70
23.466449708333332,,0x00,0xCA
23.467884125000001,,0x00,0x31
23.469318833333332,,0x00,0x4C
23.470753250000001,,0x00,0xB0
23.472187999999999,,0x00,0x04
23.473622375000001,,0x00,0xF8
23.475057124999999,,0x00,0xDD
23.476491500000002,,0x01,0x72
23.477926249999999,,0xF9,0x13
23.479360625000002,,0x07,0x01
23.480795375000000,,0x1D,0x49
23.482229791666665,,0x7F,0x81
23.483664541666666,,0x0B,0x01
23.485098916666665,,0x1F,0x01
23.486533666666666,,0x17,0x41
23.487968041666665,,0x0F,0x1D
23.489402791666667,,0x17,0x03
23.490837166666665,,0x0F,0x3D
23.492271958333333,,0x57,0x83
23.493706291666665,,0x0F,0x3D
23.495141083333333,,0x17,0x17
23.496575458333332,,0x0F,0x29
23.498010208333334,,0x67,0x69
23.499444583333332,,0x9F,0x15
23.500879375000000,,0xE8,0xF8
23.502313708333332,,0xF0,0x87
23.503748500000000,,0xFC,0xBD
23.505182833333333,,0xF1,0xC7
23.506617625000001,,0xF7,0xD8
23.508051999999999,,0xF9,0x87
23.509486791666667,,0xF1,0x95
23.510921124999999,,0xFF,0xC7
23.512355916666667,,0xFD,0xA2
23.513790250000000,,0xFE,0x87
23.515225041666667,,0xFF,0xA9
23.516659375000000,,0xFF,0x87
23.518094166666668,,0xFF,0x8C
23.519528500000000,,0xFF,0x87
23.520963333333334,,0xFF,0xE5
23.522397666666667,,0xFF,0x9F
23.523832458333334,,0x00,0x81
23.525266791666667,,0x00,0xFE
23.526701583333335,,0xD5,0x50
23.528135916666667,,0x00,0xFF
23.529570750000001,,0x00,0x10
23.531005041666667,,0x80,0xFF
23.532439875000001,,0xBC,0x15
23.533874166666667,,0xC0,0xDF
23.535309000000002,,0x0E,0xC8
23.536743333333334,,0xF0,0x9F
23.538178166666668,,0x55,0xF5
23.539612458333334,,0xFF,0x0F
23.541047291666668,,0xF8,0x40
23.542481583333334,,0xFF,0x8F
23.543977458333334,,0xDF,0x5D
23.545411750000000,,0xFF,0xE7
23.546846625000001,,0x01,0x8E
23.548280916666666,,0x01,0x70
23.549715750000001,,0x57,0xCE
23.551150041666666,,0x01,0x70
23.552584875000001,,0x0E,0xA7
23.554019166666667,,0x01,0xC0
23.555454041666668,,0x79,0xC9
23.556888291666667,,0x07,0xC4
23.558323166666668,,0xA0,0x5B
23.559757416666667,,0x5F,0xE0
23.561192291666668,,0x57,0x51
23.562626583333333,,0xFF,0xE4
23.564061416666668,,0xFF,0x08
23.565495708333334,,0xFF,0xE4
23.566930583333335,,0xFF,0x48
23.568364833333334,,0xFF,0xF5
23.569799708333335,,0xE7,0x01
23.571233958333334,,0x9F,0x01
23.572668833333335,,0x9F,0x29
23.574103083333334,,0xFF,0x81
23.575538000000002,,0x9F,0x05
23.576972250000001,,0x7F,0x01
23.578407124999998,,0x7F,0xE1
23.579841375000001,,0xFF,0x05
23.581276249999998,,0xFF,0x59
23.582710500000001,,0xFF,0x01
23.584145416666665,,0xFF,0xDD
23.585579625000001,,0xFF,0x01
23.587014541666665,,0xFF,0xA5
23.588448791666668,,0xFF,0x01
23.589883666666665,,0xFF,0xA5
23.591317916666668,,0xFF,0x01
23.592752791666666,,0xFF,0xE9
23.594187041666668,,0xFF,0x9F
23.595621958333332,,0xFF,0x95
23.597056166666668,,0xFF,0xFF
23.598491083333332,,0xFF,0xB9
23.599925291666668,,0xFF,0xFF
23.601360208333332,,0xFF,0xFF
23.602794458333332,,0xFF,0xFF
23.604229374999999,,0x00,0x00
23.605663583333332,,0x00,0x00
23.607098499999999,,0x00,0x00
23.608532708333332,,0x00,0x00
23.609967624999999,,0x00,0x00
23.611401833333332,,0x00,0x00
23.612836791666666,,0x00,0x00
23.614270958333332,,0x00,0x00
23.615705916666666,,0xC3,0x0C
23.617140124999999,,0x87,0xF3
23.618575041666666,,0x9B,0xD0
23.620009249999999,,0xC7,0xFD
23.621444166666667,,0xC3,0x42
23.622878374999999,,0xFF,0xFC
23.624313333333333,,0xFF,0xFF
23.625747499999999,,0xFF,0xFF
23.627182458333333,,0x00,0x00
23.628616624999999,,0x00,0x00
23.630051583333334,,0x00,0x00
23.631485791666666,,0x00,0x00
23.632920750000000,,0x00,0x00
23.634354916666666,,0x00,0x00
23.635789875000000,,0x00,0x00
23.637224041666666,,0x00,0x00
23.638659000000001,,0xFF,0x1C
23.640093166666666,,0xFF,0xE2
23.641528166666667,,0xFF,0x0A
23.642962333333333,,0xFF,0xF5
23.644458333333333,,0xDF,0x1F
23.645892499999999,,0xFF,0xE0
23.647327458333333,,0xFF,0xFF
23.648761624999999,,0xFF,0xFF
23.650196625000000,,0x00,0x00
23.651630749999999,,0x00,0x00
23.653065750000000,,0x00,0x00
23.654499874999999,,0x00,0x00
23.655934875000000,,0x00,0x00
23.657369041666666,,0x00,0x00
23.658804000000000,,0x00,0x00
23.660238166666666,,0x00,0x00
23.661673166666667,,0xFF,0xA9
23.663107291666666,,0xFF,0x01
23.664542291666667,,0xFF,0x75
23.665976416666666,,0xFF,0x09
23.667411416666667,,0xFF,0x6D
23.668845541666666,,0xFF,0x01
23.670280583333334,,0xFF,0xFF
23.671714708333333,,0xFF,0xFF
23.673149708333334,,0x00,0x00
23.674583833333333,,0x00,0x00
23.676018833333334,,0x00,0x00
23.677452958333333,,0x00,0x00
23.678888000000001,,0x00,0x00
23.680322083333333,,0x00,0x00
23.681757125000001,,0x00,0x00
23.683191250000000,,0x00,0x00
23.684626250000001,,0xFF,0xFF
23.686060375000000,,0xFF,0xFF
23.687495375000001,,0xFF,0xFF
23.688929500000000,,0xFF,0xFF
23.690364541666668,,0xFF,0xFF
23.691798625000001,,0xFF,0xFF
23.693233666666668,,0xFF,0xFF
23.694667750000001,,0xFF,0xFF
23.696102791666668,,0xFF,0xFD
23.697536916666667,,0xFF,0xFE
23.698971958333335,,0xFF,0xFF
23.700406041666668,,0xFF,0xFC
23.701841083333335,,0xFF,0xFD
23.703275166666668,,0xFF,0xF8
23.704710208333335,,0xFF,0xD6
23.706144291666668,,0xFF,0xF9
23.707579375000002,,0xFF,0xFF
23.709013416666668,,0xFF,0xFF
23.710448499999998,,0xFF,0xCD
23.711882583333335,,0xFF,0xF0
23.713317624999998,,0xFF,0x4E
23.714751708333335,,0xFF,0x81
23.716186791666665,,0xFF,0xE3
23.717620833333335,,0xFF,0x1D
23.719055916666665,,0xFF,0x76
23.720489958333335,,0xFF,0x09
23.721925041666665,,0xFF,0x80
23.723359083333332,,0xFF,0x7F
23.724794166666666,,0xFF,0xCE
23.726228249999998,,0xFF,0x31
23.727663333333332,,0xFF,0x0A
23.729097374999998,,0xFF,0xF5
23.730532458333332,,0xFF,0xFF
23.731966499999999,,0xFF,0xFF
23.733401583333332,,0xFF,0xD9
23.734835624999999,,0xFF,0x07
23.736270749999999,,0xFF,0xA3
23.737704791666665,,0xFF,0x40
23.739139874999999,,0xFF,0xB3
23.740573916666666,,0xFF,0x4C
23.742008999999999,,0xFF,0x37
23.743443041666666,,0xFF,0xC8
23.744939208333335,,0xFF,0x82
23.746373208333335,,0xFF,0x7D
23.747808333333332,,0xFF,0xF1
23.749242333333335,,0xFF,0x0E
23.750677458333332,,0xFF,0xA8
23.752111500000002,,0xFF,0x57
23.753546624999998,,0xFF,0xFF
23.754980625000002,,0xFF,0xFF
23.756415749999999,,0xFF,0xFF
23.757849749999998,,0xFF,0xFF
23.759284874999999,,0xFF,0x7F
23.760718874999998,,0xFF,0xFF
23.762153999999999,,0xFF,0xFF
23.763588041666665,,0xFF,0x7F
23.765023166666666,,0xFF,0x5F
23.766457166666665,,0xFF,0x3F
23.767892291666666,,0xFF,0xFF
23.769326291666665,,0xFF,0x1F
23.770761416666666,,0xFF,0xDF
23.772195416666666,,0xFF,0x0F
23.773630583333333,,0xFF,0x37
23.775064541666666,,0xFF,0xCF
23.776499708333333,,0xFF,0xFF
23.777933708333332,,0xFF,0xF0
23.779368833333333,,0xFF,0xE8
23.780802833333333,,0xFF,0xF7
23.782238000000000,,0xFF,0xE6
23.783671958333333,,0xFF,0xF1
23.785107125000000,,0xFF,0xE6
23.786541083333333,,0xFF,0xF1
23.787976250000000,,0xFF,0xE8
23.789410208333333,,0xFF,0xE7
23.790845375000000,,0xFF,0xFA
23.792279375000000,,0xFF,0xE5
23.793714541666667,,0xFF,0xEE
23.795148500000000,,0xFF,0xE1
23.796583666666667,,0xFF,0xF8
23.798017625000000,,0xFF,0xE7
23.799452791666667,,0xFF,0x57
23.800886750000000,,0xFF,0xA8
23.802321958333334,,0xFF,0x28
23.803755875000000,,0xFF,0xD7
23.805191083333334,,0xFF,0xFF
23.806625041666667,,0xFF,0x00
23.808060208333334,,0xFF,0x02
23.809494166666667,,0xFF,0xFD
23.810929375000001,,0xFF,0x7F
23.812363291666667,,0xFF,0x80
23.813798500000001,,0xFF,0xAA
23.815232416666667,,0xFF,0x55
23.816667625000001,,0xFF,0xAF
23.818101583333334,,0xFF,0x50
23.819536750000001,,0xFF,0x1B
23.820970708333334,,0xFF,0xE4
23.822405916666668,,0xFF,0x76
23.823839833333334,,0xFF,0x89
23.825275041666668,,0xFF,0x82
23.826708958333334,,0xFF,0x7D
23.828144166666668,,0xFF,0xEF
23.829578083333335,,0xFF,0x10
23.831013333333335,,0xFF,0xA8
23.832447250000001,,0xFF,0x57
23.833882458333335,,0xFF,0xED
23.835316375000001,,0xFF,0x12
23.836751583333335,,0xFF,0xA8
23.838185500000002,,0xFF,0xD7
23.839620750000002,,0xFF,0xB9
23.841054625000002,,0xFF,0xC6
23.842489874999998,,0xFF,0xEC
23.843923749999998,,0xFF,0x13
23.845420041666667,,0xFF,0x6F
23.846853958333334,,0xFF,0x87
23.848289208333334,,0xFF,0x37
23.849723083333334,,0xFF,0xC7
23.851158333333334,,0xFF,0xB3
23.852592208333334,,0xFF,0x47
23.854027458333334,,0xFF,0x23
23.855461333333334,,0xFF,0xD7
23.856896583333334,,0xFF,0x57
23.858330500000001,,0xFF,0xA3
23.859765750000001,,0xFF,0xAF
23.861199625000001,,0xFF,0x53
23.862634875000001,,0xFF,0xBF
23.864068750000001,,0xFF,0x43
23.865504000000001,,0xFF,0x03
23.866937875000001,,0xFF,0xF7
23.868373166666668,,0xFF,0xF7
23.869807000000002,,0xFF,0xE0
23.871242291666668,,0xFF,0xC2
23.872676166666668,,0xFF,0xF5
23.874111416666668,,0xFF,0xCD
23.875545291666668,,0xFF,0xF2
23.876980583333335,,0xFF,0xFF
23.878414416666665,,0xFF,0xF0
23.879849708333332,,0xFF,0xF2
23.881283541666665,,0xFF,0xF9
23.882718833333332,,0xFF,0xF2
23.884152666666665,,0xFF,0xFD
23.885587999999998,,0xFF,0xFA
23.887021833333332,,0xFF,0xFC
23.888457124999999,,0xFF,0xDC
23.889890958333332,,0xFF,0xFF
23.891326249999999,,0xFF,0x4F
23.892760083333332,,0xFF,0xB0
23.894195374999999,,0xFF,0xA8
23.895629208333332,,0xFF,0x55
23.897064541666666,,0xFF,0x77
23.898498374999999,,0xFF,0x88
23.899933666666666,,0xFF,0x22
23.901367499999999,,0xFF,0xDD
23.902802791666666,,0xFF,0x0E
23.904236624999999,,0xFF,0xF1
23.905671958333333,,0xFF,0x8A
23.907105749999999,,0xFF,0x75
23.908541083333333,,0xFF,0xB0
23.909974875000000,,0xFF,0x4F
23.911410208333333,,0xFF,0x31
23.912844041666666,,0xFF,0x4F
23.914279375000000,,0xFF,0xB9
23.915713166666666,,0xFF,0x46
23.917148500000000,,0xFF,0xAA
23.918582291666667,,0xFF,0x55
23.920017625000000,,0xFF,0xCB
23.921451416666667,,0xFF,0x34
23.922886750000000,,0xFF,0x04
23.924320541666667,,0xFF,0xFB
23.925755916666667,,0xFF,0xB9
23.927189708333334,,0xFF,0x46
23.928625041666667,,0xFF,0xA8
23.930058833333334,,0xFF,0x57
23.931494166666667,,0xFF,0x87
23.932927958333334,,0xFF,0x78
23.934363333333334,,0xFF,0xA7
23.935797083333334,,0xFF,0x58
23.937232458333334,,0xFF,0x73
23.938666208333334,,0xFF,0x87
23.940101583333334,,0xFF,0xB3
23.941535375000001,,0xFF,0x47
23.942970750000001,,0xFF,0x7B
23.944404500000001,,0xFF,0x87
23.945839875000001,,0xFF,0x7F
23.947273625000001,,0xFF,0x87
23.948709000000001,,0xFF,0x77
23.950142750000001,,0xFF,0x8F
23.951578125000001,,0xFF,0xEF
23.953011916666668,,0xFF,0x1F
23.954447291666668,,0xFF,0x3F
23.955881041666668,,0xFF,0x1F
23.957316416666668,,0xFF,0x1F
23.958750166666668,,0xFF,0x7F
23.960185541666668,,0xFF,0xFE
23.961619291666668,,0xFF,0xFF
23.963054708333335,,0xFF,0xFF
23.964488416666665,,0xFF,0xFF
23.965923833333335,,0xFF,0xFB
23.967357583333332,,0xFF,0xFF
23.968792958333335,,0xFF,0xFF
23.970226708333332,,0xFF,0xFF
23.971662125000002,,0x00,0x00
23.973095833333332,,0x00,0x00
23.974531249999998,,0x00,0x00
23.975964958333332,,0x00,0x00
23.977400374999998,,0x00,0x00
23.978834083333332,,0x00,0x00
23.980269541666665,,0x00,0x00
23.981703249999999,,0x00,0x00
23.983138666666665,,0xFF,0xFC
23.984572374999999,,0xFF,0x03
23.986007791666665,,0xFF,0xB6
23.987441499999999,,0xFF,0xC1
23.988876916666666,,0xFF,0xE7
23.990310624999999,,0xFF,0xF8
23.991746083333332,,0xFF,0xFF
23.993179749999999,,0xFF,0xFF
23.994615208333332,,0x00,0x00
23.996048916666666,,0x00,0x00
23.997484333333333,,0x00,0x00
23.998918041666666,,0x00,0x00
24.000353499999999,,0x00,0x00
24.001787166666666,,0x00,0x00
24.003222624999999,,0x00,0x00
24.004656291666667,,0x00,0x00
24.006091750000000,,0xFF,0xBE
24.007525458333333,,0xFF,0x40
24.008960916666666,,0xFF,0xB6
24.010394583333333,,0xFF,0x41
24.011830041666666,,0xFF,0xF3
24.013263708333334,,0xFF,0x0F
24.014699166666666,,0xFF,0xFF
24.016132833333334,,0xFF,0xFF
24.017568291666667,,0x00,0x00
24.019001958333334,,0x00,0x00
24.020437458333333,,0x00,0x00
24.021871125000001,,0x00,0x00
24.023306583333333,,0x00,0x00
24.024740250000001,,0x00,0x00
24.026175708333334,,0x00,0x00
24.027609375000001,,0x00,0x00
24.029044875000000,,0xFF,0x7F
24.030478500000001,,0xFF,0xFF
24.031914000000000,,0xFF,0xFF
24.033347625000001,,0xFF,0xFF
24.034783125000001,,0xFF,0xFF
24.036216791666668,,0xFF,0xFF
24.037652291666667,,0xFF,0xFF
24.039085916666668,,0xFF,0xFF
24.040521416666667,,0x00,0x00
24.041955041666668,,0x00,0x00
24.043390541666668,,0x00,0x00
24.044824166666668,,0x00,0x00
24.046320750000000,,0x00,0x00
24.047754375000000,,0x00,0x00
24.049189875000000,,0x00,0x00
24.050623500000000,,0x00,0x00
24.052059000000000,,0xFF,0xFF
24.053492625000001,,0xFF,0xFF
24.054928125000000,,0xC0,0xFF
24.056361750000001,,0xFF,0xFF
24.057797291666667,,0x83,0xFF
24.059230875000001,,0xFC,0xFF
24.060666416666667,,0xAB,0xFF
24.062100041666667,,0xD4,0xFF
24.063535541666667,,0xFF,0xFE
24.064969166666668,,0x80,0xFF
24.066404708333334,,0xBD,0xFF
24.067838291666668,,0xC0,0xFC
24.069273833333334,,0xF8,0xF6
24.070707416666668,,0x80,0xF8
24.072142958333334,,0xD5,0xF5
24.073576541666668,,0x80,0xF8
24.075012125000001,,0xFF,0xFF
24.076445708333335,,0xFF,0xFF
24.077881250000001,,0x2A,0xF2
24.079314833333335,,0xD5,0xFD
24.080750375000001,,0xFF,0xD4
24.082183958333335,,0x00,0xE3
24.083619541666668,,0xFF,0x0F
24.085053083333332,,0x00,0xF0
24.086488666666668,,0xE0,0x30
24.087922208333332,,0x00,0x00
24.089357791666668,,0x55,0x2E
24.090791374999998,,0x00,0x41
24.092226916666668,,0x00,0x8C
24.093660499999999,,0x00,0x43
24.095096083333335,,0x40,0x57
24.096529624999999,,0x00,0x81
24.097965208333335,,0xFF,0xFF
24.099398749999999,,0xFF,0xFF
24.100834333333335,,0xF0,0xA7
24.102267916666666,,0x00,0x5F
24.103703500000002,,0xF3,0x1D
24.105137041666666,,0x04,0xE3
24.106572624999998,,0x43,0xD8
24.108006166666666,,0x34,0x07
24.109441749999998,,0x10,0x84
24.110875291666666,,0x20,0x02
24.112310916666665,,0x43,0x36
24.113744416666666,,0x34,0xC1
24.115180041666665,,0x08,0x1D
24.116613583333333,,0x30,0xE0
24.118049166666665,,0x1F,0x41
24.119482708333333,,0x30,0xF0
24.120918291666666,,0xFF,0xFF
24.122351833333333,,0xFF,0xFF
24.123787458333332,,0x03,0xFF
24.125220958333333,,0x01,0xFF
24.126656583333332,,0xE1,0xFF
24.128090083333333,,0x01,0xFF
24.129525708333333,,0xE1,0x7F
24.130959250000000,,0x01,0xFF
24.132394874999999,,0x01,0x1F
24.133828375000000,,0x01,0x7F
24.135263999999999,,0xA1,0x6F
24.136697500000000,,0x41,0x1F
24.138133125000000,,0x01,0x67
24.139566625000000,,0x01,0x8F
24.141002291666666,,0xF5,0x5F
24.142435750000001,,0x01,0x87
24.143871416666666,,0xC0,0xE8
24.145304916666667,,0x80,0xF0
24.146801583333332,,0x85,0xED
24.148235083333333,,0x80,0xF0
24.149670749999999,,0xFA,0xF1
24.151104208333333,,0x81,0xE0
24.152539874999999,,0xB6,0xED
24.153973333333333,,0xC1,0xF0
24.155408999999999,,0xE7,0xE1
24.156842500000000,,0x80,0xF0
24.158278124999999,,0xFC,0xF4
24.159711625000000,,0xC0,0xF3
24.161147291666666,,0x9E,0xF1
24.162580750000000,,0x80,0xFE
24.164016416666666,,0xB0,0xF0
24.165449875000000,,0x84,0xFC
24.166885541666666,,0x00,0x0F
24.168319000000000,,0x00,0x80
24.169754708333333,,0x02,0x04
24.171188166666667,,0x00,0x80
24.172623833333333,,0x80,0x80
24.174057291666667,,0x00,0x00
24.175492958333333,,0x44,0x14
24.176926416666667,,0x01,0x80
24.178362125000000,,0x21,0x80
24.179795541666667,,0x00,0x00
24.181231250000000,,0x64,0xA3
24.182664708333334,,0x01,0x40
24.184100375000000,,0x61,0x90
24.185533833333334,,0x00,0x60
24.186969500000000,,0x10,0x19
24.188402958333334,,0x41,0x74
24.189838666666667,,0x0F,0xF0
24.191272083333335,,0x30,0x00
24.192707791666667,,0x1D,0x20
24.194141208333335,,0x30,0x10
24.195576916666667,,0x1B,0x0A
24.197010375000001,,0x30,0x00
24.198446083333334,,0xDA,0x14
24.199879500000002,,0x35,0x00
24.201315208333334,,0x98,0x09
24.202748625000002,,0x30,0x00
24.204184333333334,,0x5F,0x66
24.205617749999998,,0xB0,0x01
24.207053500000001,,0x1F,0x84
24.208486874999998,,0xB0,0x03
24.209922625000001,,0x58,0x58
24.211356041666665,,0xB0,0x07
24.212791750000001,,0x9D,0x0F
24.214225166666665,,0x63,0xC3
24.215660875000001,,0x75,0xD3
24.217094291666665,,0x01,0x47
24.218530041666668,,0xFF,0x9B
24.219963416666666,,0x01,0x47
24.221399166666668,,0x8B,0xEB
24.222832541666666,,0x75,0x47
24.224268291666668,,0xC1,0x53
24.225701708333332,,0x01,0xA7
24.227137458333335,,0xAB,0x1F
24.228570833333333,,0x55,0xF7
24.230006583333335,,0x9F,0x67
24.231439958333333,,0x61,0x9F
24.232875708333335,,0x65,0x9F
24.234309083333333,,0x01,0x07
24.235744875000002,,0xA9,0xF0
24.237178249999999,,0xC0,0xF8
24.238613999999998,,0xB6,0xFD
24.240047375000000,,0x81,0xF8
24.241483124999998,,0xE3,0xFC
24.242916500000000,,0x80,0xF8
24.244352291666665,,0x98,0xF9
24.245785625000000,,0x86,0xFC
24.247282458333334,,0x84,0xFB
24.248715791666665,,0x80,0xFC
24.250151583333334,,0xD4,0xFC
24.251584958333332,,0x88,0xFF
24.253020750000001,,0xB0,0xFC
24.254454083333332,,0xC8,0xFF
24.255889875000001,,0xE1,0xFF
24.257323208333332,,0xD0,0xFF
24.258759000000001,,0x82,0x2B
24.260192333333332,,0x00,0x1C
24.261628125000001,,0x72,0x10
24.263061499999999,,0x00,0x0F
24.264497291666668,,0x02,0x8C
24.265930624999999,,0x00,0x03
24.267366416666668,,0x72,0xF6
24.268799749999999,,0x01,0x01
24.270235541666668,,0x03,0xFB
24.271668875000000,,0x00,0x00
24.273104708333332,,0x06,0x74
24.274538000000000,,0x41,0x81
24.275973833333332,,0x04,0x79
24.277407166666666,,0x02,0x80
24.278842958333332,,0x87,0x30
24.280276291666667,,0x04,0xC5
24.281712124999999,,0xDF,0x20
24.283145416666667,,0x30,0x1F
24.284581249999999,,0x9A,0x97
24.286014541666667,,0x35,0x78
24.287450374999999,,0x18,0xC9
24.288883666666667,,0xB0,0x30
24.290319499999999,,0x1A,0x32
24.291752833333334,,0xB5,0xC1
24.293188666666666,,0x3F,0x27
24.294621958333334,,0x90,0xC0
24.296057791666666,,0x5D,0x37
24.297491083333334,,0xB0,0xC0
24.298926916666666,,0x5F,0x07
24.300360208333334,,0xB0,0xC0
24.301796083333333,,0x1D,0x7C
24.303229333333334,,0xF0,0xC1
24.304665208333333,,0xF3,0x2F
24.306098500000001,,0x0D,0x07
24.307534333333333,,0xAF,0xC7
24.308967625000001,,0x51,0x1F
24.310403500000000,,0x0B,0xE7
24.311836750000001,,0x01,0x0F
24.313272625000000,,0x23,0xD7
24.314705875000001,,0xDD,0x0F
24.316141750000000,,0xF3,0xFF
24.317575000000001,,0x01,0x0F
24.319010916666667,,0xEB,0xDF
24.320444166666668,,0x15,0x7F
24.321880041666667,,0x43,0xBF
24.323313291666668,,0xBD,0x7F
24.324749166666667,,0x57,0x7F
24.326182416666665,,0x01,0xFF
24.327618291666667,,0x80,0xFF
24.329051541666665,,0x80,0xFF
24.330487458333334,,0x80,0xFF
24.331920708333332,,0x81,0xFF
24.333356583333334,,0xB3,0xFF
24.334789833333332,,0xC0,0xFF
24.336225708333334,,0xFF,0xFF
24.337658958333332,,0xFF,0xFF
24.339094875000001,,0x00,0x00
24.340528083333332,,0x00,0x00
24.341964000000001,,0x00,0x00
24.343397208333332,,0x00,0x00
24.344833125000001,,0x00,0x00
24.346266374999999,,0x00,0x00
24.347763333333333,,0x00,0x00
24.349196541666668,,0x00,0x00
24.350632458333333,,0x05,0x99
24.352065666666668,,0x00,0xE4
24.353501583333333,,0x41,0xF5
24.354934791666668,,0x00,0xC0
24.356370708333333,,0x01,0xE3
24.357803958333335,,0x00,0xFC
24.359239875000000,,0xFF,0xFF
24.360673083333332,,0xFF,0xFF
24.362109000000000,,0x00,0x00
24.363542208333332,,0x00,0x00
24.364978125000000,,0x00,0x00
24.366411333333332,,0x00,0x00
24.367847291666667,,0x00,0x00
24.369280458333332,,0x00,0x00
24.370716416666667,,0x00,0x00
24.372149624999999,,0x00,0x00
24.373585541666667,,0x5F,0x29
24.375018749999999,,0xB0,0xC0
24.376454708333334,,0x9A,0x3E
24.377887874999999,,0x75,0xC1
24.379323833333334,,0x1A,0x73
24.380756999999999,,0x30,0x0F
24.382192958333334,,0xFF,0xFF
24.383626124999999,,0xFF,0xFF
24.385062125000001,,0x00,0x00
24.386495291666666,,0x00,0x00
24.387931250000001,,0x00,0x00
24.389364416666666,,0x00,0x00
24.390800375000001,,0x00,0x00
24.392233541666666,,0x00,0x00
24.393669500000001,,0x00,0x00
24.395102666666666,,0x00,0x00
24.396538666666668,,0xC3,0x7F
24.397971791666667,,0x3D,0xFF
24.399407791666668,,0xAB,0x7F
24.400840958333333,,0x55,0xFF
24.402276916666668,,0xF7,0xFF
24.403710083333333,,0x01,0xFF
24.405146083333332,,0xFF,0xFF
24.406579208333333,,0xFF,0xFF
24.408015208333332,,0x00,0x00
24.409448333333334,,0x00,0x00
24.410884333333332,,0x00,0x00
24.412317500000000,,0x00,0x00
24.413753499999999,,0x00,0x00
24.415186625000000,,0x00,0x00
24.416622624999999,,0x00,0x00
24.418055750000001,,0x00,0x00
24.419491749999999,,0xFF,0xFF
24.420924875000001,,0xFF,0xFF
24.422360874999999,,0xC0,0xDC
24.423794000000001,,0xFF,0x80
24.425230041666666,,0x83,0x90
24.426663166666668,,0xFC,0x80
24.428099166666666,,0xAB,0xF4
24.429532291666668,,0xD4,0x80
24.430968291666666,,0xFF,0xFC
24.432401416666668,,0x80,0x83
24.433837458333333,,0xBD,0xC0
24.435270541666668,,0xC0,0x87
24.436706583333333,,0xF8,0x88
24.438139666666668,,0x80,0x87
24.439575708333333,,0xD5,0xD5
24.441008833333335,,0x80,0x8F
24.442444875000000,,0xFF,0xFF
24.443877958333335,,0xFF,0xFF
24.445314000000000,,0x2A,0x44
24.446747083333332,,0xD5,0x00
24.448244166666665,,0xFF,0x20
24.449677250000001,,0x00,0x00
24.451113333333332,,0xFF,0x97
24.452546416666667,,0x00,0x78
24.453982458333332,,0xE0,0x01
24.455415541666667,,0x00,0xFE
24.456851583333332,,0x55,0x19
24.458284666666668,,0x00,0xE7
24.459720708333332,,0x00,0x20
24.461153791666668,,0x00,0x80
24.462589874999999,,0x40,0x74
24.464022916666668,,0x00,0x80
24.465458999999999,,0xFF,0xFF
24.466892083333335,,0xFF,0xFF
24.468328124999999,,0xF0,0x85
24.469761208333335,,0x00,0x1F
24.471197291666666,,0xF3,0xC3
24.472630333333335,,0x04,0x3F
24.474066416666666,,0x43,0x17
24.475499458333335,,0x34,0x7F
24.476935541666666,,0x10,0xA6
24.478368583333335,,0x20,0x7F
24.479804708333333,,0x43,0x55
24.481237749999998,,0x34,0xFF
24.482673833333333,,0x08,0x02
24.484106874999998,,0x30,0xFC
24.485542958333333,,0x1F,0x50
24.486975999999999,,0x30,0xFC
24.488412125000000,,0xFF,0xFF
24.489845124999999,,0xFF,0xFF
24.491281250000000,,0x03,0x21
24.492714291666665,,0x01,0xC1
24.494150375000000,,0xE1,0x91
24.495583416666665,,0x01,0xE1
24.497019500000000,,0xE1,0x41
24.498452541666666,,0x01,0xF1
24.499888666666667,,0x01,0x19
24.501321666666666,,0x01,0xE1
24.502757791666667,,0xA1,0x09
24.504190791666666,,0x41,0xF1
24.505626916666667,,0x01,0x99
24.507059958333333,,0x01,0x61
24.508496083333334,,0xF5,0x29
24.509929083333333,,0x01,0x51
24.511365208333334,,0xC0,0xD4
24.512798208333333,,0x80,0x8F
24.514234333333334,,0x85,0xA4
24.515667333333333,,0x80,0xDF
24.517103500000001,,0xFA,0xC0
24.518536458333333,,0x81,0xBF
24.519972625000001,,0xB6,0xD4
24.521405625000000,,0xC1,0xFF
24.522841750000001,,0xE7,0x89
24.524274750000000,,0x80,0xF6
24.525710875000001,,0xFC,0xCC
24.527143875000000,,0xC0,0xF7
24.528580041666668,,0x9E,0x80
24.530013000000000,,0x80,0xFF
24.531449166666668,,0xB0,0xDC
24.532882125000000,,0x84,0xFF
24.534318291666665,,0x00,0x1E
24.535751291666667,,0x00,0xE0
24.537187458333332,,0x02,0x0E
24.538620416666667,,0x00,0xF1
24.540056583333332,,0x80,0x94
24.541489541666667,,0x00,0x60
24.542925708333332,,0x44,0x4B
24.544358666666668,,0x01,0x94
24.545794874999999,,0x21,0xD7
24.547227833333334,,0x00,0x08
24.548725041666668,,0x64,0xEC
24.550158000000000,,0x01,0x10
24.551594166666668,,0x61,0xBC
24.553027125000000,,0x00,0x00
24.554463333333334,,0x10,0x8A
24.555896250000000,,0x41,0x74
24.557332458333335,,0x0F,0x86
24.558765375000000,,0x30,0x78
24.560201583333335,,0x1D,0x9F
24.561634541666667,,0x30,0x70
24.563070708333335,,0x1B,0xEE
24.564503666666667,,0x30,0x10
24.565939875000002,,0xDA,0xBF
24.567372791666667,,0x35,0x10
24.568809000000002,,0x98,0xAB
24.570241916666667,,0x30,0x10
24.571678124999998,,0x5F,0x46
24.573111041666667,,0xB0,0x19
24.574547291666665,,0x1F,0x17
24.575980208333334,,0xB0,0x08
24.577416416666665,,0x58,0x43
24.578849333333334,,0xB0,0x1C
24.580285541666665,,0x9D,0xF1
24.581718458333334,,0x63,0x01
24.583154708333332,,0x75,0xF1
24.584587583333334,,0x01,0x01
24.586023833333332,,0xFF,0x01
24.587456750000001,,0x01,0x01
24.588892958333332,,0x8B,0xD1
24.590325875000001,,0x75,0x01
24.591762124999999,,0xC1,0x01
24.593195000000001,,0x01,0x01
24.594631249999999,,0xAB,0xC1
24.596064125000002,,0x55,0x01
24.597500374999999,,0x9F,0x01
24.598933250000002,,0x61,0x01
24.600369499999999,,0x65,0x11
24.601802416666665,,0x01,0x01
24.603238666666666,,0xA9,0x89
24.604671541666665,,0xC0,0xFE
24.606107791666666,,0xB6,0xDD
24.607540666666665,,0x81,0xFF
24.608976916666666,,0xE3,0x98
24.610409791666665,,0x80,0xFF
24.611846083333333,,0x98,0xDC
24.613278916666665,,0x86,0xFF
24.614715208333333,,0x84,0xCA
24.616148083333332,,0x80,0xFC
24.617584333333333,,0xD4,0xD2
24.619017208333332,,0x88,0xFC
24.620453458333333,,0xB0,0x8B
24.621886333333332,,0xC8,0xF0
24.623322625000000,,0xE1,0xCD
24.624755458333333,,0xD0,0xF0
24.626191750000000,,0x82,0x7F
24.627624583333333,,0x00,0x00
24.629060875000000,,0x72,0x85
24.630493749999999,,0x00,0x40
24.631930041666667,,0x02,0x2A
24.633362875000000,,0x00,0xC1
24.634799166666667,,0x72,0x41
24.636232000000000,,0x01,0xFF
24.637668291666667,,0x03,0x40
24.639101125000000,,0x00,0x3F
24.640537458333334,,0x06,0x04
24.641970291666667,,0x41,0x1F
24.643406583333334,,0x04,0x30
24.644839416666667,,0x02,0x0E
24.646275708333334,,0x87,0x4F
24.647708541666667,,0x04,0x14
24.649205916666666,,0xDF,0xEC
24.650638708333332,,0x30,0x10
24.652075041666667,,0x9A,0x04
24.653507833333332,,0x35,0xF0
24.654944166666667,,0x18,0x60
24.656376999999999,,0xB0,0x80
24.657813333333333,,0x1A,0x52
24.659246124999999,,0xB5,0x80
24.660682458333333,,0x3F,0x80
24.662115249999999,,0x90,0x00
24.663551583333334,,0x5D,0xC0
24.664984375000000,,0xB0,0x00
24.666420708333334,,0x5F,0xC0
24.667853541666666,,0xB0,0x00
24.669289875000000,,0x1D,0x41
24.670722666666666,,0xF0,0x00
24.672159000000001,,0xF3,0x01
24.673591791666666,,0x0D,0x01
24.675028125000001,,0xAF,0x51
24.676460916666667,,0x51,0x01
24.677897291666667,,0x0B,0x01
24.679330041666667,,0x01,0x01
24.680766416666668,,0x23,0x41
24.682199208333333,,0xDD,0x01
24.683635541666668,,0xF3,0x01
24.685068333333334,,0x01,0x01
24.686504666666668,,0xEB,0x51
24.687937458333334,,0x15,0x01
24.689373833333335,,0x43,0x01
24.690806583333334,,0xBD,0x01
24.692242958333335,,0x57,0x41
24.693675708333334,,0x01,0x01
24.695112125000001,,0x80,0x8C
24.696544875000001,,0x80,0xF0
24.697981250000002,,0x80,0xC3
24.699414000000001,,0x81,0xFC
24.700850375000002,,0xB3,0x8E
24.702283125000001,,0xC0,0xF0
24.703719499999998,,0xFF,0xFF
24.705152250000001,,0xFF,0xFF
24.706588666666665,,0x00,0x00
24.708021375000001,,0x00,0x00
24.709457791666665,,0x00,0x00
24.710890541666668,,0x00,0x00
24.712326916666665,,0x00,0x00
24.713759666666668,,0x00,0x00
24.715196083333332,,0x00,0x00
24.716628791666668,,0x00,0x00
24.718065208333332,,0x05,0x1C
24.719497916666668,,0x00,0x00
24.720934333333332,,0x41,0x71
24.722367083333335,,0x00,0x0C
24.723803499999999,,0x01,0x30
24.725236208333332,,0x00,0x0C
24.726672624999999,,0xFF,0xFF
24.728105333333332,,0xFF,0xFF
24.729541749999999,,0x00,0x00
24.730974458333332,,0x00,0x00
24.732410874999999,,0x00,0x00
24.733843583333332,,0x00,0x00
24.735280041666666,,0x00,0x00
24.736712749999999,,0x00,0x00
24.738149166666666,,0x00,0x00
24.739581874999999,,0x00,0x00
24.741018291666666,,0x5F,0x00
24.742450999999999,,0xB0,0x00
24.743887458333333,,0x9A,0x50
24.745320124999999,,0x75,0x00
24.746756583333333,,0x1A,0x00
24.748189249999999,,0x30,0x00
24.749625708333333,,0xFF,0xFF
24.751058416666666,,0xFF,0xFF
24.752494875000000,,0x00,0x00
24.753927541666666,,0x00,0x00
24.755364000000000,,0x00,0x00
24.756796666666666,,0x00,0x00
24.758233125000000,,0x00,0x00
24.759665791666666,,0x00,0x00
24.761102250000000,,0x00,0x00
24.762534916666667,,0x00,0x00
24.763971416666667,,0xC3,0x01
24.765404083333333,,0x3D,0x01
24.766840541666667,,0xAB,0x05
24.768273208333333,,0x55,0x01
24.769709666666667,,0xF7,0x01
24.771142333333334,,0x01,0x01
24.772578833333334,,0xFF,0xFF
24.774011458333334,,0xFF,0xFF
24.775447958333334,,0x00,0x00
24.776880625000000,,0x00,0x00
24.778317083333334,,0x00,0x00
24.779749750000001,,0x00,0x00
24.781186250000001,,0x00,0x00
24.782618875000001,,0x00,0x00
24.784055375000001,,0x00,0x00
24.785488000000001,,0x00,0x00
30.191851625000002,,0xFF,0x00
30.193234333333333,,0x00,0x5D
30.194659708333333,,0x00,0x00
30.196042416666668,,0x00,0x00
30.197467791666668,,0x00,0x00
30.198850541666665,,0x00,0x00
30.200275874999999,,0x00,0x00
30.201658625000000,,0x00,0x00
30.203083958333334,,0x00,0x00
30.204466708333332,,0x00,0x00
30.205892041666665,,0x00,0x00
30.207274791666666,,0x00,0x00
30.208700125000000,,0x00,0x00
30.210082875000001,,0x00,0x00
30.211508208333335,,0x00,0x00
30.212890999999999,,0x00,0x00
30.214316333333333,,0x00,0x00
30.215699083333334,,0x00,0x00
30.217124416666667,,0x00,0x00
30.218507166666665,,0x00,0x00
30.219932499999999,,0x00,0x00
30.221315250000000,,0x00,0x00
30.222740583333334,,0x00,0x00
30.224123333333335,,0x00,0x00
30.225548666666668,,0x00,0x00
30.226931458333333,,0x00,0x00
30.228356750000000,,0x00,0x00
30.229739541666667,,0x00,0x00
30.231164833333334,,0x00,0x00
30.232547624999999,,0x00,0x00
30.233972916666666,,0x00,0x00
30.235355708333334,,0x00,0x00
30.236781000000001,,0x00,0x00
30.238163833333335,,0x00,0x00
30.239589124999998,,0x00,0x00
30.240971916666666,,0x00,0x00
30.242397208333333,,0x00,0x00
30.243780000000001,,0x00,0x00
30.245205291666668,,0x00,0x00
30.246588083333332,,0x00,0x00
30.248013374999999,,0x00,0x00
30.249396166666667,,0x00,0x00
30.250821458333334,,0x00,0x00
30.252204291666665,,0x00,0x00
30.253629541666665,,0x00,0x00
30.255012375000000,,0x00,0x00
30.256437625000000,,0x00,0x00
30.257820458333335,,0x00,0x00
30.259245708333335,,0x00,0x00
30.260628541666666,,0x00,0x00
30.262053833333333,,0x00,0x00
30.263436625000001,,0x00,0x00
30.264861916666668,,0x00,0x00
30.266244749999998,,0x00,0x00
30.267669999999999,,0x00,0x00
30.269052833333333,,0x00,0x00
30.270478083333334,,0x00,0x00
30.271860916666668,,0x00,0x00
30.273286166666665,,0x00,0x00
30.274668999999999,,0x00,0x00
30.276094250000000,,0x00,0x00
30.277477083333334,,0x00,0x00
30.278902333333335,,0x00,0x00
30.280285208333332,,0x00,0x00
30.281710416666666,,0x00,0x00
30.283093291666667,,0x00,0x00
30.284518500000001,,0x00,0x00
30.285901375000002,,0x00,0x00
30.287326624999999,,0x00,0x00
30.288709458333333,,0x00,0x00
30.290134708333333,,0x00,0x00
30.291517583333334,,0x00,0x00
30.292942791666668,,0x00,0x00
30.294325666666666,,0x00,0x00
30.295750875000000,,0x00,0x00
30.297133750000000,,0x00,0x00
30.298558958333334,,0x00,0x00
30.299941833333332,,0x00,0x00
30.301367041666666,,0x00,0x00
30.302749916666667,,0x00,0x00
30.304175125000000,,0x00,0x00
30.305558041666668,,0x00,0x00
30.306983208333332,,0x00,0x00
30.308366124999999,,0x00,0x00
30.309791333333333,,0x00,0x00
30.311174208333334,,0x00,0x00
30.312599416666668,,0x00,0x00
30.313982291666665,,0x00,0x00
30.315407499999999,,0x00,0x00
30.316790375000000,,0x00,0x00
30.318215583333334,,0x00,0x00
30.319598500000001,,0x00,0x00
30.321023666666665,,0x00,0x00
30.322406583333333,,0x00,0x00
30.323831750000000,,0x00,0x00
30.325214666666668,,0x00,0x00
30.326639833333335,,0x00,0x00
30.328022749999999,,0x00,0x00
30.329447916666666,,0x00,0x00
30.330830875000000,,0x00,0x00
30.332256041666668,,0x00,0x00
30.333638958333335,,0x00,0x00
30.335064124999999,,0x00,0x00
30.336447041666666,,0x00,0x00
30.337872208333334,,0x00,0x00
30.339255125000001,,0x00,0x00
30.340680291666665,,0x00,0x00
30.342063208333332,,0x00,0x00
30.343488375000000,,0x00,0x00
30.344871333333334,,0x00,0x00
30.346296458333335,,0x00,0x00
30.347679416666665,,0x00,0x00
30.349104541666666,,0x00,0x00
30.350487500000000,,0x00,0x00
30.351912625000001,,0x00,0x00
30.353295583333335,,0x00,0x00
30.354720708333332,,0x00,0x00
30.356103666666666,,0x00,0x00
30.357528833333333,,0x00,0x00
30.358911791666667,,0x00,0x00
30.360336916666668,,0x00,0x00
30.361719874999999,,0x00,0x00
30.363144999999999,,0x00,0x00
30.364527958333333,,0x00,0x00
30.365953083333334,,0x00,0x00
30.367336041666668,,0x00,0x00
30.368761166666665,,0x00,0x00
30.370144124999999,,0x00,0x00
30.371569250000000,,0x00,0x00
30.372952250000001,,0x00,0x00
30.374377333333332,,0x00,0x00
30.375760333333332,,0x00,0x00
30.377185416666666,,0x00,0x00
30.378568416666667,,0x00,0x00
30.379993541666668,,0x00,0x00
30.381376499999998,,0x00,0x00
30.382801624999999,,0x00,0x00
30.384184583333333,,0x00,0x00
30.385609708333334,,0x00,0x00
30.386992708333334,,0x00,0x00
30.388417791666665,,0x00,0x00
30.389800791666666,,0x00,0x00
30.391225875000000,,0x00,0x00
30.392608875000001,,0x00,0x00
30.394033958333335,,0x00,0x00
30.395416958333332,,0x00,0x00
30.396842041666666,,0x00,0x00
30.398225083333333,,0x00,0x00
30.399650125000001,,0x00,0x00
30.401033166666668,,0x00,0x00
30.402458249999999,,0x00,0x00
30.403841249999999,,0x00,0x00
30.405266333333334,,0x00,0x00
30.406649333333334,,0x00,0x00
