Time [s],Packet ID,MOSI,MISO
0.879009083333333,0,0x29,0x12
0.880406000000000,0,0x5E,0x03
5.817960583333333,0,0x00,0x00
5.819341500000000,0,0x5D,0x00
5.820768666666667,0,0x00,0x00
5.822149583333333,0,0x01,0x00
5.823576750000000,0,0x00,0x01
5.825018750000000,0,0xFF,0xFF
5.826445916666667,0,0xFF,0xFF
5.827887833333333,0,0xFF,0xFF
5.829315083333333,0,0xFF,0xFF
5.830756958333334,0,0xFF,0xFF
5.832184208333334,0,0xFF,0xFF
5.833626083333334,0,0xFF,0xFF
5.835053333333334,0,0xFF,0xFF
5.836495250000000,0,0xFF,0xFF
5.837922500000000,0,0xFF,0xFF
5.839364375000000,0,0xFF,0xFF
5.840791625000000,0,0xFF,0xFF
5.842233500000000,0,0xFF,0xFF
5.843660791666666,0,0xFF,0xFF
5.845102625000000,0,0xFF,0xFF
5.846529916666666,0,0xFF,0xFF
5.847971750000000,0,0xFF,0xFF
5.849399041666667,0,0xFF,0xFF
5.850840875000000,0,0xFF,0xFF
5.852268208333333,0,0xFF,0xFF
5.853710041666667,0,0xFF,0xFF
5.855137333333333,0,0xFF,0xFF
5.856579166666666,0,0xFF,0xFF
5.858006458333334,0,0xFF,0xFF
5.859448291666666,0,0xFF,0xFF
5.860875625000000,0,0xFF,0xFF
5.862317416666667,0,0xFF,0xFF
5.863744750000000,0,0xFF,0xFF
5.865186541666667,0,0xFF,0xFF
5.866613916666667,0,0xFF,0xFF
5.868055666666667,0,0xFF,0xFF
5.869483041666666,0,0xFF,0xFF
5.870924791666667,0,0xFF,0xFF
5.872352166666666,0,0xFF,0xFF
5.873793958333334,0,0xFF,0xFF
5.875221333333333,0,0xFF,0xFF
5.876663083333334,0,0xFF,0xFF
5.878090458333333,0,0xFF,0xFF
5.879532208333333,0,0xFF,0xFF
5.880959583333333,0,0xFF,0xFF
5.882401333333333,0,0xFF,0xFF
5.883828750000000,0,0xFF,0xFF
5.885270458333333,0,0xFF,0xFF
5.886697875000000,0,0xFF,0xFF
5.888139583333333,0,0xFF,0xFF
5.889567041666667,0,0xFF,0xFF
5.891008750000000,0,0xFF,0xFF
5.892436166666666,0,0xFF,0xFF
5.893877875000000,0,0xFF,0xFF
5.895305291666666,0,0xFF,0xFF
5.896747000000000,0,0xFF,0xFF
5.898174458333333,0,0xFF,0xFF
5.899616125000000,0,0xFF,0xFF
5.901043583333333,0,0xFF,0xFF
5.902485250000000,0,0xFF,0xFF
5.903912750000000,0,0xFF,0xFF
5.905354375000000,0,0xFF,0xFF
5.906781875000000,0,0xFF,0xFF
5.908223541666667,0,0xFF,0xFF
5.909651000000000,0,0xFF,0xFF
5.911092666666667,0,0xFF,0xFF
5.912520166666667,0,0xFF,0xFF
5.913961791666667,0,0xFF,0xFF
5.915389291666667,0,0xFF,0xFF
5.916830916666667,0,0xFF,0xFF
5.918258458333334,0,0xFF,0xFF
5.919700041666666,0,0xFF,0xFF
5.921127583333333,0,0xFF,0xFF
5.922569166666666,0,0xFF,0xFF
5.923996708333333,0,0xFF,0xFF
5.925438333333333,0,0xFF,0xFF
5.926865875000000,0,0xFF,0xFF
5.928307458333333,0,0xFF,0xFF
5.929735000000000,0,0xFF,0xFF
5.931176583333333,0,0xFF,0xFF
5.932604125000000,0,0xFF,0xFF
5.934045708333334,0,0xFF,0xFF
5.935473291666667,0,0xFF,0xFF
5.936914833333334,0,0xFF,0xFF
5.938342416666667,0,0xFF,0xFF
5.939783958333333,0,0xFF,0xFF
5.941211583333334,0,0xFF,0xFF
5.942653125000000,0,0xFF,0xFF
5.944080708333333,0,0xFF,0xFF
5.945522250000000,0,0xFF,0xFF
5.946949833333333,0,0xFF,0xFF
5.948391375000000,0,0xFF,0xFF
5.949819000000000,0,0xFF,0xFF
5.951260500000000,0,0xFF,0xFF
5.952688125000000,0,0xFF,0xFF
5.954129625000000,0,0xFF,0xFF
5.955557250000000,0,0xFF,0xFF
5.956998750000000,0,0xFF,0xFF
5.958426416666667,0,0xFF,0xFF
5.959867875000000,0,0xFF,0xFF
5.961295541666667,0,0xFF,0xFF
5.962737041666666,0,0xF5,0xFF
5.964164708333334,0,0xFF,0xFF
5.965606166666666,0,0xF2,0xFF
5.967033875000000,0,0xFF,0xFF
5.968475291666667,0,0xD5,0xFF
5.969902958333333,0,0xFF,0xFF
5.971344416666667,0,0xCA,0xFF
5.972772125000000,0,0xFF,0xFF
5.974213541666667,0,0xD5,0xFF
5.975641250000000,0,0xFF,0xFF
5.977082666666667,0,0xA0,0xFF
5.978510416666666,0,0xFF,0xFF
5.979951833333334,0,0xD5,0xFF
5.981379541666667,0,0xFF,0xFF
5.982820958333333,0,0xBF,0xFF
5.984309708333333,0,0xFF,0xFF
5.985751125000000,0,0x42,0xFF
5.987178875000000,0,0xFD,0xFF
5.988620250000000,0,0x00,0xFF
5.990048041666666,0,0xFF,0xFF
5.991489375000000,0,0x68,0xFF
5.992917166666667,0,0xD7,0xFF
5.994358500000000,0,0x02,0xFF
5.995786333333333,0,0xFC,0xFF
5.997227666666666,0,0x29,0xFF
5.998655416666667,0,0xD4,0xFF
6.000096791666667,0,0x02,0xFF
6.001524583333333,0,0xF8,0xFF
6.002965916666667,0,0x15,0xFF
6.004393708333334,0,0xF0,0xFF
6.005835041666667,0,0x0A,0xFF
6.007262875000000,0,0xF0,0xFF
6.008704166666667,0,0x17,0xFF
6.010132000000000,0,0xC0,0xFF
6.011573333333334,0,0xBF,0xFF
6.013001125000000,0,0x00,0xFF
6.014442458333333,0,0x55,0xFF
6.015870250000000,0,0x00,0xFF
6.017311583333333,0,0xFF,0xFF
6.018739416666667,0,0x00,0xFF
6.020180708333333,0,0x55,0xFF
6.021608541666667,0,0x00,0xFF
6.023049875000000,0,0xBB,0xFF
6.024477666666667,0,0x00,0xFF
6.025918958333333,0,0x55,0xFF
6.027346833333334,0,0x00,0xFF
6.028788125000000,0,0xAA,0xFF
6.030216000000000,0,0x00,0xFF
6.031657250000000,0,0x76,0xFF
6.033085125000000,0,0x01,0xFF
6.034526375000000,0,0xFF,0xFF
6.035954250000000,0,0x00,0xFF
6.037395500000000,0,0x55,0xFF
6.038823375000000,0,0x00,0xFF
6.040264666666666,0,0xFF,0xFF
6.041692541666666,0,0x00,0xFF
6.043133750000000,0,0x75,0xFF
6.044561666666667,0,0x00,0xFF
6.046002916666667,0,0xBF,0xFF
6.047430791666667,0,0x00,0xFF
6.048872041666667,0,0x55,0xFF
6.050299958333333,0,0x00,0xFF
6.051741166666667,0,0xFF,0xFF
6.053169083333334,0,0x00,0xFF
6.054610291666667,0,0xBF,0xFF
6.056038250000000,0,0x7F,0xFF
6.057479416666666,0,0x3F,0xFF
6.058907375000000,0,0xFF,0xFF
6.060348541666666,0,0xD5,0xFF
6.061776500000000,0,0x7F,0xFF
6.063217666666667,0,0xFE,0xFF
6.064645666666666,0,0x3F,0xFF
6.066086791666667,0,0x75,0xFF
6.067514791666667,0,0x1F,0xFF
6.068955958333333,0,0xFF,0xFF
6.070383916666667,0,0x0F,0xFF
6.071825083333334,0,0x57,0xFF
6.073253083333333,0,0x0C,0xFF
6.074694250000000,0,0xEC,0xFF
6.076122250000000,0,0x00,0xFF
6.077563375000000,0,0xFF,0xFF
6.078991375000000,0,0xFF,0xFF
6.080432458333333,0,0xFF,0xFF
6.081860500000000,0,0xFF,0xFF
6.083301583333333,0,0x57,0xFF
6.084790708333333,0,0xFC,0xFF
6.086231791666667,0,0xA8,0xFF
6.087659875000000,0,0xF0,0xFF
6.089100916666666,0,0x71,0xFF
6.090529000000000,0,0xC0,0xFF
6.091970041666666,0,0x00,0xFF
6.093398166666667,0,0x80,0xFF
6.094839166666667,0,0x15,0xFF
6.096267250000000,0,0x00,0xFF
6.097708291666667,0,0x0A,0xFF
6.099136416666667,0,0x00,0xFF
6.100577458333333,0,0xF5,0xFF
6.102005541666666,0,0xFF,0xFF
6.103446583333334,0,0xFB,0xFF
6.104874708333333,0,0x80,0xFF
6.106315708333334,0,0x45,0xFF
6.107743833333333,0,0x00,0xFF
6.109184833333333,0,0x0A,0xFF
6.110612958333333,0,0x00,0xFF
6.112053958333333,0,0x55,0xFF
6.113482083333333,0,0x00,0xFF
6.114923083333333,0,0x3B,0xFF
6.116351250000000,0,0x00,0xFF
6.117792208333333,0,0x55,0xFF
6.119220375000000,0,0x00,0xFF
6.120661375000000,0,0xAF,0xFF
6.122089500000000,0,0x00,0xFF
6.123530500000000,0,0xFD,0xFF
6.124958666666667,0,0xFF,0xFF
6.126399625000000,0,0x7F,0xFF
6.127827833333333,0,0xFF,0xFF
6.129268750000000,0,0xBD,0xFF
6.130696958333333,0,0x7F,0xFF
6.132137875000000,0,0xDE,0xFF
6.133566083333333,0,0x3F,0xFF
6.135007000000000,0,0x6F,0xFF
6.136435208333333,0,0x1F,0xFF
6.137876166666667,0,0xFE,0xFF
6.139304375000000,0,0x0F,0xFF
6.140745291666667,0,0x5D,0xFF
6.142173500000000,0,0x0F,0xFF
6.143614416666667,0,0xFE,0xFF
6.145042666666667,0,0x0F,0xFF
6.146483541666667,0,0x57,0xFF
6.147911791666667,0,0xFF,0xFF
6.149352666666666,0,0x3B,0xFF
6.150780958333334,0,0xFF,0xFF
6.152221791666666,0,0x55,0xFF
6.153650083333333,0,0xFF,0xFF
6.155090958333333,0,0xAE,0xFF
6.156519250000000,0,0xFF,0xFF
6.157960083333333,0,0x75,0xFF
6.159388375000000,0,0xFF,0xFF
6.160829208333333,0,0xEA,0xFF
6.162257541666667,0,0xFF,0xFF
6.163698333333334,0,0x55,0xFF
6.165126666666667,0,0xFF,0xFF
6.166567458333334,0,0xEA,0xFF
6.167995833333333,0,0xFF,0xFF
6.169436583333333,0,0xD5,0xFF
6.170864916666667,0,0xFF,0xFF
6.172305708333333,0,0xFF,0xFF
6.173734083333334,0,0xFF,0xFF
6.175174875000000,0,0xD5,0xFF
6.176603208333334,0,0xFF,0xFF
6.178044000000000,0,0xEF,0xFF
6.179472375000000,0,0xFF,0xFF
6.180913125000000,0,0x55,0xFF
6.182341500000000,0,0xFF,0xFF
6.183782250000000,0,0xBF,0xFF
6.185271666666667,0,0xFF,0xFF
6.186712416666666,0,0x55,0xFF
6.188140833333334,0,0xFF,0xFF
6.189581583333333,0,0xFF,0xFF
6.191009958333333,0,0xFF,0xFF
6.192450708333333,0,0xFF,0xFF
6.193879125000000,0,0xFF,0xFF
6.195319833333333,0,0xFF,0xFF
6.196748250000000,0,0xFF,0xFF
6.198188958333334,0,0xFF,0xFF
6.199617375000000,0,0xFF,0xFF
6.201058083333334,0,0xFF,0xFF
6.202486541666667,0,0xFF,0xFF
6.203927208333333,0,0xFF,0xFF
6.205355666666667,0,0xFF,0xFF
6.206796333333333,0,0xFF,0xFF
6.208224791666667,0,0xFF,0xFF
6.209665500000000,0,0xFF,0xFF
6.211093958333334,0,0xFF,0xFF
6.212534625000000,0,0xFF,0xFF
6.213963083333334,0,0xFF,0xFF
6.215403750000000,0,0xFF,0xFF
6.216832250000000,0,0xFF,0xFF
6.218272875000000,0,0xFF,0xFF
6.219701375000000,0,0xFF,0xFF
6.221142000000000,0,0xFF,0xFF
6.222570500000000,0,0xFF,0xFF
6.224011125000000,0,0xFF,0xFF
6.225439666666666,0,0xFF,0xFF
6.226880291666666,0,0xFF,0xFF
6.228308791666667,0,0xFF,0xFF
6.229749416666666,0,0xFF,0xFF
6.231177958333333,0,0xFF,0xFF
6.232618541666667,0,0xFF,0xFF
6.234047083333333,0,0xFF,0xFF
6.235487666666667,0,0xFF,0xFF
6.236916208333334,0,0xFF,0xFF
6.238356791666667,0,0xFF,0xFF
6.239785375000000,0,0xFF,0xFF
6.241225916666667,0,0xFF,0xFF
6.242654500000000,0,0xFF,0xFF
6.244095083333334,0,0xFF,0xFF
6.245523666666666,0,0xFF,0xFF
6.246964208333333,0,0xFD,0xFF
6.248392791666666,0,0xFE,0xFF
6.249833375000000,0,0xFD,0xFF
6.251261916666667,0,0xF8,0xFF
6.252702500000000,0,0xF2,0xFF
6.254131083333333,0,0xF0,0xFF
6.255571625000000,0,0xF5,0xFF
6.257000208333333,0,0xE0,0xFF
6.258440750000000,0,0xCA,0xFF
6.259869375000000,0,0xE0,0xFF
6.261309875000000,0,0xFF,0xFF
6.262738500000000,0,0xFF,0xFF
6.264179000000000,0,0xFF,0xFF
6.265607625000000,0,0xFF,0xFF
6.267048125000000,0,0xDF,0xFF
6.268476791666667,0,0xFF,0xFF
6.269917250000000,0,0xAF,0xFF
6.271345916666666,0,0x00,0xFF
6.272786375000000,0,0x55,0xFF
6.274215041666666,0,0x00,0xFF
6.275655500000000,0,0x22,0xFF
6.277084208333333,0,0x00,0xFF
6.278524666666667,0,0x55,0xFF
6.279953333333333,0,0x00,0xFF
6.281393791666667,0,0xAF,0xFF
6.282822458333333,0,0x00,0xFF
6.284262916666667,0,0xFF,0xFF
6.285752666666666,0,0xFF,0xFF
6.287193083333333,0,0xFF,0xFF
6.288621791666666,0,0xFF,0xFF
6.290062208333334,0,0xFF,0xFF
6.291490958333333,0,0xFF,0xFF
6.292931333333334,0,0x7F,0xFF
6.294360083333333,0,0xFF,0xFF
6.295800458333333,0,0x6F,0xFF
6.297229208333333,0,0x17,0xFF
6.298669625000000,0,0x0B,0xFF
6.300098333333334,0,0x00,0xFF
6.301538750000000,0,0x55,0xFF
6.302967500000000,0,0x00,0xFF
6.304407916666666,0,0xE8,0xFF
6.305836666666667,0,0x00,0xFF
6.307277041666667,0,0xFF,0xFF
6.308705791666666,0,0xFF,0xFF
6.310146125000000,0,0xFF,0xFF
6.311574916666666,0,0xFF,0xFF
6.313015291666667,0,0xFF,0xFF
6.314444083333333,0,0xFF,0xFF
6.315884416666667,0,0xFF,0xFF
6.317313208333333,0,0xFF,0xFF
6.318753541666666,0,0xFF,0xFF
6.320182375000000,0,0xFF,0xFF
6.321622666666666,0,0x3F,0xFF
6.323051500000000,0,0xFF,0xFF
6.324491791666667,0,0x77,0xFF
6.325920625000000,0,0x0F,0xFF
6.327360916666667,0,0x3F,0xFF
6.328789750000000,0,0x00,0xFF
6.330230083333333,0,0xD1,0xFF
6.331658916666667,0,0xFF,0xFF
6.333099208333334,0,0xB0,0xFF
6.334528083333334,0,0xFF,0xFF
6.335968333333334,0,0xD8,0xFF
6.337397208333333,0,0xF7,0xFF
6.338837458333333,0,0x80,0xFF
6.340266375000000,0,0xFF,0xFF
6.341706583333333,0,0x09,0xFF
6.343135500000000,0,0xF7,0xFF
6.344575708333333,0,0x01,0xFF
6.346004625000000,0,0xFF,0xFF
6.347444833333333,0,0x82,0xFF
6.348873791666667,0,0xFD,0xFF
6.350314000000000,0,0xFE,0xFF
6.351742916666667,0,0x00,0xFF
6.353183125000000,0,0x15,0xFF
6.354612041666667,0,0xE0,0xFF
6.356052250000000,0,0x13,0xFF
6.357481208333334,0,0xE0,0xFF
6.358921375000000,0,0x55,0xFF
6.360350333333334,0,0xC0,0xFF
6.361790500000000,0,0x6E,0xFF
6.363219500000000,0,0xC0,0xFF
6.364659625000000,0,0x55,0xFF
6.366088625000000,0,0x80,0xFF
6.367528791666667,0,0xBA,0xFF
6.368957791666666,0,0x80,0xFF
6.370397916666667,0,0x55,0xFF
6.371826875000000,0,0x00,0xFF
6.373267083333333,0,0xAA,0xFF
6.374696041666667,0,0x00,0xFF
6.376136166666667,0,0x55,0xFF
6.377565166666667,0,0x00,0xFF
6.379005333333334,0,0xA3,0xFF
6.380434291666667,0,0x00,0xFF
6.381874416666666,0,0x55,0xFF
6.383303458333334,0,0x00,0xFF
6.384743583333333,0,0xAF,0xFF
6.386233625000000,0,0x01,0xFF
6.387673750000000,0,0x57,0xFF
6.389102750000000,0,0x03,0xFF
6.390542875000000,0,0xAF,0xFF
6.391971916666667,0,0x07,0xFF
6.393412000000000,0,0x5F,0xFF
6.394841041666667,0,0x04,0xFF
6.396281166666666,0,0xAC,0xFF
6.397710208333334,0,0x0C,0xFF
6.399150250000000,0,0x55,0xFF
6.400579333333333,0,0x00,0xFF
6.402019416666667,0,0xFF,0xFF
6.403448458333333,0,0x00,0xFF
6.404888541666667,0,0xA5,0xFF
6.406317625000000,0,0x50,0xFF
6.407757708333333,0,0xFA,0xFF
6.409186791666666,0,0xFC,0xFF
6.410626833333334,0,0xA5,0xFF
6.412055916666667,0,0xDE,0xFF
6.413495916666666,0,0x01,0xFF
6.414925041666667,0,0x02,0xFF
6.416365041666666,0,0x55,0xFF
6.417794166666667,0,0x00,0xFF
6.419234208333333,0,0x0E,0xFF
6.420663333333334,0,0x00,0xFF
6.422103333333333,0,0x55,0xFF
6.423532458333334,0,0x00,0xFF
6.424972458333333,0,0xAE,0xFF
6.426401625000000,0,0x00,0xFF
6.427841583333334,0,0x55,0xFF
6.429270750000000,0,0x00,0xFF
6.430710750000000,0,0xEF,0xFF
6.432139875000000,0,0x00,0xFF
6.433579833333333,0,0x57,0xFF
6.435009041666667,0,0x00,0xFF
6.436449000000000,0,0xBF,0xFF
6.437878166666667,0,0x00,0xFF
6.439318125000000,0,0x7F,0xFF
6.440747291666667,0,0x00,0xFF
6.442187291666666,0,0xFF,0xFF
6.443616458333334,0,0x00,0xFF
6.445056375000000,0,0x55,0xFF
6.446485583333334,0,0x00,0xFF
6.447925541666667,0,0xA3,0xFF
6.449354708333333,0,0x00,0xFF
6.450794625000000,0,0x55,0xFF
6.452223875000000,0,0x00,0xFF
6.453663791666667,0,0xFE,0xFF
6.455093041666666,0,0x00,0xFF
6.456532916666666,0,0x77,0xFF
6.457962166666666,0,0x00,0xFF
6.459402041666666,0,0xFF,0xFF
6.460831291666667,0,0x00,0xFF
6.462271208333333,0,0xFB,0xFF
6.463700416666667,0,0x04,0xFF
6.465140333333333,0,0xFF,0xFF
6.466569583333333,0,0x00,0xFF
6.468009416666667,0,0x55,0xFF
6.469438708333334,0,0x00,0xFF
6.470878583333334,0,0xBB,0xFF
6.472307875000000,0,0x00,0xFF
6.473747708333334,0,0x55,0xFF
6.475177000000000,0,0x00,0xFF
6.476616833333333,0,0xAF,0xFF
6.478046125000000,0,0x00,0xFF
6.479485958333333,0,0x55,0xFF
6.480915291666666,0,0x00,0xFF
6.482355125000000,0,0x82,0xFF
6.483784458333333,0,0x00,0xFF
6.485224250000000,0,0x85,0xFF
6.486714625000000,0,0x40,0xFF
6.488154416666666,0,0xDF,0xFF
6.489583750000000,0,0x20,0xFF
6.491023541666666,0,0x75,0xFF
6.492452875000000,0,0x0F,0xFF
6.493892666666667,0,0xF6,0xFF
6.495322041666666,0,0x0F,0xFF
6.496761791666667,0,0x5D,0xFF
6.498191166666667,0,0x07,0xFF
6.499630916666667,0,0xFA,0xFF
6.501060333333333,0,0x07,0xFF
6.502500041666667,0,0x53,0xFF
6.503929458333333,0,0x07,0xFF
6.505369166666667,0,0x2F,0xFF
6.506798583333333,0,0x03,0xFF
6.508238291666666,0,0x5E,0xFF
6.509667750000000,0,0x01,0xFF
6.511107458333333,0,0xFF,0xFF
6.512536875000000,0,0x00,0xFF
6.513976583333333,0,0x55,0xFF
6.515406041666667,0,0xFF,0xFF
6.516845708333333,0,0xBA,0xFF
6.518275208333334,0,0xFF,0xFF
6.519714833333333,0,0x55,0xFF
6.521144333333333,0,0xFF,0xFF
6.522583958333334,0,0xFE,0xFF
6.524013458333333,0,0xFF,0xFF
6.525453083333334,0,0x55,0xFF
6.526882583333333,0,0xFF,0xFF
6.528322250000000,0,0xAB,0xFF
6.529751750000000,0,0xFF,0xFF
6.531191375000000,0,0x57,0xFF
6.532620875000000,0,0xFF,0xFF
6.534060500000000,0,0xEE,0xFF
6.535490041666667,0,0x3F,0xFF
6.536929625000000,0,0x55,0xFF
6.538359166666667,0,0xFF,0xFF
6.539798750000000,0,0xBB,0xFF
6.541228291666667,0,0xFF,0xFF
6.542667875000000,0,0x55,0xFF
6.544097458333333,0,0xFF,0xFF
6.545537041666667,0,0xAE,0xFF
6.546966625000000,0,0xFF,0xFF
6.548406166666667,0,0x77,0xFF
6.549835708333333,0,0xFF,0xFF
6.551275291666666,0,0xAF,0xFF
6.552704875000000,0,0xFF,0xFF
6.554144416666666,0,0x55,0xFF
6.555574000000000,0,0xFF,0xFF
6.557013541666667,0,0xAE,0xFF
6.558443166666667,0,0xFF,0xFF
6.559882708333333,0,0xFF,0xFF
6.561312291666667,0,0xFF,0xFF
6.562751833333333,0,0xFF,0xFF
6.564181416666667,0,0xFF,0xFF
6.565620958333334,0,0xFF,0xFF
6.567050583333334,0,0xFF,0xFF
6.568490083333334,0,0xFF,0xFF
6.569919708333333,0,0xFF,0xFF
6.571359208333333,0,0xFF,0xFF
6.572788875000000,0,0xFF,0xFF
6.574228333333333,0,0xFF,0xFF
6.575658000000000,0,0xFF,0xFF
6.577097458333333,0,0xFF,0xFF
6.578527125000000,0,0xFF,0xFF
6.579966625000000,0,0xFF,0xFF
6.581396291666667,0,0xFF,0xFF
6.582835750000000,0,0xFF,0xFF
6.584265416666667,0,0xFF,0xFF
6.585704875000000,0,0xFF,0xFF
6.587134541666667,0,0xFF,0xFF
6.588574000000000,0,0xFF,0xFF
6.590003708333334,0,0xFF,0xFF
6.591443125000000,0,0xFF,0xFF
6.592872833333334,0,0xFF,0xFF
6.594312250000000,0,0xFF,0xFF
6.595742000000000,0,0xFF,0xFF
6.597181416666666,0,0xFF,0xFF
6.598611125000000,0,0xFF,0xFF
6.600050541666667,0,0xFF,0xFF
6.601480250000000,0,0xFF,0xFF
6.602919666666667,0,0xFF,0xFF
6.604349416666667,0,0xFF,0xFF
6.605788791666667,0,0xD5,0xFF
6.607218541666667,0,0xC0,0xFF
6.608657958333334,0,0xFB,0xFF
6.610087708333333,0,0xC0,0xFF
6.611527083333334,0,0xD5,0xFF
6.612956833333334,0,0xC0,0xFF
6.614396208333333,0,0xBF,0xFF
6.615825958333334,0,0xC0,0xFF
6.617265333333333,0,0x97,0xFF
6.618695125000000,0,0xC0,0xFF
6.620134500000000,0,0xBF,0xFF
6.621564250000000,0,0xC0,0xFF
6.623003625000000,0,0xBD,0xFF
6.624433375000000,0,0xC0,0xFF
6.625872750000000,0,0xBF,0xFF
6.627302541666666,0,0xC0,0xFF
6.628741833333334,0,0x55,0xFF
6.630171666666667,0,0x00,0xFF
6.631611000000000,0,0xFF,0xFF
6.633040791666667,0,0x00,0xFF
6.634480125000000,0,0x55,0xFF
6.635909958333333,0,0x00,0xFF
6.637349250000000,0,0xFF,0xFF
6.638779083333334,0,0x00,0xFF
6.640218375000000,0,0x75,0xFF
6.641648208333334,0,0x00,0xFF
6.643087541666667,0,0xFF,0xFF
6.644517375000000,0,0x00,0xFF
6.645956666666667,0,0xD5,0xFF
6.647386500000000,0,0x00,0xFF
6.648825791666667,0,0xFF,0xFF
6.650255625000000,0,0x00,0xFF
6.651694916666667,0,0x55,0xFF
6.653124791666666,0,0x00,0xFF
6.654564041666666,0,0xBB,0xFF
6.655993916666667,0,0x00,0xFF
6.657433166666666,0,0x55,0xFF
6.658863083333333,0,0x00,0xFF
6.660302333333333,0,0xFF,0xFF
6.661732208333333,0,0x00,0xFF
6.663171416666667,0,0x55,0xFF
6.664601333333334,0,0x00,0xFF
6.666040583333333,0,0xBA,0xFF
6.667470500000000,0,0x00,0xFF
6.668909708333334,0,0x55,0xFF
6.670339625000000,0,0x00,0xFF
6.671778833333334,0,0xA8,0xFF
6.673208791666666,0,0x00,0xFF
6.674647958333333,0,0x55,0xFF
6.676077916666666,0,0x00,0xFF
6.677517125000000,0,0xA2,0xFF
6.678947083333333,0,0x00,0xFF
6.680386208333333,0,0x54,0xFF
6.681816208333333,0,0x00,0xFF
6.683255375000000,0,0xE0,0xFF
6.684685333333333,0,0x00,0xFF
6.686124500000000,0,0x50,0xFF
6.687615541666666,0,0x00,0xFF
6.689054666666666,0,0x00,0xFF
6.690484666666666,0,0x00,0xFF
6.691923791666667,0,0x00,0xFF
6.693353833333333,0,0x00,0xFF
6.694792916666667,0,0x00,0xFF
6.696222958333333,0,0x00,0xFF
6.697662041666667,0,0x55,0xFF
6.699092083333333,0,0x00,0xFF
6.700531166666667,0,0x00,0xFF
6.701961250000000,0,0x00,0xFF
6.703400333333334,0,0x40,0xFF
6.704830375000000,0,0x00,0xFF
6.706269458333334,0,0x00,0xFF
6.707699541666667,0,0x00,0xFF
6.709138583333333,0,0x00,0xFF
6.710568666666667,0,0x00,0xFF
6.712007708333333,0,0x00,0xFF
6.713437791666666,0,0x00,0xFF
6.714876833333333,0,0x00,0xFF
6.716306958333333,0,0x00,0xFF
6.717745958333333,0,0x00,0xFF
6.719176083333333,0,0x00,0xFF
6.720615125000000,0,0x55,0xFF
6.722045208333333,0,0x00,0xFF
6.723484250000000,0,0x22,0xFF
6.724914375000000,0,0x00,0xFF
6.726353375000000,0,0x54,0xFF
6.727783500000000,0,0x00,0xFF
6.729222541666666,0,0x88,0xFF
6.730652666666667,0,0x00,0xFF
6.732091625000000,0,0x55,0xFF
6.733521791666667,0,0x00,0xFF
6.734960791666667,0,0xA2,0xFF
6.736390958333334,0,0x00,0xFF
6.737829916666667,0,0x55,0xFF
6.739260041666666,0,0x00,0xFF
6.740699041666667,0,0x8A,0xFF
6.742129208333333,0,0x00,0xFF
6.743568166666667,0,0x51,0xFF
6.744998333333333,0,0x0C,0xFF
6.746437291666667,0,0x3C,0xFF
6.747867500000000,0,0x08,0xFF
6.749306416666666,0,0x59,0xFF
6.750736625000000,0,0x04,0xFF
6.752175583333333,0,0xA8,0xFF
6.753605791666667,0,0x04,0xFF
6.755044666666667,0,0x56,0xFF
6.756474916666667,0,0x00,0xFF
6.757913833333333,0,0x03,0xFF
6.759344041666667,0,0x00,0xFF
6.760782958333333,0,0x55,0xFF
6.762213166666666,0,0x00,0xFF
6.763652083333334,0,0x0A,0xFF
6.765082333333333,0,0x00,0xFF
6.766521208333334,0,0x55,0xFF
6.767951458333333,0,0x00,0xFF
6.769390333333333,0,0x2B,0xFF
6.770820625000000,0,0x00,0xFF
6.772259458333333,0,0x5D,0xFF
6.773689750000000,0,0x00,0xFF
6.775128625000000,0,0x8B,0xFF
6.776558875000000,0,0x00,0xFF
6.777997750000000,0,0x55,0xFF
6.779428041666667,0,0x00,0xFF
6.780866875000000,0,0x0B,0xFF
6.782297166666667,0,0x00,0xFF
6.783736000000000,0,0x5D,0xFF
6.785166333333334,0,0x00,0xFF
6.786605125000000,0,0x26,0xFF
6.788096541666667,0,0x08,0xFF
6.789535333333333,0,0xF7,0xFF
6.790965625000000,0,0x00,0xFF
6.792404458333333,0,0xFF,0xFF
6.793834791666667,0,0x00,0xFF
6.795273625000000,0,0xD7,0xFF
6.796703916666667,0,0x00,0xFF
6.798142750000000,0,0xFF,0xFF
6.799573083333334,0,0x00,0xFF
6.801011833333333,0,0x56,0xFF
6.802442208333333,0,0x01,0xFF
6.803880958333333,0,0xBF,0xFF
6.805311333333333,0,0x00,0xFF
6.806750083333333,0,0x5E,0xFF
6.808180500000000,0,0x01,0xFF
6.809619250000000,0,0xFF,0xFF
6.811049625000000,0,0x00,0xFF
6.812488375000000,0,0x7F,0xFF
6.813918750000000,0,0x00,0xFF
6.815357541666667,0,0xFF,0xFF
6.816787916666667,0,0x00,0xFF
6.818226666666667,0,0xFF,0xFF
6.819657041666667,0,0x00,0xFF
6.821095791666667,0,0xFF,0xFF
6.822526208333334,0,0x00,0xFF
6.823964916666666,0,0xF7,0xFF
6.825395333333334,0,0x00,0xFF
6.826834041666666,0,0xFF,0xFF
6.828264458333333,0,0x00,0xFF
6.829703166666667,0,0xF5,0xFF
6.831133625000000,0,0x00,0xFF
6.832572333333333,0,0xFF,0xFF
6.834002750000000,0,0x00,0xFF
6.835441458333333,0,0xF7,0xFF
6.836871916666666,0,0x10,0xFF
6.838310583333334,0,0xF7,0xFF
6.839741041666667,0,0x08,0xFF
6.841179708333334,0,0xE3,0xFF
6.842610166666667,0,0x1C,0xFF
6.844048833333333,0,0xFF,0xFF
6.845479333333333,0,0x08,0xFF
6.846917958333333,0,0x72,0xFF
6.848348500000000,0,0x0D,0xFF
6.849787083333333,0,0xF6,0xFF
6.851217625000000,0,0x0F,0xFF
6.852656208333333,0,0xF7,0xFF
6.854086750000000,0,0x0F,0xFF
6.855525333333333,0,0xFB,0xFF
6.856955875000000,0,0x0C,0xFF
6.858394500000000,0,0xEF,0xFF
6.859825041666666,0,0x10,0xFF
6.861263625000000,0,0xFF,0xFF
6.862694166666667,0,0x00,0xFF
6.864132750000000,0,0xFF,0xFF
6.865563291666667,0,0x00,0xFF
6.867001875000000,0,0xFF,0xFF
6.868432458333333,0,0x00,0xFF
6.869871041666666,0,0xF7,0xFF
6.871301583333334,0,0x00,0xFF
6.872740166666667,0,0xFF,0xFF
6.874170750000000,0,0x00,0xFF
6.875609250000000,0,0x15,0xFF
6.877039875000000,0,0xC0,0xFF
6.878478416666667,0,0xFF,0xFF
6.879909041666667,0,0xC0,0xFF
6.881347541666667,0,0xF7,0xFF
6.882778166666666,0,0x1F,0xFF
6.884216666666667,0,0xFF,0xFF
6.885647291666666,0,0x0F,0xFF
6.887085791666666,0,0xF5,0xFF
6.888577500000000,0,0x0F,0xFF
6.890015958333334,0,0xF6,0xFF
6.891446625000000,0,0x0F,0xFF
6.892885083333334,0,0x6B,0xFF
6.894315750000000,0,0x17,0xFF
6.895754250000000,0,0xFF,0xFF
6.897184916666666,0,0x03,0xFF
6.898623375000000,0,0xEB,0xFF
6.900054041666666,0,0x17,0xFF
6.901492500000000,0,0xF3,0xFF
6.902923166666667,0,0x0F,0xFF
6.904361625000000,0,0xD5,0xFF
6.905792333333333,0,0xFF,0xFF
6.907230750000000,0,0xFB,0xFF
6.908661500000000,0,0xFF,0xFF
6.910099875000000,0,0xDD,0xFF
6.911530625000000,0,0xFF,0xFF
6.912969041666667,0,0xEF,0xFF
6.914399750000000,0,0xFF,0xFF
6.915838125000000,0,0x55,0xFF
6.917268916666667,0,0xFF,0xFF
6.918707291666666,0,0xFA,0xFF
6.920138083333334,0,0xFF,0xFF
6.921576416666666,0,0xF7,0xFF
6.923007208333333,0,0xFF,0xFF
6.924445541666667,0,0xFF,0xFF
6.925876333333333,0,0xFF,0xFF
6.927314666666667,0,0xFF,0xFF
6.928745458333333,0,0xFF,0xFF
6.930183791666667,0,0xFF,0xFF
6.931614625000000,0,0xFF,0xFF
6.933052958333334,0,0xFF,0xFF
6.934483750000000,0,0xFF,0xFF
6.935922083333334,0,0xFF,0xFF
6.937352916666667,0,0xFF,0xFF
6.938791208333333,0,0xFF,0xFF
6.940222041666667,0,0xFF,0xFF
6.941660333333333,0,0xFF,0xFF
6.943091166666667,0,0xFF,0xFF
6.944529458333333,0,0xFF,0xFF
6.945960333333334,0,0xFF,0xFF
6.947398583333333,0,0xFF,0xFF
6.948829458333333,0,0xFF,0xFF
6.950267750000000,0,0xFF,0xFF
6.951698583333333,0,0xFF,0xFF
6.953136875000000,0,0xFF,0xFF
6.954567750000000,0,0xFF,0xFF
6.956006000000000,0,0xFF,0xFF
6.957436875000000,0,0xFF,0xFF
6.958875125000000,0,0xFF,0xFF
6.960306041666667,0,0xFF,0xFF
6.961744250000000,0,0xFF,0xFF
6.963175166666667,0,0xFF,0xFF
6.964613375000000,0,0xFF,0xFF
6.966044291666667,0,0xFF,0xFF
6.967482541666667,0,0xFF,0xFF
6.968913458333334,0,0xFF,0xFF
6.970351666666667,0,0xFF,0xFF
6.971782583333333,0,0xFF,0xFF
6.973220791666667,0,0xB7,0xFF
6.974651708333333,0,0xC0,0xFF
6.976089958333334,0,0xBF,0xFF
6.977520875000000,0,0xC0,0xFF
6.978959083333334,0,0xEF,0xFF
6.980390000000000,0,0xD0,0xFF
6.981828208333333,0,0xDF,0xFF
6.983259166666667,0,0xE0,0xFF
6.984697333333333,0,0xEF,0xFF
6.986128291666667,0,0xD0,0xFF
6.987566458333333,0,0xDF,0xFF
6.989058458333333,0,0xE0,0xFF
6.990496666666667,0,0xCB,0xFF
6.991927625000000,0,0xF4,0xFF
6.993365791666666,0,0xC7,0xFF
6.994796750000000,0,0xF8,0xFF
6.996234875000000,0,0x55,0xFF
6.997665875000000,0,0x00,0xFF
6.999104041666667,0,0xFF,0xFF
7.000535041666667,0,0x00,0xFF
7.001973166666667,0,0xD5,0xFF
7.003404166666667,0,0x00,0xFF
7.004842291666667,0,0xFE,0xFF
7.006273333333334,0,0x00,0xFF
7.007711416666667,0,0x54,0xFF
7.009142458333334,0,0x00,0xFF
7.010580583333334,0,0xF0,0xFF
7.012011625000000,0,0x00,0xFF
7.013449666666666,0,0x50,0xFF
7.014880750000000,0,0x00,0xFF
7.016318833333333,0,0xE0,0xFF
7.017749875000000,0,0x00,0xFF
7.019187958333333,0,0x50,0xFF
7.020619041666667,0,0x00,0xFF
7.022057083333333,0,0x80,0xFF
7.023488166666667,0,0x00,0xFF
7.024926208333333,0,0x00,0xFF
7.026357333333333,0,0x00,0xFF
7.027795333333334,0,0x00,0xFF
7.029226458333333,0,0x00,0xFF
7.030664458333334,0,0x00,0xFF
7.032095583333334,0,0x00,0xFF
7.033533583333333,0,0x00,0xFF
7.034964750000000,0,0x00,0xFF
7.036402708333333,0,0x00,0xFF
7.037833875000000,0,0x00,0xFF
7.039271875000000,0,0x00,0xFF
7.040703000000000,0,0x00,0xFF
7.042141000000000,0,0x00,0xFF
7.043572166666666,0,0x00,0xFF
7.045010125000000,0,0x00,0xFF
7.046441291666667,0,0x00,0xFF
7.047879250000000,0,0x00,0xFF
7.049310458333333,0,0x00,0xFF
7.050748375000000,0,0x00,0xFF
7.052179583333333,0,0x00,0xFF
7.053617500000000,0,0x00,0xFF
7.055048708333334,0,0x00,0xFF
7.056486666666666,0,0x00,0xFF
7.057917875000000,0,0x00,0xFF
7.059355791666666,0,0x00,0xFF
7.060787000000000,0,0x00,0xFF
7.062224916666667,0,0x00,0xFF
7.063656125000000,0,0x00,0xFF
7.065094041666667,0,0x00,0xFF
7.066525291666666,0,0x00,0xFF
7.067963166666667,0,0x00,0xFF
7.069394416666666,0,0x00,0xFF
7.070832291666667,0,0x00,0xFF
7.072263583333333,0,0x00,0xFF
7.073701458333334,0,0x00,0xFF
7.075132708333333,0,0x00,0xFF
7.076570583333333,0,0x00,0xFF
7.078001833333333,0,0x00,0xFF
7.079439708333333,0,0x00,0xFF
7.080871000000000,0,0x00,0xFF
7.082308833333333,0,0x00,0xFF
7.083740125000000,0,0x00,0xFF
7.085177958333333,0,0x00,0xFF
7.086609291666667,0,0x00,0xFF
7.088047083333334,0,0x55,0xFF
7.089539458333333,0,0x00,0xFF
7.090977291666666,0,0x22,0xFF
7.092408583333333,0,0x00,0xFF
7.093846416666667,0,0x55,0xFF
7.095277708333334,0,0x00,0xFF
7.096715541666667,0,0x68,0xFF
7.098146875000000,0,0x00,0xFF
7.099584666666667,0,0x75,0xFF
7.101016000000000,0,0x00,0xFF
7.102453791666667,0,0x00,0xFF
7.103885166666666,0,0x20,0xFF
7.105322916666666,0,0x15,0xFF
7.106754291666666,0,0x10,0xFF
7.108192083333333,0,0x1A,0xFF
7.109623458333333,0,0x0C,0xFF
7.111061208333333,0,0x15,0xFF
7.112492583333333,0,0x00,0xFF
7.113930333333333,0,0x02,0xFF
7.115361708333333,0,0x00,0xFF
7.116799458333333,0,0x55,0xFF
7.118230833333334,0,0x00,0xFF
7.119668583333334,0,0x00,0xFF
7.121100000000000,0,0x00,0xFF
7.122537708333334,0,0x11,0xFF
7.123969125000000,0,0x00,0xFF
7.125406875000000,0,0x00,0xFF
7.126838291666667,0,0x00,0xFF
7.128276000000000,0,0x05,0xFF
7.129707416666666,0,0x00,0xFF
7.131145166666666,0,0x82,0xFF
7.132576583333333,0,0x00,0xFF
7.134014250000000,0,0x5D,0xFF
7.135445708333333,0,0x00,0xFF
7.136883375000000,0,0x2B,0xFF
7.138314833333333,0,0x04,0xFF
7.139752500000000,0,0x53,0xFF
7.141183958333333,0,0x04,0xFF
7.142621666666667,0,0x83,0xFF
7.144053125000000,0,0x02,0xFF
7.145490791666667,0,0x51,0xFF
7.146922250000000,0,0x01,0xFF
7.148359916666666,0,0x21,0xFF
7.149791416666667,0,0x00,0xFF
7.151229041666666,0,0x51,0xFF
7.152660541666667,0,0x07,0xFF
7.154098166666667,0,0xCE,0xFF
7.155529708333333,0,0x3F,0xFF
7.156967291666667,0,0x6A,0xFF
7.158398833333333,0,0x15,0xFF
7.159836416666667,0,0xFF,0xFF
7.161267958333333,0,0x00,0xFF
7.162705583333334,0,0x7D,0xFF
7.164137125000000,0,0x00,0xFF
7.165574708333334,0,0xFF,0xFF
7.167006250000000,0,0x00,0xFF
7.168443833333333,0,0x55,0xFF
7.169875375000000,0,0x00,0xFF
7.171313000000000,0,0xBB,0xFF
7.172744541666667,0,0xC0,0xFF
7.174182125000000,0,0xC5,0xFF
7.175613708333334,0,0xF0,0xFF
7.177051250000000,0,0x8C,0xFF
7.178482875000000,0,0xFF,0xFF
7.179920375000000,0,0xF7,0xFF
7.181351958333333,0,0x00,0xFF
7.182789500000000,0,0xFF,0xFF
7.184221083333333,0,0x00,0xFF
7.185658625000000,0,0x55,0xFF
7.187090250000000,0,0x00,0xFF
7.188527791666667,0,0xFF,0xFF
7.190020416666667,0,0x00,0xFF
7.191457916666667,0,0x57,0xFF
7.192889541666666,0,0x00,0xFF
7.194327083333333,0,0xBE,0xFF
7.195758708333333,0,0x01,0xFF
7.197196166666667,0,0x5B,0xFF
7.198627833333333,0,0x07,0xFF
7.200065333333334,0,0x1F,0xFF
7.201497000000000,0,0xFF,0xFF
7.202934458333333,0,0x6A,0xFF
7.204366125000000,0,0x1D,0xFF
7.205803583333333,0,0xE8,0xFF
7.207235291666667,0,0x1F,0xFF
7.208672708333333,0,0xFA,0xFF
7.210104416666667,0,0x1D,0xFF
7.211541833333333,0,0xF7,0xFF
7.212973541666667,0,0x38,0xFF
7.214411000000000,0,0xFA,0xFF
7.215842708333334,0,0x75,0xFF
7.217280125000000,0,0xEF,0xFF
7.218711833333334,0,0xF0,0xFF
7.220149291666667,0,0xEF,0xFF
7.221581000000000,0,0xD0,0xFF
7.223018375000000,0,0x7F,0xFF
7.224450125000000,0,0x80,0xFF
7.225887500000000,0,0x77,0xFF
7.227319250000000,0,0x40,0xFF
7.228756666666666,0,0xDF,0xFF
7.230188375000000,0,0x20,0xFF
7.231625791666667,0,0xFF,0xFF
7.233057541666667,0,0x00,0xFF
7.234494916666667,0,0xFF,0xFF
7.235926666666667,0,0x00,0xFF
7.237364041666667,0,0x76,0xFF
7.238795833333334,0,0x01,0xFF
7.240233166666667,0,0xFF,0xFF
7.241664958333334,0,0x00,0xFF
7.243102333333334,0,0xFB,0xFF
7.244534083333333,0,0x04,0xFF
7.245971458333333,0,0xFF,0xFF
7.247403250000000,0,0x00,0xFF
7.248840583333333,0,0x6B,0xFF
7.250272375000000,0,0x17,0xFF
7.251709708333333,0,0xDF,0xFF
7.253141541666666,0,0x23,0xFF
7.254578833333333,0,0xEB,0xFF
7.256010666666667,0,0x17,0xFF
7.257447958333334,0,0xFB,0xFF
7.258879791666667,0,0x07,0xFF
7.260317083333334,0,0xEB,0xFF
7.261748958333333,0,0x17,0xFF
7.263186208333333,0,0xFB,0xFF
7.264618083333334,0,0x07,0xFF
7.266055333333333,0,0xFF,0xFF
7.267487208333334,0,0x07,0xFF
7.268924500000000,0,0xF7,0xFF
7.270356375000000,0,0x0F,0xFF
7.271793625000000,0,0xFF,0xFF
7.273225541666666,0,0xFF,0xFF
7.274662750000000,0,0xFF,0xFF
7.276094666666666,0,0xFF,0xFF
7.277531875000000,0,0xFF,0xFF
7.278963791666667,0,0xFF,0xFF
7.280401000000000,0,0xFF,0xFF
7.281832958333333,0,0xFF,0xFF
7.283270125000000,0,0xF7,0xFF
7.284702083333333,0,0xFF,0xFF
7.286139291666666,0,0xFF,0xFF
7.287571250000000,0,0xFF,0xFF
7.289008416666666,0,0xFF,0xFF
7.290501416666666,0,0xFF,0xFF
7.291938583333334,0,0xFF,0xFF
7.293370541666667,0,0xFF,0xFF
7.294807708333333,0,0xFF,0xFF
7.296239708333333,0,0xFF,0xFF
7.297676833333333,0,0xFF,0xFF
7.299108833333333,0,0xFF,0xFF
7.300545958333333,0,0xFF,0xFF
7.301978000000000,0,0xFF,0xFF
7.303415125000000,0,0xFF,0xFF
7.304847125000000,0,0xFF,0xFF
7.306284250000000,0,0xFF,0xFF
7.307716250000000,0,0xFF,0xFF
7.309153375000000,0,0xFF,0xFF
7.310585416666667,0,0xFF,0xFF
7.312022500000000,0,0xFF,0xFF
7.313454541666666,0,0xFF,0xFF
7.314891625000000,0,0xFF,0xFF
7.316323666666666,0,0xFF,0xFF
7.317760750000000,0,0xFF,0xFF
7.319192833333333,0,0xFF,0xFF
7.320629916666666,0,0xFF,0xFF
7.322061958333333,0,0xFF,0xFF
7.323499041666667,0,0xFF,0xFF
7.324931125000000,0,0xFF,0xFF
7.326368166666667,0,0xFF,0xFF
7.327800250000000,0,0xFF,0xFF
7.329237291666667,0,0xFF,0xFF
7.330669375000000,0,0xFF,0xFF
7.332106416666667,0,0xFF,0xFF
7.333538541666667,0,0xFF,0xFF
7.334975541666667,0,0xFF,0xFF
7.336407666666667,0,0xFF,0xFF
7.337844708333333,0,0xFF,0xFF
7.339276833333333,0,0xFF,0xFF
7.340713833333333,0,0xEB,0xFF
7.342145958333333,0,0xF4,0xFF
7.343583000000000,0,0xEF,0xFF
7.345015083333333,0,0xF0,0xFF
7.346452125000000,0,0xFF,0xFF
7.347884250000000,0,0xF0,0xFF
7.349321250000000,0,0xF6,0xFF
7.350753416666667,0,0xF8,0xFF
7.352190375000000,0,0xF9,0xFF
7.353622500000000,0,0xF4,0xFF
7.355059500000000,0,0xF6,0xFF
7.356491666666667,0,0xF8,0xFF
7.357928625000000,0,0xF9,0xFF
7.359360791666667,0,0xFC,0xFF
7.360797791666666,0,0xFE,0xFF
7.362229958333334,0,0xF8,0xFF
7.363666875000000,0,0x40,0xFF
7.365099083333333,0,0x00,0xFF
7.366536041666667,0,0x80,0xFF
7.367968208333333,0,0x00,0xFF
7.369405125000000,0,0x00,0xFF
7.370837375000000,0,0x00,0xFF
7.372274250000000,0,0x00,0xFF
7.373706500000000,0,0x00,0xFF
7.375143416666667,0,0x00,0xFF
7.376575666666667,0,0x00,0xFF
7.378012541666667,0,0x00,0xFF
7.379444791666667,0,0x00,0xFF
7.380881666666666,0,0x00,0xFF
7.382313916666667,0,0x00,0xFF
7.383750791666666,0,0x00,0xFF
7.385183083333334,0,0x00,0xFF
7.386619916666667,0,0x00,0xFF
7.388052208333334,0,0x00,0xFF
7.389489041666667,0,0x00,0xFF
7.390921333333333,0,0x00,0xFF
7.392358208333333,0,0x00,0xFF
7.393790500000000,0,0x00,0xFF
7.395227333333334,0,0x00,0xFF
7.396659625000000,0,0x00,0xFF
7.398096458333334,0,0x00,0xFF
7.399528791666667,0,0x00,0xFF
7.400965583333333,0,0x00,0xFF
7.402397916666667,0,0x00,0xFF
7.403834708333333,0,0x00,0xFF
7.405267041666667,0,0x00,0xFF
7.406703833333333,0,0x00,0xFF
7.408136208333334,0,0x00,0xFF
7.409573000000000,0,0x00,0xFF
7.411005333333334,0,0x00,0xFF
7.412442125000000,0,0x00,0xFF
7.413874500000000,0,0x00,0xFF
7.415311250000000,0,0x00,0xFF
7.416743625000000,0,0x00,0xFF
7.418180375000000,0,0x00,0xFF
7.419612750000000,0,0x00,0xFF
7.421049500000000,0,0x00,0xFF
7.422481916666666,0,0x00,0xFF
7.423918625000000,0,0x00,0xFF
7.425351041666667,0,0x00,0xFF
7.426787791666666,0,0x00,0xFF
7.428220166666667,0,0x00,0xFF
7.429656916666667,0,0x00,0xFF
7.431089333333333,0,0x00,0xFF
7.432526041666667,0,0x00,0xFF
7.433958458333334,0,0x00,0xFF
7.435395166666667,0,0x00,0xFF
7.436827625000000,0,0x00,0xFF
7.438264291666667,0,0x00,0xFF
7.439696750000000,0,0x00,0xFF
7.441133416666666,0,0x00,0xFF
7.442565875000000,0,0x00,0xFF
7.444002583333333,0,0x00,0xFF
7.445435041666666,0,0x00,0xFF
7.446871708333333,0,0x00,0xFF
7.448304166666667,0,0x00,0xFF
7.449740833333333,0,0x00,0xFF
7.451173333333333,0,0x00,0xFF
7.452609958333333,0,0x00,0xFF
7.454042458333333,0,0x00,0xFF
7.455479083333334,0,0x0B,0xFF
7.456911583333333,0,0x07,0xFF
7.458348208333334,0,0x07,0xFF
7.459780708333334,0,0x03,0xFF
7.461217333333333,0,0x00,0xFF
7.462649875000000,0,0x00,0xFF
7.464086500000000,0,0x00,0xFF
7.465519000000000,0,0x00,0xFF
7.466955625000000,0,0x00,0xFF
7.468388166666666,0,0x00,0xFF
7.469824750000000,0,0x00,0xFF
7.471257291666666,0,0x00,0xFF
7.472693875000000,0,0x00,0xFF
7.474126458333333,0,0x00,0xFF
7.475563000000000,0,0x00,0xFF
7.476995583333333,0,0x00,0xFF
7.478432125000000,0,0x0D,0xFF
7.479864708333333,0,0xF7,0xFF
7.481301291666667,0,0xFF,0xFF
7.482733875000000,0,0xFF,0xFF
7.484170416666666,0,0x54,0xFF
7.485603000000000,0,0x00,0xFF
7.487039541666666,0,0x00,0xFF
7.488472166666667,0,0x00,0xFF
7.489908666666667,0,0x00,0xFF
7.491402333333333,0,0x00,0xFF
7.492838833333333,0,0x00,0xFF
7.494271458333333,0,0x00,0xFF
7.495707958333333,0,0x00,0xFF
7.497140625000000,0,0x00,0xFF
7.498577125000000,0,0x00,0xFF
7.500009750000000,0,0x00,0xFF
7.501446250000000,0,0x57,0xFF
7.502878916666667,0,0xFF,0xFF
7.504315375000000,0,0x98,0xFF
7.505748041666667,0,0xE0,0xFF
7.507184500000000,0,0x00,0xFF
7.508617166666666,0,0x00,0xFF
7.510053625000000,0,0x00,0xFF
7.511486333333333,0,0x00,0xFF
7.512922750000000,0,0x00,0xFF
7.514355458333333,0,0x00,0xFF
7.515791916666666,0,0x00,0xFF
7.517224583333333,0,0x00,0xFF
7.518661041666666,0,0x00,0xFF
7.520093750000000,0,0x00,0xFF
7.521530166666667,0,0x00,0xFF
7.522962875000000,0,0x00,0xFF
7.524399333333333,0,0x97,0xFF
7.525832000000000,0,0x7F,0xFF
7.527268416666667,0,0x3F,0xFF
7.528701166666667,0,0x0F,0xFF
7.530137541666667,0,0x16,0xFF
7.531570291666666,0,0x01,0xFF
7.533006666666667,0,0x00,0xFF
7.534439458333333,0,0x00,0xFF
7.535875833333334,0,0x00,0xFF
7.537308583333333,0,0x00,0xFF
7.538744958333333,0,0x00,0xFF
7.540177750000000,0,0x00,0xFF
7.541614083333333,0,0x00,0xFF
7.543046875000000,0,0x00,0xFF
7.544483208333333,0,0x00,0xFF
7.545916000000000,0,0x00,0xFF
7.547352375000000,0,0xFF,0xFF
7.548785166666667,0,0xFC,0xFF
7.550221500000000,0,0xFB,0xFF
7.551654291666667,0,0xE0,0xFF
7.553090625000000,0,0x45,0xFF
7.554523416666667,0,0xF0,0xFF
7.555959750000000,0,0x87,0xFF
7.557392541666666,0,0x38,0xFF
7.558828875000000,0,0x17,0xFF
7.560261708333333,0,0x0C,0xFF
7.561698000000000,0,0x09,0xFF
7.563130833333333,0,0x06,0xFF
7.564567125000000,0,0x07,0xFF
7.566000000000000,0,0x03,0xFF
7.567436250000000,0,0x01,0xFF
7.568869125000000,0,0x01,0xFF
7.570305375000000,0,0x77,0xFF
7.571738250000000,0,0x00,0xFF
7.573174541666667,0,0xFF,0xFF
7.574607416666667,0,0x00,0xFF
7.576043708333334,0,0xFB,0xFF
7.577476541666667,0,0x04,0xFF
7.578912833333334,0,0xFF,0xFF
7.580345666666667,0,0x00,0xFF
7.581781916666666,0,0x77,0xFF
7.583214833333333,0,0x00,0xFF
7.584651083333333,0,0xFF,0xFF
7.586083958333333,0,0x00,0xFF
7.587520208333333,0,0xFF,0xFF
7.588953125000000,0,0x00,0xFF
7.590389333333333,0,0xBF,0xFF
7.591883333333334,0,0xC0,0xFF
7.593319541666666,0,0xEE,0xFF
7.594752458333334,0,0x11,0xFF
7.596188625000000,0,0xFF,0xFF
7.597621583333333,0,0x00,0xFF
7.599057791666667,0,0xFF,0xFF
7.600490708333333,0,0x00,0xFF
7.601926916666667,0,0xFF,0xFF
7.603359875000000,0,0x00,0xFF
7.604796041666667,0,0xFE,0xFF
7.606229000000000,0,0x01,0xFF
7.607665166666667,0,0xFD,0xFF
7.609098125000000,0,0x02,0xFF
7.610534333333334,0,0xDA,0xFF
7.611967291666667,0,0x05,0xFF
7.613403416666666,0,0xF5,0xFF
7.614836416666667,0,0x0B,0xFF
7.616272541666667,0,0xE7,0xFF
7.617705541666667,0,0x1F,0xFF
7.619141666666667,0,0xCF,0xFF
7.620574708333334,0,0x3F,0xFF
7.622010833333333,0,0xAF,0xFF
7.623443833333333,0,0x5F,0xFF
7.624879958333334,0,0x5F,0xFF
7.626313000000000,0,0xBF,0xFF
7.627749083333334,0,0xBF,0xFF
7.629182125000000,0,0x7F,0xFF
7.630618208333333,0,0x7F,0xFF
7.632051291666667,0,0xFF,0xFF
7.633487333333333,0,0xFF,0xFF
7.634920416666667,0,0xFF,0xFF
7.636356458333333,0,0xFF,0xFF
7.637789583333333,0,0xFF,0xFF
7.639225625000000,0,0xFD,0xFF
7.640658708333333,0,0xFF,0xFF
7.642094750000000,0,0xFF,0xFF
7.643527833333334,0,0xFF,0xFF
7.644963875000000,0,0xFD,0xFF
7.646397000000000,0,0xFF,0xFF
7.647833000000000,0,0xFF,0xFF
7.649266125000000,0,0xFF,0xFF
7.650702125000000,0,0xFF,0xFF
7.652135291666666,0,0xFF,0xFF
7.653571250000000,0,0xFF,0xFF
7.655004416666666,0,0xFF,0xFF
7.656440416666666,0,0xFF,0xFF
7.657873541666667,0,0xFF,0xFF
7.659309541666667,0,0xFF,0xFF
7.660742708333333,0,0xFF,0xFF
7.662178666666667,0,0xFF,0xFF
7.663611833333333,0,0xFF,0xFF
7.665047791666667,0,0xFF,0xFF
7.666481000000000,0,0xFF,0xFF
7.667916916666667,0,0xFF,0xFF
7.669350125000000,0,0xFF,0xFF
7.670786041666667,0,0xFF,0xFF
7.672219250000000,0,0xFF,0xFF
7.673655208333333,0,0xFF,0xFF
7.675088416666667,0,0xFF,0xFF
7.676524333333333,0,0xFF,0xFF
7.677957541666666,0,0xFF,0xFF
7.679393458333333,0,0xFF,0xFF
7.680826666666666,0,0xFF,0xFF
7.682262583333333,0,0xFF,0xFF
7.683695833333333,0,0xFF,0xFF
7.685131708333333,0,0xFF,0xFF
7.686564958333333,0,0xFF,0xFF
7.688000833333334,0,0xFF,0xFF
7.689434125000000,0,0xFF,0xFF
7.690869958333334,0,0xFF,0xFF
7.692364291666666,0,0xFF,0xFF
7.693800166666667,0,0xFF,0xFF
7.695233416666666,0,0xFF,0xFF
7.696669291666667,0,0xFF,0xFF
7.698102583333333,0,0xFF,0xFF
7.699538416666667,0,0xFF,0xFF
7.700971708333333,0,0xFF,0xFF
7.702407541666667,0,0xFF,0xFF
7.703840833333333,0,0xFF,0xFF
7.705276666666666,0,0xFF,0xFF
7.706710000000000,0,0xFF,0xFF
7.708145833333333,0,0xFD,0xFF
7.709579125000000,0,0xF8,0xFF
7.711014958333333,0,0xFA,0xFF
7.712448291666667,0,0xFC,0xFF
7.713884125000000,0,0xFD,0xFF
7.715317416666666,0,0xFC,0xFF
7.716753250000000,0,0xFC,0xFF
7.718186583333333,0,0xF8,0xFF
7.719622375000000,0,0xFD,0xFF
7.721055708333333,0,0xF8,0xFF
7.722491500000000,0,0xFE,0xFF
7.723924875000000,0,0xF8,0xFF
7.725360625000000,0,0xFD,0xFF
7.726794000000000,0,0xF8,0xFF
7.728229750000000,0,0xF4,0xFF
7.729663166666667,0,0xF8,0xFF
7.731098875000000,0,0x00,0xFF
7.732532250000000,0,0x00,0xFF
7.733968000000000,0,0x00,0xFF
7.735401416666667,0,0x00,0xFF
7.736837125000000,0,0x00,0xFF
7.738270541666667,0,0x00,0xFF
7.739706250000000,0,0x00,0xFF
7.741139708333334,0,0x00,0xFF
7.742575375000000,0,0x00,0xFF
7.744008833333333,0,0x00,0xFF
7.745444541666667,0,0x00,0xFF
7.746877958333333,0,0x00,0xFF
7.748313666666666,0,0x00,0xFF
7.749747125000000,0,0x00,0xFF
7.751182791666666,0,0x00,0xFF
7.752616250000000,0,0x00,0xFF
7.754051916666667,0,0x00,0xFF
7.755485375000000,0,0x00,0xFF
7.756921041666667,0,0x00,0xFF
7.758354541666667,0,0x00,0xFF
7.759790166666667,0,0x00,0xFF
7.761223666666667,0,0x00,0xFF
7.762659333333334,0,0x00,0xFF
7.764092833333334,0,0x00,0xFF
7.765528458333334,0,0x00,0xFF
7.766961958333333,0,0x00,0xFF
7.768397583333333,0,0x00,0xFF
7.769831083333333,0,0x00,0xFF
7.771266708333333,0,0x00,0xFF
7.772700250000000,0,0x00,0xFF
7.774135833333333,0,0x00,0xFF
7.775569375000000,0,0x00,0xFF
7.777004958333333,0,0x00,0xFF
7.778438541666667,0,0x00,0xFF
7.779874125000000,0,0x00,0xFF
7.781307666666667,0,0x00,0xFF
7.782743250000000,0,0x00,0xFF
7.784176791666667,0,0x00,0xFF
7.785612375000000,0,0x00,0xFF
7.787045958333334,0,0x00,0xFF
7.788481500000000,0,0x00,0xFF
7.789915083333334,0,0x00,0xFF
7.791350625000000,0,0x00,0xFF
7.792845291666667,0,0x00,0xFF
7.794280791666667,0,0x00,0xFF
7.795714416666667,0,0x00,0xFF
7.797149958333334,0,0x00,0xFF
7.798583541666667,0,0x00,0xFF
7.800019083333333,0,0x00,0xFF
7.801452708333334,0,0x00,0xFF
7.802888208333333,0,0x00,0xFF
7.804321833333334,0,0x00,0xFF
7.805757333333333,0,0x00,0xFF
7.807190958333333,0,0x00,0xFF
7.808626458333333,0,0x00,0xFF
7.810060125000000,0,0x00,0xFF
7.811495583333333,0,0x00,0xFF
7.812929250000000,0,0x00,0xFF
7.814364750000000,0,0x00,0xFF
7.815798416666667,0,0x00,0xFF
7.817233875000000,0,0x00,0xFF
7.818667541666667,0,0x00,0xFF
7.820103000000000,0,0x00,0xFF
7.821536666666667,0,0x00,0xFF
7.822972125000000,0,0x00,0xFF
7.824405833333334,0,0x00,0xFF
7.825841250000000,0,0x00,0xFF
7.827274958333334,0,0x00,0xFF
7.828710375000000,0,0x00,0xFF
7.830144125000000,0,0x00,0xFF
7.831579500000000,0,0x00,0xFF
7.833013250000000,0,0x00,0xFF
7.834448666666667,0,0x00,0xFF
7.835882375000000,0,0x00,0xFF
7.837317791666667,0,0x00,0xFF
7.838751541666666,0,0x00,0xFF
7.840186916666666,0,0x00,0xFF
7.841620666666667,0,0x00,0xFF
7.843056041666666,0,0x00,0xFF
7.844489791666667,0,0x00,0xFF
7.845925166666667,0,0x00,0xFF
7.847358958333333,0,0x00,0xFF
7.848794291666667,0,0x00,0xFF
7.850228083333334,0,0x00,0xFF
7.851663458333333,0,0x00,0xFF
7.853097250000000,0,0x00,0xFF
7.854532583333333,0,0x00,0xFF
7.855966375000000,0,0x00,0xFF
7.857401708333334,0,0x00,0xFF
7.858835500000000,0,0x00,0xFF
7.860270833333334,0,0x00,0xFF
7.861704666666666,0,0x00,0xFF
7.863139958333333,0,0x00,0xFF
7.864573791666666,0,0x00,0xFF
7.866009083333333,0,0x00,0xFF
7.867442916666667,0,0x00,0xFF
7.868878250000000,0,0x00,0xFF
7.870312083333333,0,0x00,0xFF
7.871747375000000,0,0x00,0xFF
7.873181208333333,0,0x00,0xFF
7.874616500000000,0,0x00,0xFF
7.876050375000000,0,0x00,0xFF
7.877485625000000,0,0x00,0xFF
7.878919500000000,0,0x00,0xFF
7.880354750000000,0,0x00,0xFF
7.881788625000000,0,0x00,0xFF
7.883223875000000,0,0x00,0xFF
7.884657791666666,0,0x00,0xFF
7.886093041666666,0,0x00,0xFF
7.887526916666666,0,0x00,0xFF
7.888962166666666,0,0x00,0xFF
7.890396083333333,0,0x00,0xFF
7.891831291666667,0,0x00,0xFF
7.893326250000000,0,0x00,0xFF
7.894761458333333,0,0x00,0xFF
7.896195416666667,0,0x00,0xFF
7.897630583333333,0,0x00,0xFF
7.899064541666666,0,0x00,0xFF
7.900499708333333,0,0x00,0xFF
7.901933666666666,0,0x00,0xFF
7.903368875000000,0,0x00,0xFF
7.904802833333333,0,0x00,0xFF
7.906238000000000,0,0x00,0xFF
7.907671958333333,0,0x00,0xFF
7.909107125000000,0,0x00,0xFF
7.910541083333333,0,0x00,0xFF
7.911976250000000,0,0x00,0xFF
7.913410250000000,0,0x00,0xFF
7.914845375000000,0,0x00,0xFF
7.916279375000000,0,0x00,0xFF
7.917714500000000,0,0x00,0xFF
7.919148541666667,0,0x00,0xFF
7.920583666666666,0,0x00,0xFF
7.922017666666667,0,0x00,0xFF
7.923452791666667,0,0x00,0xFF
7.924886791666666,0,0x00,0xFF
7.926321916666667,0,0x00,0xFF
7.927755958333333,0,0x00,0xFF
7.929191041666667,0,0x00,0xFF
7.930625083333333,0,0x00,0xFF
7.932060166666667,0,0x00,0xFF
7.933494208333333,0,0x00,0xFF
7.934929291666666,0,0x00,0xFF
7.936363375000000,0,0x00,0xFF
7.937798458333333,0,0x6F,0xFF
7.939232500000000,0,0xF0,0xFF
7.940667583333333,0,0x3C,0xFF
7.942101666666667,0,0x3F,0xFF
7.943536708333333,0,0x1F,0xFF
7.944970791666667,0,0x0F,0xFF
7.946405833333333,0,0x0F,0xFF
7.947839916666666,0,0x03,0xFF
7.949274958333334,0,0x11,0xFF
7.950709041666666,0,0x00,0xFF
7.952144083333334,0,0x02,0xFF
7.953578208333333,0,0x00,0xFF
7.955013208333333,0,0x15,0xFF
7.956447333333333,0,0x00,0xFF
7.957882375000000,0,0x02,0xFF
7.959316500000000,0,0x00,0xFF
7.960751500000000,0,0x6F,0xFF
7.962185625000000,0,0x17,0xFF
7.963620625000000,0,0x3F,0xFF
7.965054791666667,0,0xFF,0xFF
7.966489750000000,0,0xFF,0xFF
7.967923916666667,0,0xFF,0xFF
7.969358875000000,0,0xFF,0xFF
7.970793041666667,0,0xFF,0xFF
7.972228000000000,0,0x7F,0xFF
7.973662208333334,0,0xFF,0xFF
7.975097166666667,0,0xF2,0xFF
7.976531333333333,0,0x0F,0xFF
7.977966291666666,0,0x59,0xFF
7.979400458333333,0,0x07,0xFF
7.980835416666666,0,0xBC,0xFF
7.982269625000000,0,0x03,0xFF
7.983704541666667,0,0xFF,0xFF
7.985138750000000,0,0xFF,0xFF
7.986573666666667,0,0xFF,0xFF
7.988007916666667,0,0xFF,0xFF
7.989442791666667,0,0xFF,0xFF
7.990877041666667,0,0xFF,0xFF
7.992311958333334,0,0xFF,0xFF
7.993807250000000,0,0xFF,0xFF
7.995242125000000,0,0xFF,0xFF
7.996676375000000,0,0xFF,0xFF
7.998111250000000,0,0xBF,0xFF
7.999545500000000,0,0xFF,0xFF
8.000980374999999,0,0x7F,0xFF
8.002414666666667,0,0xFF,0xFF
8.003849499999999,0,0xFF,0xFF
8.005283791666667,0,0xFF,0xFF
8.006718625000000,0,0xFF,0xFF
8.008152958333334,0,0xFF,0xFF
8.009587791666666,0,0xFF,0xFF
8.011022083333334,0,0xFF,0xFF
8.012456916666666,0,0xFF,0xFF
8.013891208333334,0,0xFF,0xFF
8.015326041666667,0,0xFF,0xFF
8.016760375000000,0,0xFF,0xFF
8.018195166666667,0,0xFF,0xFF
8.019629500000001,0,0xFF,0xFF
8.021064291666667,0,0xFF,0xFF
8.022498625000001,0,0xFF,0xFF
8.023933416666667,0,0xFF,0xFF
8.025367791666667,0,0xFF,0xFF
8.026802583333334,0,0xFF,0xFF
8.028236916666666,0,0xFF,0xFF
8.029671708333334,0,0xFF,0xFF
8.031106083333333,0,0xFF,0xFF
8.032540833333334,0,0xFF,0xFF
8.033975208333333,0,0xFF,0xFF
8.035409958333334,0,0xFF,0xFF
8.036844333333333,0,0xFF,0xFF
8.038279083333334,0,0xFF,0xFF
8.039713500000000,0,0xFF,0xFF
8.041148208333333,0,0xFF,0xFF
8.042582625000000,0,0xFF,0xFF
8.044017374999999,0,0xFF,0xFF
8.045451791666666,0,0xFF,0xFF
8.046886499999999,0,0xFF,0xFF
8.048320916666666,0,0xFF,0xFF
8.049755625000000,0,0xFF,0xFF
8.051190041666667,0,0xFF,0xFF
8.052624750000000,0,0xFF,0xFF
8.054059208333333,0,0xFF,0xFF
8.055493875000000,0,0xFF,0xFF
8.056928333333333,0,0xFF,0xFF
8.058363000000000,0,0xFF,0xFF
8.059797458333334,0,0xFF,0xFF
8.061232125000000,0,0xFF,0xFF
8.062666625000000,0,0xFF,0xFF
8.064101291666667,0,0xFF,0xFF
8.065535750000000,0,0xFF,0xFF
8.066970416666667,0,0xFF,0xFF
8.068404916666667,0,0xFF,0xFF
8.069839541666667,0,0xFF,0xFF
8.071274041666667,0,0xFF,0xFF
8.072708666666667,0,0xFF,0xFF
8.074143166666667,0,0xFF,0xFF
8.075577791666667,0,0xFD,0xFF
8.077012333333334,0,0xF0,0xFF
8.078446958333334,0,0xFA,0xFF
8.079881500000001,0,0xF0,0xFF
8.081316083333334,0,0xFD,0xFF
8.082750583333333,0,0xF0,0xFF
8.084185208333333,0,0xFC,0xFF
8.085619749999999,0,0xF0,0xFF
8.087054374999999,0,0xF5,0xFF
8.088488874999999,0,0xF0,0xFF
8.089923499999999,0,0xFA,0xFF
8.091358041666666,0,0xF0,0xFF
8.092792625000000,0,0xF5,0xFF
8.094288208333333,0,0xF0,0xFF
8.095722791666667,0,0xFE,0xFF
8.097157375000000,0,0xF0,0xFF
8.098591916666667,0,0x00,0xFF
8.100026500000000,0,0x00,0xFF
8.101461041666667,0,0x00,0xFF
8.102895625000000,0,0x00,0xFF
8.104330166666667,0,0x00,0xFF
8.105764791666667,0,0x00,0xFF
8.107199291666667,0,0x00,0xFF
8.108633916666667,0,0x00,0xFF
8.110068416666667,0,0x10,0xFF
8.111503041666667,0,0x00,0xFF
8.112937541666666,0,0x00,0xFF
8.114372208333334,0,0x00,0xFF
8.115806708333333,0,0x54,0xFF
8.117241333333334,0,0x00,0xFF
8.118675833333333,0,0x00,0xFF
8.120110499999999,0,0x00,0xFF
8.121544958333333,0,0x00,0xFF
8.122979624999999,0,0x00,0xFF
8.124414083333333,0,0x00,0xFF
8.125848749999999,0,0x00,0xFF
8.127283208333333,0,0x00,0xFF
8.128717916666666,0,0x00,0xFF
8.130152333333333,0,0x00,0xFF
8.131587041666666,0,0x00,0xFF
8.133021500000000,0,0x00,0xFF
8.134456208333333,0,0x00,0xFF
8.135890625000000,0,0x00,0xFF
8.137325333333333,0,0x00,0xFF
8.138759750000000,0,0x00,0xFF
8.140194458333333,0,0x00,0xFF
8.141628875000000,0,0x00,0xFF
8.143063625000000,0,0x00,0xFF
8.144498000000000,0,0x00,0xFF
8.145932750000000,0,0x00,0xFF
8.147367125000001,0,0x00,0xFF
8.148801875000000,0,0x00,0xFF
8.150236291666667,0,0x00,0xFF
8.151671041666667,0,0x00,0xFF
8.153105416666667,0,0x00,0xFF
8.154540166666667,0,0x00,0xFF
8.155974541666666,0,0x00,0xFF
8.157409333333334,0,0x00,0xFF
8.158843666666666,0,0x00,0xFF
8.160278458333334,0,0x00,0xFF
8.161712791666666,0,0x00,0xFF
8.163147583333334,0,0x00,0xFF
8.164581916666666,0,0x00,0xFF
8.166016750000001,0,0x00,0xFF
8.167451083333333,0,0x00,0xFF
8.168885875000001,0,0x00,0xFF
8.170320208333333,0,0x00,0xFF
8.171754999999999,0,0x00,0xFF
8.173189333333333,0,0x00,0xFF
8.174624166666666,0,0x00,0xFF
8.176058458333333,0,0x00,0xFF
8.177493291666666,0,0x00,0xFF
8.178927583333333,0,0x00,0xFF
8.180362458333333,0,0x00,0xFF
8.181796708333334,0,0x00,0xFF
8.183231583333333,0,0x00,0xFF
8.184665833333334,0,0x00,0xFF
8.186100708333333,0,0x00,0xFF
8.187535000000000,0,0x00,0xFF
8.188969875000000,0,0x00,0xFF
8.190404125000001,0,0x00,0xFF
8.191839000000000,0,0x00,0xFF
8.193273250000001,0,0x00,0xFF
8.194708166666667,0,0x00,0xFF
8.196142375000001,0,0x00,0xFF
8.197577291666667,0,0x00,0xFF
8.199011499999999,0,0x00,0xFF
8.200446416666667,0,0x00,0xFF
8.201880624999999,0,0x00,0xFF
8.203315583333334,0,0x00,0xFF
8.204749791666666,0,0x00,0xFF
8.206184708333334,0,0x00,0xFF
8.207618916666666,0,0x00,0xFF
8.209053833333334,0,0x00,0xFF
8.210488041666666,0,0x00,0xFF
8.211923000000001,0,0x00,0xFF
8.213357166666666,0,0x00,0xFF
8.214792125000001,0,0x00,0xFF
8.216226291666667,0,0x00,0xFF
8.217661291666667,0,0x00,0xFF
8.219095416666667,0,0x00,0xFF
8.220530416666668,0,0x00,0xFF
8.221964583333333,0,0x00,0xFF
8.223399541666666,0,0x00,0xFF
8.224833708333334,0,0x00,0xFF
8.226268708333333,0,0x00,0xFF
8.227702833333334,0,0x00,0xFF
8.229137833333333,0,0x00,0xFF
8.230571958333334,0,0x00,0xFF
8.232006999999999,0,0x00,0xFF
8.233441083333334,0,0x00,0xFF
8.234876125000000,0,0x00,0xFF
8.236310208333334,0,0x00,0xFF
8.237745250000000,0,0x00,0xFF
8.239179375000001,0,0x00,0xFF
8.240614416666666,0,0x00,0xFF
8.242048499999999,0,0x00,0xFF
8.243483541666667,0,0x00,0xFF
8.244917624999999,0,0x00,0xFF
8.246352666666667,0,0x00,0xFF
8.247786750000000,0,0x00,0xFF
8.249221833333333,0,0x00,0xFF
8.250655875000000,0,0x00,0xFF
8.252090958333334,0,0x00,0xFF
8.253525000000000,0,0x00,0xFF
8.254960125000000,0,0x00,0xFF
8.256394125000000,0,0x00,0xFF
8.257829250000000,0,0x00,0xFF
8.259263291666667,0,0x00,0xFF
8.260698375000000,0,0x00,0xFF
8.262132416666667,0,0x00,0xFF
8.263567541666667,0,0x00,0xFF
8.265001541666667,0,0x00,0xFF
8.266436666666667,0,0x00,0xFF
8.267870666666667,0,0x00,0xFF
8.269305791666667,0,0x00,0xFF
8.270739791666667,0,0x00,0xFF
8.272174958333334,0,0x00,0xFF
8.273608916666667,0,0x00,0xFF
8.275044083333333,0,0x00,0xFF
8.276478083333334,0,0x00,0xFF
8.277913249999999,0,0x00,0xFF
8.279347208333334,0,0x00,0xFF
8.280782374999999,0,0x00,0xFF
8.282216333333333,0,0x01,0xFF
8.283651500000000,0,0x00,0xFF
8.285085458333333,0,0x00,0xFF
8.286520666666666,0,0x00,0xFF
8.287954583333333,0,0x00,0xFF
8.289389791666666,0,0x00,0xFF
8.290823708333333,0,0x00,0xFF
8.292258958333333,0,0x00,0xFF
8.293692875000000,0,0x00,0xFF
8.295189125000000,0,0x00,0xFF
8.296623041666667,0,0x00,0xFF
8.298058250000000,0,0x00,0xFF
8.299492166666667,0,0x00,0xFF
8.300927416666667,0,0x00,0xFF
8.302361291666667,0,0x00,0xFF
8.303796541666667,0,0x00,0xFF
8.305230416666667,0,0x15,0xFF
8.306665666666667,0,0x00,0xFF
8.308099541666667,0,0x02,0xFF
8.309534833333334,0,0x00,0xFF
8.310968708333334,0,0x55,0xFF
8.312403958333332,0,0x00,0xFF
8.313837833333332,0,0x02,0xFF
8.315273124999999,0,0x00,0xFF
8.316706958333333,0,0x15,0xFF
8.318142249999999,0,0x00,0xFF
8.319576083333333,0,0x23,0xFF
8.321011374999999,0,0x00,0xFF
8.322445208333333,0,0x55,0xFF
8.323880500000000,0,0x00,0xFF
8.325314333333333,0,0x0A,0xFF
8.326749666666666,0,0x00,0xFF
8.328183500000000,0,0x58,0xFF
8.329618833333333,0,0x07,0xFF
8.331052625000000,0,0xBC,0xFF
8.332487958333333,0,0x03,0xFF
8.333921750000000,0,0x5A,0xFF
8.335357083333333,0,0x05,0xFF
8.336790875000000,0,0xFC,0xFF
8.338226250000000,0,0x03,0xFF
8.339660000000000,0,0x78,0xFF
8.341095375000000,0,0x07,0xFF
8.342529125000000,0,0xFC,0xFF
8.343964541666667,0,0x03,0xFF
8.345398250000001,0,0x79,0xFF
8.346833666666667,0,0x07,0xFF
8.348267416666667,0,0xF0,0xFF
8.349702791666667,0,0x0F,0xFF
8.351136541666667,0,0x7F,0xFF
8.352571958333334,0,0xFF,0xFF
8.354005666666668,0,0xBF,0xFF
8.355441083333334,0,0xFF,0xFF
8.356874791666666,0,0x7F,0xFF
8.358310250000001,0,0xFF,0xFF
8.359743916666666,0,0xFF,0xFF
8.361179375000001,0,0xFF,0xFF
8.362613041666666,0,0x7F,0xFF
8.364048500000001,0,0xFF,0xFF
8.365482208333333,0,0xFF,0xFF
8.366917666666666,0,0xFF,0xFF
8.368351333333333,0,0xFF,0xFF
8.369786791666666,0,0xFF,0xFF
8.371220458333333,0,0xFF,0xFF
8.372655916666666,0,0xFF,0xFF
8.374089583333333,0,0xFF,0xFF
8.375525083333333,0,0xFF,0xFF
8.376958708333333,0,0xFF,0xFF
8.378394208333333,0,0xFF,0xFF
8.379827833333334,0,0xFF,0xFF
8.381263375000000,0,0xFF,0xFF
8.382697000000000,0,0xFF,0xFF
8.384132500000000,0,0xFF,0xFF
8.385566125000000,0,0xFF,0xFF
8.387001625000000,0,0xFF,0xFF
8.388435250000001,0,0xFF,0xFF
8.389870791666667,0,0xFF,0xFF
8.391304375000001,0,0xFF,0xFF
8.392739916666667,0,0xFF,0xFF
8.394173500000001,0,0xFF,0xFF
8.395670125000001,0,0xFF,0xFF
8.397103708333333,0,0xFF,0xFF
8.398539250000001,0,0xFF,0xFF
8.399972833333333,0,0xFF,0xFF
8.401408375000001,0,0xFF,0xFF
8.402841958333333,0,0xFF,0xFF
8.404277541666668,0,0xFF,0xFF
8.405711083333333,0,0xFF,0xFF
8.407146666666666,0,0xFF,0xFF
8.408580208333333,0,0xFF,0xFF
8.410015791666666,0,0xFF,0xFF
8.411449333333334,0,0xFF,0xFF
8.412884958333333,0,0xFF,0xFF
8.414318458333334,0,0xFF,0xFF
8.415754083333333,0,0xFF,0xFF
8.417187625000000,0,0xFF,0xFF
8.418623250000000,0,0xFF,0xFF
8.420056750000001,0,0xFF,0xFF
8.421492375000000,0,0xFF,0xFF
8.422925875000001,0,0xFF,0xFF
8.424361500000000,0,0xFF,0xFF
8.425795000000001,0,0xFF,0xFF
8.427230666666667,0,0xFF,0xFF
8.428664124999999,0,0xFF,0xFF
8.430099791666667,0,0xFF,0xFF
8.431533249999999,0,0xFF,0xFF
8.432968958333333,0,0xFF,0xFF
8.434402416666666,0,0xFF,0xFF
8.435838083333334,0,0xFF,0xFF
8.437271541666666,0,0xFF,0xFF
8.438707208333334,0,0xFF,0xFF
8.440140666666666,0,0xFF,0xFF
8.441576375000000,0,0xFF,0xFF
8.443009791666666,0,0xF5,0xFF
8.444445500000000,0,0xF0,0xFF
8.445878958333333,0,0xFF,0xFF
8.447314625000001,0,0xF0,0xFF
8.448748083333333,0,0xFD,0xFF
8.450183791666667,0,0xF0,0xFF
8.451617208333333,0,0xF7,0xFF
8.453052916666667,0,0xF8,0xFF
8.454486333333334,0,0xFF,0xFF
8.455922083333334,0,0xF0,0xFF
8.457355500000000,0,0xF7,0xFF
8.458791208333333,0,0xF8,0xFF
8.460224625000000,0,0xF3,0xFF
8.461660333333333,0,0xFC,0xFF
8.463093750000001,0,0xF7,0xFF
8.464529499999999,0,0xF8,0xFF
8.465962833333334,0,0x51,0xFF
8.467398625000000,0,0x00,0xFF
8.468832000000001,0,0x20,0xFF
8.470267791666666,0,0x00,0xFF
8.471701124999999,0,0x54,0xFF
8.473136916666666,0,0x00,0xFF
8.474570249999999,0,0xA8,0xFF
8.476006041666666,0,0x00,0xFF
8.477439374999999,0,0x55,0xFF
8.478875166666667,0,0x00,0xFF
8.480308541666666,0,0xAA,0xFF
8.481744333333333,0,0x00,0xFF
8.483177625000000,0,0x55,0xFF
8.484613458333333,0,0x00,0xFF
8.486046791666666,0,0xEA,0xFF
8.487482625000000,0,0x00,0xFF
8.488915916666667,0,0x00,0xFF
8.490351750000000,0,0x00,0xFF
8.491785041666667,0,0x00,0xFF
8.493220916666667,0,0x00,0xFF
8.494654166666667,0,0x00,0xFF
8.496151083333332,0,0x00,0xFF
8.497584333333334,0,0x00,0xFF
8.499020208333333,0,0x00,0xFF
8.500453458333334,0,0x00,0xFF
8.501889374999999,0,0x00,0xFF
8.503322624999999,0,0x00,0xFF
8.504758499999999,0,0x00,0xFF
8.506191749999999,0,0x40,0xFF
8.507627666666666,0,0x00,0xFF
8.509060874999999,0,0x00,0xFF
8.510496791666666,0,0x00,0xFF
8.511930000000000,0,0x00,0xFF
8.513365916666666,0,0x00,0xFF
8.514799125000000,0,0x00,0xFF
8.516235083333333,0,0x00,0xFF
8.517668250000000,0,0x00,0xFF
8.519104208333333,0,0x00,0xFF
8.520537375000000,0,0x00,0xFF
8.521973375000000,0,0x00,0xFF
8.523406541666667,0,0x00,0xFF
8.524842500000000,0,0x00,0xFF
8.526275666666667,0,0x00,0xFF
8.527711625000000,0,0x00,0xFF
8.529144791666667,0,0x00,0xFF
8.530580791666667,0,0x00,0xFF
8.532013916666667,0,0x00,0xFF
8.533449916666667,0,0x00,0xFF
8.534883041666667,0,0x00,0xFF
8.536319041666667,0,0x00,0xFF
8.537752166666667,0,0x00,0xFF
8.539188208333334,0,0x00,0xFF
8.540621333333334,0,0x00,0xFF
8.542057333333334,0,0x00,0xFF
8.543490458333334,0,0x00,0xFF
8.544926500000001,0,0x00,0xFF
8.546359583333333,0,0x00,0xFF
8.547795624999999,0,0x00,0xFF
8.549228708333333,0,0x00,0xFF
8.550664749999999,0,0x00,0xFF
8.552097833333333,0,0x00,0xFF
8.553533916666666,0,0x00,0xFF
8.554966958333333,0,0x00,0xFF
8.556403041666666,0,0x00,0xFF
8.557836125000000,0,0x00,0xFF
8.559272208333333,0,0x00,0xFF
8.560705250000000,0,0x00,0xFF
8.562141333333333,0,0x00,0xFF
8.563574375000000,0,0x00,0xFF
8.565010458333333,0,0x00,0xFF
8.566443500000000,0,0x00,0xFF
8.567879625000000,0,0x00,0xFF
8.569312625000000,0,0x00,0xFF
8.570748750000000,0,0x00,0xFF
8.572181750000000,0,0x00,0xFF
8.573617875000000,0,0x00,0xFF
8.575050916666667,0,0x00,0xFF
8.576487041666667,0,0x00,0xFF
8.577920041666667,0,0x00,0xFF
8.579356166666667,0,0x00,0xFF
8.580789166666667,0,0x00,0xFF
8.582225333333334,0,0x00,0xFF
8.583658291666667,0,0x00,0xFF
8.585094458333334,0,0x00,0xFF
8.586527416666666,0,0x00,0xFF
8.587963583333334,0,0x00,0xFF
8.589396541666666,0,0x00,0xFF
8.590832750000001,0,0x00,0xFF
8.592265666666666,0,0x00,0xFF
8.593701875000001,0,0x00,0xFF
8.595134833333333,0,0x00,0xFF
8.596632083333333,0,0x00,0xFF
8.598065000000000,0,0x00,0xFF
8.599501208333333,0,0x00,0xFF
8.600934125000000,0,0x00,0xFF
8.602370333333333,0,0x00,0xFF
8.603803250000000,0,0x00,0xFF
8.605239500000000,0,0x00,0xFF
8.606672375000000,0,0x00,0xFF
8.608108625000000,0,0x00,0xFF
8.609541541666667,0,0x00,0xFF
8.610977791666667,0,0x00,0xFF
8.612410666666667,0,0x00,0xFF
8.613846916666667,0,0x00,0xFF
8.615279791666667,0,0x00,0xFF
8.616716041666667,0,0x00,0xFF
8.618148916666666,0,0x00,0xFF
8.619585208333334,0,0x00,0xFF
8.621018041666666,0,0x00,0xFF
8.622454333333334,0,0x00,0xFF
8.623887166666666,0,0x00,0xFF
8.625323458333334,0,0x00,0xFF
8.626756333333333,0,0x00,0xFF
8.628192625000001,0,0x00,0xFF
8.629625458333333,0,0x00,0xFF
8.631061750000001,0,0x00,0xFF
8.632494583333333,0,0x00,0xFF
8.633930916666667,0,0x00,0xFF
8.635363708333333,0,0x00,0xFF
8.636800041666667,0,0x00,0xFF
8.638232833333333,0,0x11,0xFF
8.639669166666666,0,0x00,0xFF
8.641101958333333,0,0x00,0xFF
8.642538333333333,0,0x00,0xFF
8.643971083333334,0,0x55,0xFF
8.645407458333333,0,0x00,0xFF
8.646840250000000,0,0x02,0xFF
8.648276583333333,0,0x00,0xFF
8.649709375000000,0,0x11,0xFF
8.651145708333333,0,0x00,0xFF
8.652578500000001,0,0x00,0xFF
8.654014875000000,0,0x00,0xFF
8.655447625000001,0,0x15,0xFF
8.656884000000000,0,0x00,0xFF
8.658316749999999,0,0x00,0xFF
8.659753166666667,0,0x00,0xFF
8.661185874999999,0,0x55,0xFF
8.662622291666667,0,0x00,0xFF
8.664055041666666,0,0x23,0xFF
8.665491416666667,0,0x00,0xFF
8.666924166666666,0,0x55,0xFF
8.668360583333333,0,0x00,0xFF
8.669793333333333,0,0xAF,0xFF
8.671229708333334,0,0x00,0xFF
8.672662416666666,0,0x55,0xFF
8.674098833333334,0,0x00,0xFF
8.675531541666667,0,0x2B,0xFF
8.676968000000000,0,0x00,0xFF
8.678400666666667,0,0x55,0xFF
8.679837125000001,0,0x00,0xFF
8.681269833333333,0,0xAF,0xFF
8.682706291666667,0,0x00,0xFF
8.684138958333333,0,0x57,0xFF
8.685575416666667,0,0x00,0xFF
8.687008125000000,0,0xBF,0xFF
8.688444541666666,0,0x00,0xFF
8.689877208333334,0,0x57,0xFF
8.691313708333332,0,0x00,0xFF
8.692746375000000,0,0xFF,0xFF
8.694182833333333,0,0x00,0xFF
8.695615458333334,0,0x69,0xFF
8.697113041666666,0,0x17,0xFF
8.698545666666666,0,0xF2,0xFF
8.699982208333333,0,0x0F,0xFF
8.701414791666666,0,0xE9,0xFF
8.702851291666667,0,0x17,0xFF
8.704283916666666,0,0xF2,0xFF
8.705720458333333,0,0x0F,0xFF
8.707153041666666,0,0x61,0xFF
8.708589583333334,0,0x1F,0xFF
8.710022166666667,0,0xC3,0xFF
8.711458750000000,0,0x3F,0xFF
8.712891291666667,0,0xA5,0xFF
8.714327875000000,0,0x5F,0xFF
8.715760458333333,0,0x87,0xFF
8.717197000000001,0,0x7F,0xFF
8.718629583333334,0,0xFF,0xFF
8.720066166666667,0,0xFF,0xFF
8.721498708333334,0,0xFF,0xFF
8.722935333333334,0,0xFF,0xFF
8.724367833333334,0,0xFF,0xFF
8.725804458333334,0,0xFF,0xFF
8.727236958333334,0,0xFF,0xFF
8.728673583333334,0,0xFF,0xFF
8.730106083333334,0,0xFF,0xFF
8.731542749999999,0,0xFF,0xFF
8.732975250000001,0,0xFF,0xFF
8.734411874999999,0,0xFF,0xFF
8.735844374999999,0,0xFF,0xFF
8.737280999999999,0,0xFF,0xFF
8.738713499999999,0,0xFF,0xFF
8.740150166666666,0,0xFF,0xFF
8.741582624999999,0,0xFF,0xFF
8.743019291666666,0,0xFF,0xFF
8.744451750000000,0,0xFF,0xFF
8.745888458333333,0,0xFF,0xFF
8.747320875000000,0,0xFF,0xFF
8.748757583333333,0,0xFF,0xFF
8.750190000000000,0,0xFF,0xFF
8.751626708333333,0,0xFF,0xFF
8.753059166666667,0,0xFF,0xFF
8.754495875000000,0,0xFF,0xFF
8.755928291666667,0,0xFF,0xFF
8.757365000000000,0,0xFF,0xFF
8.758797416666667,0,0xFF,0xFF
8.760234166666667,0,0xFF,0xFF
8.761666541666667,0,0xFF,0xFF
8.763103291666667,0,0xFF,0xFF
8.764535666666667,0,0xFF,0xFF
8.765972416666667,0,0xFF,0xFF
8.767404791666667,0,0xFF,0xFF
8.768841583333334,0,0xFF,0xFF
8.770273958333334,0,0xFF,0xFF
8.771710708333334,0,0xFF,0xFF
8.773143083333334,0,0xFF,0xFF
8.774579833333334,0,0xFF,0xFF
8.776012208333333,0,0xFF,0xFF
8.777449000000001,0,0xFF,0xFF
8.778881333333333,0,0xFF,0xFF
8.780318125000001,0,0xFF,0xFF
8.781750458333333,0,0xFF,0xFF
8.783187291666666,0,0xFF,0xFF
8.784619583333333,0,0xFF,0xFF
8.786056416666666,0,0xFF,0xFF
8.787488750000000,0,0xFF,0xFF
8.788925541666666,0,0xFF,0xFF
8.790357875000000,0,0xFF,0xFF
8.791794708333333,0,0xFF,0xFF
8.793227000000000,0,0xFF,0xFF
8.794663833333333,0,0xFF,0xFF
8.796096125000000,0,0xFF,0xFF
8.797594041666667,0,0xFF,0xFF
8.799026291666667,0,0xFF,0xFF
8.800463166666667,0,0xFF,0xFF
8.801895416666667,0,0xFF,0xFF
8.803332291666667,0,0xFF,0xFF
8.804764583333334,0,0xFF,0xFF
8.806201458333334,0,0xFF,0xFF
8.807633708333332,0,0xFF,0xFF
8.809070583333334,0,0xFF,0xFF
8.810502833333333,0,0xFB,0xFF
8.811939750000001,0,0xFC,0xFF
8.813371999999999,0,0xFF,0xFF
8.814808875000001,0,0xF8,0xFF
8.816241124999999,0,0xFF,0xFF
8.817678000000001,0,0xFC,0xFF
8.819110250000000,0,0xFD,0xFF
8.820547166666667,0,0xFE,0xFF
8.821979375000000,0,0xFC,0xFF
8.823416333333334,0,0xFF,0xFF
8.824848500000000,0,0xFC,0xFF
8.826285458333333,0,0xFF,0xFF
8.827717625000000,0,0xFD,0xFF
8.829154583333333,0,0xFF,0xFF
8.830586750000000,0,0xFF,0xFF
8.832023708333333,0,0xFF,0xFF
8.833455875000000,0,0x55,0xFF
8.834892833333333,0,0x00,0xFF
8.836325041666667,0,0xFA,0xFF
8.837762000000000,0,0x00,0xFF
8.839194166666667,0,0x55,0xFF
8.840631125000000,0,0x00,0xFF
8.842063291666667,0,0xFF,0xFF
8.843500250000000,0,0x00,0xFF
8.844932458333334,0,0xB7,0xFF
8.846369416666667,0,0x40,0xFF
8.847801583333334,0,0xFF,0xFF
8.849238541666667,0,0x03,0xFF
8.850670666666666,0,0xBF,0xFF
8.852107666666667,0,0x47,0xFF
8.853539791666666,0,0x1F,0xFF
8.854976833333334,0,0xE7,0xFF
8.856408916666666,0,0x51,0xFF
8.857845958333334,0,0x00,0xFF
8.859278083333333,0,0x00,0xFF
8.860715125000000,0,0x00,0xFF
8.862147208333333,0,0x55,0xFF
8.863584250000001,0,0x00,0xFF
8.865016375000000,0,0xA8,0xFF
8.866453416666667,0,0x00,0xFF
8.867885458333333,0,0x55,0xFF
8.869322541666667,0,0x00,0xFF
8.870754583333333,0,0x7A,0xFF
8.872191708333334,0,0x80,0xFF
8.873623750000000,0,0xD5,0xFF
8.875060833333333,0,0xC0,0xFF
8.876492875000000,0,0xFE,0xFF
8.877929999999999,0,0xE0,0xFF
8.879362000000000,0,0x10,0xFF
8.880799124999999,0,0x00,0xFF
8.882231125000001,0,0x00,0xFF
8.883668249999999,0,0x00,0xFF
8.885100250000001,0,0x54,0xFF
8.886537416666666,0,0x00,0xFF
8.887969375000001,0,0x00,0xFF
8.889406541666666,0,0x00,0xFF
8.890838499999999,0,0x55,0xFF
8.892275666666666,0,0x00,0xFF
8.893707666666666,0,0x22,0xFF
8.895144833333333,0,0x00,0xFF
8.896576791666666,0,0x55,0xFF
8.898075000000000,0,0x00,0xFF
8.899507000000000,0,0xAA,0xFF
8.900944166666667,0,0x00,0xFF
8.902376083333333,0,0x00,0xFF
8.903813291666667,0,0x00,0xFF
8.905245208333334,0,0x00,0xFF
8.906682416666667,0,0x00,0xFF
8.908114333333334,0,0x05,0xFF
8.909551541666668,0,0x00,0xFF
8.910983500000000,0,0x00,0xFF
8.912420708333334,0,0x00,0xFF
8.913852625000001,0,0x15,0xFF
8.915289833333333,0,0x00,0xFF
8.916721750000001,0,0x22,0xFF
8.918158999999999,0,0x00,0xFF
8.919590875000001,0,0x55,0xFF
8.921028124999999,0,0x00,0xFF
8.922460041666668,0,0xA8,0xFF
8.923897291666666,0,0x00,0xFF
8.925329124999999,0,0x11,0xFF
8.926766416666666,0,0x00,0xFF
8.928198291666666,0,0x00,0xFF
8.929635541666666,0,0x00,0xFF
8.931067416666666,0,0x55,0xFF
8.932504666666667,0,0x00,0xFF
8.933936541666666,0,0x00,0xFF
8.935373833333333,0,0x00,0xFF
8.936805666666666,0,0x55,0xFF
8.938242958333333,0,0x00,0xFF
8.939674791666667,0,0x22,0xFF
8.941112125000000,0,0x00,0xFF
8.942543916666667,0,0x55,0xFF
8.943981250000000,0,0x00,0xFF
8.945413083333333,0,0xAA,0xFF
8.946850416666667,0,0x00,0xFF
8.948282208333334,0,0x11,0xFF
8.949719541666667,0,0x00,0xFF
8.951151333333334,0,0x00,0xFF
8.952588666666667,0,0x00,0xFF
8.954020458333334,0,0x55,0xFF
8.955457791666667,0,0x00,0xFF
8.956889583333334,0,0x00,0xFF
8.958326958333334,0,0x00,0xFF
8.959758708333334,0,0x55,0xFF
8.961196083333334,0,0x00,0xFF
8.962627875000001,0,0x22,0xFF
8.964065250000001,0,0x00,0xFF
8.965496999999999,0,0x55,0xFF
8.966934374999999,0,0x00,0xFF
8.968366124999999,0,0xAA,0xFF
8.969803541666666,0,0x00,0xFF
8.971235249999999,0,0x11,0xFF
8.972672666666666,0,0x00,0xFF
8.974104375000000,0,0x00,0xFF
8.975541833333333,0,0x00,0xFF
8.976973500000000,0,0x55,0xFF
8.978410916666666,0,0x00,0xFF
8.979842666666666,0,0xAA,0xFF
8.981280083333333,0,0x00,0xFF
8.982711791666667,0,0x55,0xFF
8.984149208333333,0,0x00,0xFF
8.985580916666667,0,0x2B,0xFF
8.987018375000000,0,0x00,0xFF
8.988450041666667,0,0x55,0xFF
8.989887500000000,0,0x00,0xFF
8.991319208333334,0,0xAF,0xFF
8.992756625000000,0,0x00,0xFF
8.994188291666667,0,0x55,0xFF
8.995625791666667,0,0x00,0xFF
8.997057416666667,0,0x2B,0xFF
8.998494916666667,0,0x00,0xFF
8.999926583333334,0,0x55,0xFF
9.001364083333334,0,0x00,0xFF
9.002795708333334,0,0xAF,0xFF
9.004233208333334,0,0x01,0xFF
9.005664833333332,0,0x57,0xFF
9.007102333333334,0,0x03,0xFF
9.008533958333333,0,0xBF,0xFF
9.009971500000001,0,0x03,0xFF
9.011403083333333,0,0x57,0xFF
9.012840625000001,0,0x03,0xFF
9.014272208333333,0,0xFF,0xFF
9.015709749999999,0,0x03,0xFF
9.017141333333333,0,0x55,0xFF
9.018578916666666,0,0x00,0xFF
9.020010500000000,0,0xEF,0xFF
9.021448041666666,0,0x30,0xFF
9.022879666666666,0,0xFD,0xFF
9.024317208333333,0,0xFC,0xFF
9.025748791666667,0,0xFF,0xFF
9.027186333333333,0,0xFC,0xFF
9.028617916666667,0,0xFD,0xFF
9.030055500000000,0,0xFE,0xFF
9.031487041666667,0,0xFF,0xFF
9.032924625000000,0,0xFE,0xFF
9.034356166666667,0,0xFF,0xFF
9.035793791666666,0,0xFE,0xFF
9.037225291666667,0,0xFF,0xFF
9.038662916666667,0,0xFE,0xFF
9.040094416666667,0,0x76,0xFF
9.041532041666667,0,0x01,0xFF
9.042963541666667,0,0xFD,0xFF
9.044401166666667,0,0x02,0xFF
9.045832708333334,0,0xDA,0xFF
9.047270333333334,0,0x05,0xFF
9.048701791666666,0,0xF4,0xFF
9.050139458333334,0,0x0B,0xFF
9.051570916666666,0,0xE9,0xFF
9.053008583333334,0,0x17,0xFF
9.054440083333333,0,0xC2,0xFF
9.055877750000001,0,0x3F,0xFF
9.057309208333333,0,0xA9,0xFF
9.058746875000001,0,0x57,0xFF
9.060178333333333,0,0x42,0xFF
9.061616083333334,0,0xBF,0xFF
9.063047458333333,0,0x97,0xFF
9.064485166666667,0,0x7F,0xFF
9.065916583333333,0,0x0B,0xFF
9.067354333333334,0,0xFF,0xFF
9.068785708333333,0,0x17,0xFF
9.070223458333333,0,0xFF,0xFF
9.071654833333334,0,0x6F,0xFF
9.073092624999999,0,0xFF,0xFF
9.074524000000000,0,0x7F,0xFF
9.075961749999999,0,0xFF,0xFF
9.077393125000000,0,0xFF,0xFF
9.078830875000000,0,0xFF,0xFF
9.080262250000001,0,0xFF,0xFF
9.081700041666666,0,0xFF,0xFF
9.083131375000001,0,0xFF,0xFF
9.084569166666666,0,0xFF,0xFF
9.086000500000001,0,0xFF,0xFF
9.087438291666667,0,0xFF,0xFF
9.088869666666668,0,0xFF,0xFF
9.090307458333333,0,0xFF,0xFF
9.091738791666666,0,0xFF,0xFF
9.093176583333333,0,0xFF,0xFF
9.094607916666666,0,0xFF,0xFF
9.096045750000000,0,0xFF,0xFF
9.097477041666666,0,0xFF,0xFF
9.098975916666667,0,0xFF,0xFF
9.100407208333333,0,0xFF,0xFF
9.101845041666667,0,0xFF,0xFF
9.103276333333334,0,0xFF,0xFF
9.104714208333334,0,0xFF,0xFF
9.106145500000000,0,0xFF,0xFF
9.107583333333332,0,0xFF,0xFF
9.109014625000000,0,0xFF,0xFF
9.110452499999999,0,0xFF,0xFF
9.111883750000001,0,0xFF,0xFF
9.113321624999999,0,0xFF,0xFF
9.114752875000001,0,0xFF,0xFF
9.116190749999999,0,0xFF,0xFF
9.117622000000001,0,0xFF,0xFF
9.119059916666666,0,0xFF,0xFF
9.120491124999999,0,0xFF,0xFF
9.121929041666666,0,0xFF,0xFF
9.123360291666666,0,0xFF,0xFF
9.124798208333333,0,0xFF,0xFF
9.126229416666666,0,0xFF,0xFF
9.127667333333333,0,0xFF,0xFF
9.129098541666666,0,0xFF,0xFF
9.130536458333333,0,0xFF,0xFF
9.131967666666666,0,0xFF,0xFF
9.133405625000000,0,0xFF,0xFF
9.134836791666666,0,0xFF,0xFF
9.136274750000000,0,0xFF,0xFF
9.137705916666667,0,0xFF,0xFF
9.139143875000000,0,0xFF,0xFF
9.140575083333333,0,0xFF,0xFF
9.142013041666667,0,0xFF,0xFF
9.143444208333333,0,0xFF,0xFF
9.144882166666667,0,0xFF,0xFF
9.146313333333334,0,0xFF,0xFF
9.147751333333334,0,0xFF,0xFF
9.149182458333334,0,0xFF,0xFF
9.150620458333334,0,0xFF,0xFF
9.152051583333334,0,0xFF,0xFF
9.153489583333334,0,0xFF,0xFF
9.154920708333334,0,0xFF,0xFF
9.156358750000001,0,0xFF,0xFF
9.157789833333334,0,0xFF,0xFF
9.159227874999999,0,0xFF,0xFF
9.160659000000001,0,0xFF,0xFF
9.162097041666666,0,0xFF,0xFF
9.163528124999999,0,0xFF,0xFF
9.164966166666666,0,0xFF,0xFF
9.166397249999999,0,0xFF,0xFF
9.167835291666666,0,0xFF,0xFF
9.169266374999999,0,0xFF,0xFF
9.170704458333333,0,0xFF,0xFF
9.172135500000000,0,0xFF,0xFF
9.173573583333333,0,0xFF,0xFF
9.175004625000000,0,0xFF,0xFF
9.176442708333333,0,0xFF,0xFF
9.177873791666666,0,0xFF,0xFF
9.179311875000000,0,0xFF,0xFF
9.180742916666667,0,0xFF,0xFF
9.182181000000000,0,0xFF,0xFF
9.183612041666667,0,0xFF,0xFF
9.185050166666667,0,0xFF,0xFF
9.186481166666667,0,0xFF,0xFF
9.187919291666667,0,0xFF,0xFF
9.189350291666667,0,0xFF,0xFF
9.190788416666667,0,0xFF,0xFF
9.192219416666667,0,0xFF,0xFF
9.193657583333334,0,0xFF,0xFF
9.195088583333334,0,0xFF,0xFF
9.196526708333334,0,0xFF,0xFF
9.197957708333334,0,0xFF,0xFF
9.199456916666668,0,0xFF,0xFF
9.200887874999999,0,0x6F,0xFF
9.202326041666666,0,0xD7,0xFF
9.203757000000000,0,0xC3,0xFF
9.205195166666666,0,0xFF,0xFF
9.206626125000000,0,0xDB,0xFF
9.208064333333333,0,0xF7,0xFF
9.209495250000000,0,0xE1,0xFF
9.210933458333333,0,0xFF,0xFF
9.212364416666667,0,0xF7,0xFF
9.213802625000000,0,0xFD,0xFF
9.215233541666667,0,0xFF,0xFF
9.216671750000000,0,0xFC,0xFF
9.218102708333333,0,0xFF,0xFF
9.219540875000000,0,0xFE,0xFF
9.220971833333333,0,0xFF,0xFF
9.222410041666667,0,0xFF,0xFF
9.223840916666667,0,0xE5,0xFF
9.225279166666667,0,0xF0,0xFF
9.226710083333334,0,0xFF,0xFF
9.228148291666667,0,0xF0,0xFF
9.229579208333334,0,0xFD,0xFF
9.231017458333334,0,0xF0,0xFF
9.232448333333334,0,0xF7,0xFF
9.233886583333334,0,0xF8,0xFF
9.235317500000001,0,0xFA,0xFF
9.236755750000000,0,0xFD,0xFF
9.238186583333333,0,0xF8,0xFF
9.239624916666667,0,0xFF,0xFF
9.241055708333333,0,0x7A,0xFF
9.242494000000001,0,0x7D,0xFF
9.243924833333333,0,0x38,0xFF
9.245363166666667,0,0x37,0xFF
9.246793958333333,0,0x55,0xFF
9.248232291666667,0,0x00,0xFF
9.249663125000000,0,0xBA,0xFF
9.251101458333334,0,0x00,0xFF
9.252532250000000,0,0x55,0xFF
9.253970541666666,0,0x00,0xFF
9.255401416666666,0,0xFE,0xFF
9.256839708333333,0,0x00,0xFF
9.258270541666667,0,0xF7,0xFF
9.259708833333333,0,0x00,0xFF
9.261139666666667,0,0xFF,0xFF
9.262578000000000,0,0x00,0xFF
9.264008791666667,0,0xAB,0xFF
9.265447125000000,0,0x54,0xFF
9.266877916666667,0,0x01,0xFF
9.268316291666666,0,0xFE,0xFF
9.269747041666667,0,0x55,0xFF
9.271185416666667,0,0x00,0xFF
9.272616208333334,0,0xBB,0xFF
9.274054541666667,0,0x00,0xFF
9.275485291666667,0,0x55,0xFF
9.276923708333333,0,0x00,0xFF
9.278354458333334,0,0xFF,0xFF
9.279792833333333,0,0x00,0xFF
9.281223541666666,0,0x55,0xFF
9.282661958333334,0,0x00,0xFF
9.284092708333333,0,0xFF,0xFF
9.285531125000000,0,0x00,0xFF
9.286961833333333,0,0xFD,0xFF
9.288400250000000,0,0x00,0xFF
9.289831000000000,0,0xFF,0xFF
9.291269375000001,0,0x00,0xFF
9.292700083333333,0,0x55,0xFF
9.294138541666667,0,0x00,0xFF
9.295569250000000,0,0xBB,0xFF
9.297007666666667,0,0x00,0xFF
9.298438333333333,0,0x55,0xFF
9.299937874999999,0,0x00,0xFF
9.301368541666667,0,0xFF,0xFF
9.302807000000000,0,0x00,0xFF
9.304237666666667,0,0x55,0xFF
9.305676125000000,0,0x00,0xFF
9.307106833333334,0,0xBF,0xFF
9.308545291666666,0,0x00,0xFF
9.309975916666666,0,0x55,0xFF
9.311414416666667,0,0x00,0xFF
9.312845083333332,0,0x81,0xFF
9.314283583333333,0,0x00,0xFF
9.315714166666666,0,0x55,0xFF
9.317152708333333,0,0x00,0xFF
9.318583333333333,0,0xBB,0xFF
9.320021833333334,0,0x00,0xFF
9.321452458333333,0,0x55,0xFF
9.322891000000000,0,0x00,0xFF
9.324321625000000,0,0xFF,0xFF
9.325760125000000,0,0x00,0xFF
9.327190708333333,0,0x77,0xFF
9.328629291666667,0,0x00,0xFF
9.330059875000000,0,0xFF,0xFF
9.331498416666667,0,0x00,0xFF
9.332929000000000,0,0xFF,0xFF
9.334367541666667,0,0x00,0xFF
9.335798125000000,0,0xFF,0xFF
9.337236708333334,0,0x00,0xFF
9.338667250000000,0,0x55,0xFF
9.340105833333334,0,0x00,0xFF
9.341536416666667,0,0xBB,0xFF
9.342974958333333,0,0x00,0xFF
9.344405500000001,0,0x55,0xFF
9.345844124999999,0,0x00,0xFF
9.347274666666667,0,0xFF,0xFF
9.348713249999999,0,0x00,0xFF
9.350143750000001,0,0x76,0xFF
9.351582416666666,0,0x01,0xFF
9.353012916666666,0,0xFF,0xFF
9.354451541666666,0,0x00,0xFF
9.355882041666666,0,0xAA,0xFF
9.357320708333333,0,0x55,0xFF
9.358751166666666,0,0x74,0xFF
9.360189875000000,0,0x8B,0xFF
9.361620291666666,0,0x73,0xFF
9.363058958333333,0,0x07,0xFF
9.364489416666666,0,0xFF,0xFF
9.365928083333333,0,0x03,0xFF
9.367358541666666,0,0xFB,0xFF
9.368797250000000,0,0x07,0xFF
9.370227708333333,0,0xFF,0xFF
9.371666375000000,0,0x03,0xFF
9.373096833333333,0,0xAB,0xFF
9.374535541666667,0,0x55,0xFF
9.375965958333333,0,0xD1,0xFF
9.377404666666667,0,0x2E,0xFF
9.378835125000000,0,0xAA,0xFF
9.380273833333334,0,0x55,0xFF
9.381704208333334,0,0x00,0xFF
9.383143000000000,0,0xFF,0xFF
9.384573333333334,0,0xFD,0xFF
9.386012125000001,0,0xFE,0xFF
9.387442500000001,0,0xFF,0xFF
9.388881250000001,0,0xFC,0xFF
9.390311625000001,0,0xFC,0xFF
9.391750416666667,0,0xFD,0xFF
9.393180750000001,0,0xFE,0xFF
9.394619541666666,0,0xF9,0xFF
9.396049874999999,0,0xF3,0xFF
9.397488666666666,0,0xF3,0xFF
9.398918999999999,0,0xA3,0xFF
9.400418833333333,0,0x47,0xFF
9.401849166666667,0,0xDF,0xFF
9.403288000000000,0,0x0F,0xFF
9.404718333333333,0,0xFF,0xFF
9.406157125000000,0,0xFF,0xFF
9.407587458333333,0,0x85,0xFF
9.409026250000000,0,0x7F,0xFF
9.410456583333334,0,0x0B,0xFF
9.411895416666667,0,0xFF,0xFF
9.413325708333334,0,0x57,0xFF
9.414764583333334,0,0xFF,0xFF
9.416194833333334,0,0xEF,0xFF
9.417633708333334,0,0xFF,0xFF
9.419063958333334,0,0x7F,0xFF
9.420502833333334,0,0xFF,0xFF
9.421933083333334,0,0xFF,0xFF
9.423372000000001,0,0xFF,0xFF
9.424802250000001,0,0xFF,0xFF
9.426241125000001,0,0xFF,0xFF
9.427671374999999,0,0xFF,0xFF
9.429110250000001,0,0xFF,0xFF
9.430540499999999,0,0xFF,0xFF
9.431979416666668,0,0xFF,0xFF
9.433409624999999,0,0xFF,0xFF
9.434848541666666,0,0xFF,0xFF
9.436278750000000,0,0xFF,0xFF
9.437717708333333,0,0xFF,0xFF
9.439147875000000,0,0xFF,0xFF
9.440586833333333,0,0xFF,0xFF
9.442017041666666,0,0xFF,0xFF
9.443455958333333,0,0xFF,0xFF
9.444886166666667,0,0xFF,0xFF
9.446325125000000,0,0xFF,0xFF
9.447755291666667,0,0xFF,0xFF
9.449194250000000,0,0xFF,0xFF
9.450624416666667,0,0xFF,0xFF
9.452063416666666,0,0xFF,0xFF
9.453493541666667,0,0xFF,0xFF
9.454932541666667,0,0xFF,0xFF
9.456362666666667,0,0xFF,0xFF
9.457801666666667,0,0xFF,0xFF
9.459231833333334,0,0xFF,0xFF
9.460670833333333,0,0xFF,0xFF
9.462100958333334,0,0xFF,0xFF
9.463539958333334,0,0xFF,0xFF
9.464970083333334,0,0xFF,0xFF
9.466409083333334,0,0xFF,0xFF
9.467839208333332,0,0xFF,0xFF
9.469278250000000,0,0xFF,0xFF
9.470708333333333,0,0xFF,0xFF
9.472147375000000,0,0xFF,0xFF
9.473577458333333,0,0xFF,0xFF
9.475016541666667,0,0xFF,0xFF
9.476446624999999,0,0xFF,0xFF
9.477885666666667,0,0xFF,0xFF
9.479315750000000,0,0xFF,0xFF
9.480754791666667,0,0xFF,0xFF
9.482184875000000,0,0xFF,0xFF
9.483623958333334,0,0xFF,0xFF
9.485054000000000,0,0xFF,0xFF
9.486493083333333,0,0xFF,0xFF
9.487923125000000,0,0xFF,0xFF
9.489362249999999,0,0xFF,0xFF
9.490792250000000,0,0xFF,0xFF
9.492231374999999,0,0xFF,0xFF
9.493661375000000,0,0xFF,0xFF
9.495100499999999,0,0xFF,0xFF
9.496530541666667,0,0xFF,0xFF
9.497969666666666,0,0xFF,0xFF
9.499399666666667,0,0xFF,0xFF
9.500899833333333,0,0xFF,0xFF
9.502329833333333,0,0xFF,0xFF
9.503769000000000,0,0xFF,0xFF
9.505198958333333,0,0xFF,0xFF
9.506638125000000,0,0xFF,0xFF
9.508068083333333,0,0xFF,0xFF
9.509507250000000,0,0xFF,0xFF
9.510937250000000,0,0xFF,0xFF
9.512376416666667,0,0xFF,0xFF
9.513806375000000,0,0xFF,0xFF
9.515245541666667,0,0xFF,0xFF
9.516675500000000,0,0xFF,0xFF
9.518114666666667,0,0xFF,0xFF
9.519544625000000,0,0xFF,0xFF
9.520983833333334,0,0xFF,0xFF
9.522413750000000,0,0xFF,0xFF
9.523852958333332,0,0xFF,0xFF
9.525282875000000,0,0xFF,0xFF
9.526722124999999,0,0xFF,0xFF
9.528152000000000,0,0xFF,0xFF
9.529591249999999,0,0xFF,0xFF
9.531021166666667,0,0xFF,0xFF
9.532460374999999,0,0xFF,0xFF
9.533890291666667,0,0xFF,0xFF
9.535329541666666,0,0xFF,0xFF
9.536759416666667,0,0xFF,0xFF
9.538198666666666,0,0xFF,0xFF
9.539628541666668,0,0xFF,0xFF
9.541067833333333,0,0xFF,0xFF
9.542497666666666,0,0xFF,0xFF
9.543936958333333,0,0xFF,0xFF
9.545366791666666,0,0xFF,0xFF
9.546806083333333,0,0xFF,0xFF
9.548235958333333,0,0xFF,0xFF
9.549675250000000,0,0xFF,0xFF
9.551105083333333,0,0xFF,0xFF
9.552544375000000,0,0xFF,0xFF
9.553974208333333,0,0xFF,0xFF
9.555413500000000,0,0xFF,0xFF
9.556843333333333,0,0xFF,0xFF
9.558282666666667,0,0xFF,0xFF
9.559712458333333,0,0xFF,0xFF
9.561151791666667,0,0xFF,0xFF
9.562581583333333,0,0xFF,0xFF
9.564020958333334,0,0xFF,0xFF
9.565450750000000,0,0xFF,0xFF
9.566890083333334,0,0xFF,0xFF
9.568319875000000,0,0xFF,0xFF
9.569759208333334,0,0xFF,0xFF
9.571189000000000,0,0xFF,0xFF
9.572628375000001,0,0xFF,0xFF
9.574058125000001,0,0xFF,0xFF
9.575497500000001,0,0xFF,0xFF
9.576927250000001,0,0xFF,0xFF
9.578366666666666,0,0xFF,0xFF
9.579796375000001,0,0xFF,0xFF
9.581235791666666,0,0xFF,0xFF
9.582665541666668,0,0xFF,0xFF
9.584104916666666,0,0xFF,0xFF
9.585534666666666,0,0xFF,0xFF
9.586974083333333,0,0xFF,0xFF
9.588403791666666,0,0xFF,0xFF
9.589843208333333,0,0xFF,0xFF
9.591272916666666,0,0xCD,0xFF
9.592712333333333,0,0x87,0xFF
9.594142041666666,0,0xFF,0xFF
9.595581500000000,0,0xFF,0xFF
9.597011166666666,0,0xFD,0xFF
9.598450625000000,0,0xFF,0xFF
9.599880291666667,0,0xFF,0xFF
9.601380833333334,0,0xFF,0xFF
9.602810500000000,0,0xFF,0xFF
9.604249958333334,0,0xFF,0xFF
9.605679625000000,0,0xFF,0xFF
9.607119083333334,0,0xFF,0xFF
9.608548750000001,0,0xFF,0xFF
9.609988250000001,0,0xFF,0xFF
9.611417875000001,0,0xFF,0xFF
9.612857375000001,0,0xFF,0xFF
9.614286999999999,0,0x1A,0xFF
9.615726541666668,0,0xF5,0xFF
9.617156124999999,0,0x21,0xFF
9.618595666666666,0,0xFE,0xFF
9.620025291666666,0,0x54,0xFF
9.621464833333333,0,0xFF,0xFF
9.622894416666666,0,0xF2,0xFF
9.624333958333333,0,0xFF,0xFF
9.625763541666666,0,0x7F,0xFF
9.627203083333333,0,0xFF,0xFF
9.628632666666666,0,0xFF,0xFF
9.630072250000000,0,0xFF,0xFF
9.631501791666667,0,0xFF,0xFF
9.632941375000000,0,0xFF,0xFF
9.634370916666667,0,0xFF,0xFF
9.635810500000000,0,0xFF,0xFF
9.637240083333333,0,0xEF,0xFF
9.638679625000000,0,0x10,0xFF
9.640109208333334,0,0x5E,0xFF
9.641548833333333,0,0xA0,0xFF
9.642978375000000,0,0xA9,0xFF
9.644417916666667,0,0x54,0xFF
9.645847458333334,0,0x01,0xFF
9.647287083333334,0,0xFE,0xFF
9.648716583333334,0,0x4B,0xFF
9.650156208333334,0,0xF7,0xFF
9.651585708333334,0,0x41,0xFF
9.653025375000000,0,0xFF,0xFF
9.654454833333334,0,0x55,0xFF
9.655894500000000,0,0xFF,0xFF
9.657323999999999,0,0xFF,0xFF
9.658763625000001,0,0xFF,0xFF
9.660193124999999,0,0x01,0xFF
9.661632750000001,0,0x00,0xFF
9.663062249999999,0,0x02,0xFF
9.664501916666667,0,0x00,0xFF
9.665931375000000,0,0x55,0xFF
9.667371041666666,0,0x00,0xFF
9.668800541666666,0,0xFF,0xFF
9.670240166666666,0,0x00,0xFF
9.671669666666666,0,0x09,0xFF
9.673109333333333,0,0xF7,0xFF
9.674538791666667,0,0xFF,0xFF
9.675978499999999,0,0xFF,0xFF
9.677407916666667,0,0xFF,0xFF
9.678847625000000,0,0xFF,0xFF
9.680277041666667,0,0xFF,0xFF
9.681716750000000,0,0xFF,0xFF
9.683146166666667,0,0x6A,0xFF
9.684585916666666,0,0x15,0xFF
9.686015291666667,0,0x84,0xFF
9.687455041666666,0,0x3B,0xFF
9.688884458333334,0,0xAA,0xFF
9.690324208333333,0,0x55,0xFF
9.691753583333334,0,0x30,0xFF
9.693193375000000,0,0xFF,0xFF
9.694622708333334,0,0x79,0xFF
9.696062458333333,0,0xF7,0xFF
9.697491833333334,0,0xE7,0xFF
9.698931625000000,0,0xFF,0xFF
9.700360958333333,0,0xD7,0xFF
9.701861791666667,0,0xFF,0xFF
9.703291125000000,0,0xFF,0xFF
9.704730958333334,0,0xFF,0xFF
9.706160291666666,0,0xAA,0xFF
9.707600083333332,0,0x55,0xFF
9.709029416666667,0,0x40,0xFF
9.710469249999999,0,0xBF,0xFF
9.711898541666667,0,0x85,0xFF
9.713338333333333,0,0x7F,0xFF
9.714767666666667,0,0x03,0xFF
9.716207499999999,0,0xFF,0xFF
9.717636791666667,0,0x57,0xFF
9.719076666666666,0,0xFF,0xFF
9.720505916666667,0,0xFF,0xFF
9.721945791666666,0,0xFF,0xFF
9.723375083333334,0,0xDF,0xFF
9.724814916666666,0,0xFF,0xFF
9.726244208333334,0,0xFF,0xFF
9.727684083333333,0,0xFF,0xFF
9.729113333333334,0,0x81,0xFF
9.730553208333333,0,0x7F,0xFF
9.731982458333333,0,0x03,0xFF
9.733422333333333,0,0xFF,0xFF
9.734851583333333,0,0x55,0xFF
9.736291500000000,0,0xFF,0xFF
9.737720708333333,0,0xFF,0xFF
9.739160625000000,0,0xFF,0xFF
9.740589875000000,0,0xFF,0xFF
9.742029791666667,0,0xFF,0xFF
9.743459000000000,0,0xFF,0xFF
9.744898916666667,0,0xFF,0xFF
9.746328125000000,0,0xFF,0xFF
9.747768041666667,0,0xFF,0xFF
9.749197250000000,0,0xFF,0xFF
9.750637208333334,0,0xFF,0xFF
9.752066375000000,0,0x77,0xFF
9.753506333333334,0,0xFF,0xFF
9.754935500000000,0,0xFF,0xFF
9.756375458333334,0,0xFF,0xFF
9.757804625000000,0,0xFF,0xFF
9.759244624999999,0,0xFF,0xFF
9.760673791666667,0,0xFF,0xFF
9.762113749999999,0,0xFF,0xFF
9.763542916666667,0,0xFF,0xFF
9.764982916666666,0,0xFF,0xFF
9.766412041666667,0,0xFF,0xFF
9.767852041666666,0,0xFF,0xFF
9.769281166666667,0,0xFF,0xFF
9.770721166666666,0,0xFF,0xFF
9.772150291666666,0,0xFF,0xFF
9.773590333333333,0,0xFF,0xFF
9.775019416666666,0,0xFF,0xFF
9.776459458333333,0,0xFF,0xFF
9.777888583333333,0,0xFF,0xFF
9.779328625000000,0,0xFF,0xFF
9.780757708333333,0,0xFF,0xFF
9.782197750000000,0,0xFF,0xFF
9.783626833333333,0,0xFF,0xFF
9.785066875000000,0,0xFF,0xFF
9.786495958333333,0,0xFF,0xFF
9.787936041666667,0,0xFF,0xFF
9.789365083333333,0,0xFF,0xFF
9.790805166666667,0,0xFF,0xFF
9.792234208333333,0,0xFF,0xFF
9.793674333333334,0,0xFF,0xFF
9.795103375000000,0,0xFF,0xFF
9.796543458333334,0,0xFF,0xFF
9.797972500000000,0,0xFF,0xFF
9.799412583333334,0,0xFF,0xFF
9.800841625000000,0,0xFF,0xFF
9.802281750000001,0,0xFF,0xFF
9.803710750000000,0,0xFF,0xFF
9.805150875000001,0,0xFF,0xFF
9.806579875000001,0,0xFF,0xFF
9.808020000000001,0,0xFF,0xFF
9.809449000000001,0,0xFF,0xFF
9.810889166666668,0,0xFF,0xFF
9.812318166666667,0,0xFF,0xFF
9.813758291666666,0,0xFF,0xFF
9.815187291666666,0,0xFF,0xFF
9.816627458333333,0,0xFF,0xFF
9.818056416666666,0,0xFF,0xFF
9.819496583333333,0,0xFF,0xFF
9.820925541666666,0,0xFF,0xFF
9.822365708333333,0,0xFF,0xFF
9.823794666666666,0,0xFF,0xFF
9.825234875000000,0,0xFF,0xFF
9.826663791666666,0,0xFF,0xFF
9.828104000000000,0,0xFF,0xFF
9.829532916666667,0,0xFF,0xFF
9.830973125000000,0,0xFF,0xFF
9.832402083333333,0,0xFF,0xFF
9.833842291666667,0,0xFF,0xFF
9.835271208333333,0,0xFF,0xFF
9.836711416666667,0,0xFF,0xFF
9.838140333333333,0,0xFF,0xFF
9.839580583333333,0,0xFF,0xFF
9.841009458333334,0,0xFF,0xFF
9.842449708333334,0,0xFF,0xFF
9.843878583333334,0,0xFF,0xFF
9.845318833333334,0,0xFF,0xFF
9.846747708333334,0,0xFF,0xFF
9.848188000000000,0,0xFF,0xFF
9.849616875000001,0,0xFF,0xFF
9.851057125000001,0,0xFF,0xFF
9.852486000000001,0,0xFF,0xFF
9.853926250000001,0,0xFF,0xFF
9.855355125000001,0,0xFF,0xFF
9.856795416666667,0,0xFF,0xFF
9.858224249999999,0,0xFF,0xFF
9.859664541666668,0,0xFF,0xFF
9.861093374999999,0,0xFF,0xFF
9.862533708333334,0,0xFF,0xFF
9.863962500000000,0,0xFF,0xFF
9.865402833333333,0,0xFF,0xFF
9.866831666666666,0,0xFF,0xFF
9.868271958333333,0,0xFF,0xFF
9.869700791666666,0,0xFF,0xFF
9.871141124999999,0,0xFF,0xFF
9.872569916666667,0,0xFF,0xFF
9.874010250000000,0,0xFF,0xFF
9.875439041666667,0,0xFF,0xFF
9.876879416666666,0,0xFF,0xFF
9.878308166666667,0,0xFF,0xFF
9.879748541666666,0,0xFF,0xFF
9.881177291666667,0,0xFF,0xFF
9.882617666666667,0,0xFF,0xFF
9.884046458333334,0,0xFF,0xFF
9.885486833333333,0,0xFF,0xFF
9.886915583333334,0,0xFF,0xFF
9.888355958333333,0,0xFF,0xFF
9.889784708333334,0,0xFF,0xFF
9.891225125000000,0,0xFF,0xFF
9.892653833333334,0,0xFF,0xFF
9.894094250000000,0,0xFF,0xFF
9.895522958333334,0,0xFF,0xFF
9.896963375000000,0,0xFF,0xFF
9.898392083333333,0,0xFF,0xFF
9.899832541666667,0,0xFF,0xFF
9.901261208333333,0,0xFF,0xFF
9.902762708333332,0,0xFF,0xFF
9.904191416666666,0,0xFF,0xFF
9.905631874999999,0,0xFF,0xFF
9.907060541666667,0,0xFF,0xFF
9.908500999999999,0,0xFF,0xFF
9.909929666666667,0,0xFF,0xFF
9.911370124999999,0,0xFF,0xFF
9.912798791666667,0,0xFF,0xFF
9.914239291666666,0,0xFF,0xFF
9.915667916666667,0,0xFF,0xFF
9.917108416666666,0,0xFF,0xFF
9.918537083333334,0,0xFF,0xFF
9.919977541666666,0,0xFF,0xFF
9.921406208333334,0,0xFF,0xFF
9.922846708333333,0,0xFF,0xFF
9.924275333333334,0,0xFF,0xFF
9.925715833333333,0,0xFF,0xFF
9.927144458333334,0,0xFF,0xFF
9.928585000000000,0,0xFF,0xFF
9.930013583333333,0,0xFF,0xFF
9.931454125000000,0,0xFF,0xFF
9.932882708333333,0,0xFF,0xFF
9.934323250000000,0,0xFF,0xFF
9.935751833333333,0,0xFF,0xFF
9.937192416666667,0,0xFF,0xFF
9.938620999999999,0,0xFF,0xFF
9.940061541666667,0,0xFF,0xFF
9.941490125000000,0,0xFF,0xFF
9.942930708333334,0,0xFF,0xFF
9.944359250000000,0,0xFF,0xFF
9.945799833333334,0,0xFF,0xFF
9.947228375000000,0,0xFF,0xFF
9.948668958333334,0,0xFF,0xFF
9.950097500000000,0,0xFF,0xFF
9.951538125000001,0,0xFF,0xFF
9.952966625000000,0,0xFF,0xFF
9.954407249999999,0,0xFF,0xFF
9.955835791666667,0,0xFF,0xFF
9.957276374999999,0,0xFF,0xFF
9.958704916666667,0,0xFC,0xFF
9.960145541666666,0,0xFF,0xFF
9.961574041666667,0,0xFD,0xFF
9.963014666666666,0,0xFE,0xFF
9.964443208333334,0,0xFF,0xFF
9.965883833333333,0,0xFC,0xFF
9.967312333333334,0,0xFD,0xFF
9.968752958333333,0,0xFE,0xFF
9.970181458333334,0,0xFD,0xFF
9.971622083333333,0,0xFE,0xFF
9.973050583333332,0,0xFF,0xFF
9.974491250000000,0,0xFE,0xFF
9.975919708333333,0,0xFE,0xFF
9.977360416666667,0,0xFF,0xFF
9.978788833333333,0,0xFF,0xFF
9.980229541666667,0,0xFF,0xFF
9.981657958333333,0,0x57,0xFF
9.983098666666667,0,0xFF,0xFF
9.984527083333333,0,0xD3,0xFF
9.985967791666667,0,0x2F,0xFF
9.987396208333333,0,0x94,0xFF
9.988836958333334,0,0x41,0xFF
9.990265375000000,0,0xE0,0xFF
9.991706083333334,0,0x00,0xFF
9.993134500000000,0,0x55,0xFF
9.994575208333334,0,0x00,0xFF
9.996003625000000,0,0xE2,0xFF
9.997444375000001,0,0x00,0xFF
9.998872750000000,0,0x55,0xFF
10.000313500000001,0,0x00,0xFF
10.001741916666667,0,0xFE,0xFF
10.003243708333333,0,0x00,0xFF
10.004672083333332,0,0xF7,0xFF
10.006112833333333,0,0xFF,0xFF
10.007541166666666,0,0x7F,0xFF
10.008981958333333,0,0xFF,0xFF
10.010410333333333,0,0x5D,0xFF
10.011851125000000,0,0xFF,0xFF
10.013279458333333,0,0xCF,0xFF
10.014720250000000,0,0x3F,0xFF
10.016148583333333,0,0x4F,0xFF
10.017589375000000,0,0x17,0xFF
10.019017708333333,0,0xBB,0xFF
10.020458541666667,0,0x07,0xFF
10.021886833333333,0,0x59,0xFF
10.023327666666667,0,0x07,0xFF
10.024756000000000,0,0xF3,0xFF
10.026196791666667,0,0x0F,0xFF
10.027625125000000,0,0x77,0xFF
10.029065958333334,0,0xFF,0xFF
10.030494250000000,0,0xFF,0xFF
10.031935125000000,0,0xFF,0xFF
10.033363375000000,0,0xFF,0xFF
10.034804250000001,0,0xFF,0xFF
10.036232500000001,0,0xFF,0xFF
10.037673375000001,0,0xFF,0xFF
10.039101625000001,0,0xFF,0xFF
10.040542541666667,0,0xFF,0xFF
10.041970791666667,0,0xFF,0xFF
10.043411666666668,0,0xFF,0xFF
10.044839916666668,0,0xFF,0xFF
10.046280791666666,0,0xFF,0xFF
10.047709041666666,0,0xFF,0xFF
10.049149958333333,0,0xFF,0xFF
10.050578166666666,0,0xFF,0xFF
10.052019083333333,0,0xFF,0xFF
10.053447291666666,0,0xFF,0xFF
10.054888249999999,0,0xFF,0xFF
10.056316416666666,0,0xFF,0xFF
10.057757375000000,0,0xFF,0xFF
10.059185541666666,0,0xFF,0xFF
10.060626500000000,0,0xFF,0xFF
10.062054708333333,0,0xFF,0xFF
10.063495666666666,0,0xFF,0xFF
10.064923833333333,0,0xFF,0xFF
10.066364791666667,0,0xFF,0xFF
10.067792958333333,0,0xFF,0xFF
10.069233916666667,0,0xFF,0xFF
10.070662083333334,0,0xFF,0xFF
10.072103083333333,0,0xFF,0xFF
10.073531208333334,0,0xFF,0xFF
10.074972208333334,0,0xFF,0xFF
10.076400333333334,0,0xFF,0xFF
10.077841375000000,0,0xFF,0xFF
10.079269500000001,0,0xFF,0xFF
10.080710500000000,0,0xFF,0xFF
10.082138625000001,0,0xFF,0xFF
10.083579625000000,0,0xFF,0xFF
10.085007750000001,0,0xFF,0xFF
10.086448791666667,0,0xFF,0xFF
10.087876874999999,0,0xFF,0xFF
10.089317916666667,0,0xFF,0xFF
10.090745999999999,0,0xFF,0xFF
10.092187083333334,0,0xFF,0xFF
10.093615124999999,0,0xFF,0xFF
10.095056208333334,0,0xFF,0xFF
10.096484291666666,0,0xFF,0xFF
10.097925333333333,0,0xFF,0xFF
10.099353416666666,0,0xFF,0xFF
10.100794499999999,0,0xFF,0xFF
10.102222541666666,0,0xFF,0xFF
10.103724666666666,0,0xFF,0xFF
10.105152708333334,0,0xFF,0xFF
10.106593833333333,0,0xFF,0xFF
10.108021833333334,0,0xFF,0xFF
10.109462958333333,0,0xFF,0xFF
10.110890958333334,0,0xFF,0xFF
10.112332083333333,0,0xFF,0xFF
10.113760125000001,0,0xFF,0xFF
10.115201250000000,0,0xFF,0xFF
10.116629250000001,0,0xFF,0xFF
10.118070375000000,0,0xFF,0xFF
10.119498374999999,0,0xFF,0xFF
10.120939500000000,0,0xFF,0xFF
10.122367499999999,0,0xFF,0xFF
10.123808666666667,0,0xFF,0xFF
10.125236624999999,0,0xFF,0xFF
10.126677791666667,0,0xFF,0xFF
10.128105750000000,0,0xFF,0xFF
10.129546958333334,0,0xFF,0xFF
10.130974916666666,0,0xFF,0xFF
10.132416083333334,0,0xFF,0xFF
10.133844041666666,0,0xFF,0xFF
10.135285208333332,0,0xFF,0xFF
10.136713166666667,0,0xFF,0xFF
10.138154374999999,0,0xFF,0xFF
10.139582291666667,0,0xFF,0xFF
10.141023499999999,0,0xFF,0xFF
10.142451416666667,0,0xFF,0xFF
10.143892666666666,0,0xFF,0xFF
10.145320541666667,0,0xFF,0xFF
10.146761791666666,0,0xFF,0xFF
10.148189708333334,0,0xFF,0xFF
10.149630916666666,0,0xFF,0xFF
10.151058833333334,0,0xFF,0xFF
10.152500083333333,0,0xFF,0xFF
10.153927958333334,0,0xFF,0xFF
10.155369208333333,0,0xFF,0xFF
10.156797083333334,0,0xFF,0xFF
10.158238375000000,0,0xFF,0xFF
10.159666208333332,0,0xFF,0xFF
10.161107500000000,0,0xFF,0xFF
10.162535333333333,0,0xFF,0xFF
10.163976625000000,0,0xFF,0xFF
10.165404458333333,0,0xFF,0xFF
10.166845791666667,0,0xFF,0xFF
10.168273624999999,0,0xFF,0xFF
10.169714916666667,0,0xFF,0xFF
10.171142750000000,0,0xFF,0xFF
10.172584041666667,0,0xFF,0xFF
10.174011875000000,0,0xFF,0xFF
10.175453208333334,0,0xFF,0xFF
10.176881000000000,0,0xFF,0xFF
10.178322333333334,0,0xFF,0xFF
10.179750125000000,0,0xFF,0xFF
10.181191500000001,0,0xFF,0xFF
10.182619250000000,0,0xFF,0xFF
10.184060625000001,0,0xFF,0xFF
10.185488416666667,0,0xFF,0xFF
10.186929749999999,0,0xFF,0xFF
10.188357541666667,0,0xFF,0xFF
10.189798916666666,0,0xFF,0xFF
10.191226666666667,0,0xFF,0xFF
10.192668041666666,0,0xFF,0xFF
10.194095791666667,0,0xFF,0xFF
10.195537166666666,0,0xFF,0xFF
10.196964916666667,0,0xFF,0xFF
10.198406333333333,0,0xFF,0xFF
10.199834041666668,0,0xFF,0xFF
10.201275458333333,0,0xFF,0xFF
10.202703208333334,0,0xFF,0xFF
10.204205666666667,0,0xFF,0xFF
10.205633375000000,0,0xFF,0xFF
10.207074791666667,0,0xFF,0xFF
10.208502500000000,0,0xFF,0xFF
10.209943916666667,0,0xFF,0xFF
10.211371625000000,0,0xFF,0xFF
10.212813083333334,0,0xFF,0xFF
10.214240750000000,0,0xFF,0xFF
10.215682208333334,0,0xFF,0xFF
10.217109875000000,0,0xFF,0xFF
10.218551375000001,0,0xFF,0xFF
10.219979041666667,0,0xFF,0xFF
10.221420500000001,0,0xFF,0xFF
10.222848166666667,0,0xFF,0xFF
10.224289625000001,0,0xFF,0xFF
10.225717291666667,0,0xFF,0xFF
10.227158791666668,0,0xFF,0xFF
10.228586416666667,0,0xFF,0xFF
10.230027916666666,0,0xFF,0xFF
10.231455541666667,0,0xFF,0xFF
10.232897083333333,0,0xFF,0xFF
10.234324666666666,0,0xFF,0xFF
10.235766208333333,0,0xFF,0xFF
10.237193833333333,0,0xFF,0xFF
10.238635333333333,0,0xFF,0xFF
10.240062958333333,0,0xFF,0xFF
10.241504500000000,0,0xFF,0xFF
10.242932083333333,0,0xFF,0xFF
10.244373625000000,0,0xFF,0xFF
10.245801208333333,0,0xFF,0xFF
10.247242750000000,0,0xFF,0xFF
10.248670333333333,0,0xFF,0xFF
10.250111916666667,0,0xFF,0xFF
10.251539458333333,0,0xFF,0xFF
10.252981041666667,0,0xFF,0xFF
10.254408625000000,0,0xFF,0xFF
10.255850208333333,0,0xFF,0xFF
10.257277750000000,0,0xFF,0xFF
10.258719333333334,0,0xFF,0xFF
10.260146875000000,0,0xFF,0xFF
10.261588458333334,0,0xFF,0xFF
10.263016000000000,0,0xFF,0xFF
10.264457625000000,0,0xFF,0xFF
10.265885125000000,0,0xFF,0xFF
10.267326750000001,0,0xFF,0xFF
10.268754250000001,0,0xFF,0xFF
10.270195916666667,0,0xFF,0xFF
10.271623375000001,0,0xFF,0xFF
10.273065041666667,0,0xFF,0xFF
10.274492541666667,0,0xFF,0xFF
10.275934166666667,0,0xFF,0xFF
10.277361666666666,0,0xFF,0xFF
10.278803333333334,0,0xFF,0xFF
10.280230791666666,0,0xFF,0xFF
10.281672458333333,0,0xFF,0xFF
10.283099916666666,0,0xFF,0xFF
10.284541624999999,0,0xFF,0xFF
10.285969041666666,0,0xFF,0xFF
10.287410749999999,0,0xFF,0xFF
10.288838166666666,0,0xFF,0xFF
10.290279875000000,0,0xFF,0xFF
10.291707333333333,0,0xFF,0xFF
10.293149041666666,0,0xFF,0xFF
10.294576458333333,0,0xFF,0xFF
10.296018166666666,0,0xFF,0xFF
10.297445583333333,0,0xFF,0xFF
10.298887291666666,0,0xFF,0xFF
10.300314708333334,0,0xFF,0xFF
10.301756458333333,0,0xFF,0xFF
10.303183833333334,0,0xFF,0xFF
10.304686625000000,0,0xFF,0xFF
10.306114041666667,0,0xFF,0xFF
10.307555791666667,0,0xFF,0xFF
10.308983166666666,0,0xFF,0xFF
10.310424916666667,0,0xFF,0xFF
10.311852291666666,0,0xFF,0xFF
10.313294041666667,0,0xFF,0xFF
10.314721416666666,0,0xFF,0xFF
10.316163208333334,0,0xFF,0xFF
10.317590541666666,0,0xFF,0xFF
10.319032333333332,0,0xFF,0xFF
10.320459666666666,0,0xFF,0xFF
10.321901499999999,0,0xFF,0xFF
10.323328791666667,0,0xFF,0xFF
10.324770624999999,0,0xFF,0xFF
10.326197958333333,0,0xFF,0xFF
10.327639749999999,0,0xFF,0xFF
10.329067083333333,0,0xFF,0xFF
10.330508916666666,0,0xFF,0xFF
10.331936208333333,0,0xFF,0xFF
10.333378041666666,0,0xFF,0xFF
10.334805333333334,0,0xFF,0xFF
10.336247166666666,0,0xFF,0xFF
10.337674458333334,0,0xFF,0xFF
10.339116333333333,0,0xFF,0xFF
10.340543583333334,0,0xFF,0xFF
10.341985458333333,0,0xFF,0xFF
10.343412750000001,0,0xFF,0xFF
10.344854625000000,0,0xFF,0xFF
10.346281875000001,0,0xFF,0xFF
10.347723750000000,0,0xFF,0xFF
10.349151000000001,0,0x25,0xFF
10.350592875000000,0,0xD0,0xFF
10.352020166666666,0,0xE1,0xFF
10.353462041666667,0,0xFE,0xFF
10.354889291666666,0,0xF4,0xFF
10.356331208333334,0,0xFF,0xFF
10.357758375000000,0,0xFF,0xFF
10.359200291666667,0,0xFF,0xFF
10.360627541666666,0,0xFF,0xFF
10.362069458333334,0,0xFF,0xFF
10.363496666666666,0,0xCF,0xFF
10.364938583333334,0,0xFF,0xFF
10.366365791666666,0,0xD5,0xFF
10.367807750000001,0,0xFF,0xFF
10.369234916666667,0,0xC2,0xFF
10.370676916666667,0,0xFF,0xFF
10.372104041666667,0,0x67,0xFF
10.373545999999999,0,0x1F,0xFF
10.374973166666667,0,0xCF,0xFF
10.376415124999999,0,0x3F,0xFF
10.377842291666667,0,0x5F,0xFF
10.379284291666666,0,0xFF,0xFF
10.380711458333334,0,0xFF,0xFF
10.382153458333333,0,0xFF,0xFF
10.383580583333334,0,0xFF,0xFF
10.385022583333333,0,0xFF,0xFF
10.386449708333334,0,0xFF,0xFF
10.387891708333333,0,0xFF,0xFF
10.389318833333334,0,0xFF,0xFF
10.390760875000000,0,0xFF,0xFF
10.392187958333333,0,0x7F,0xFF
10.393630000000000,0,0xFF,0xFF
10.395057083333333,0,0xFF,0xFF
10.396499125000000,0,0xFF,0xFF
10.397926249999999,0,0xFF,0xFF
10.399368291666667,0,0xFF,0xFF
10.400795375000000,0,0xFF,0xFF
10.402237416666667,0,0xFF,0xFF
10.403664500000000,0,0xFF,0xFF
10.405167625000001,0,0xFF,0xFF
10.406594666666667,0,0xF1,0xFF
10.408036750000001,0,0xFF,0xFF
10.409463791666667,0,0xF4,0xFF
10.410905916666668,0,0xFB,0xFF
10.412332958333334,0,0xCE,0xFF
10.413775041666666,0,0xF1,0xFF
10.415202083333334,0,0xCE,0xFF
10.416644208333333,0,0xF1,0xFF
10.418071208333334,0,0x55,0xFF
10.419513333333333,0,0xFF,0xFF
10.420940333333334,0,0xF8,0xFF
10.422382499999999,0,0xFF,0xFF
10.423809458333333,0,0xFF,0xFF
10.425251583333333,0,0xFF,0xFF
10.426678583333333,0,0xFF,0xFF
10.428120750000000,0,0xFF,0xFF
10.429547708333333,0,0xF7,0xFF
10.430989875000000,0,0xFF,0xFF
10.432416874999999,0,0xFF,0xFF
10.433859041666667,0,0xFF,0xFF
10.435286000000000,0,0x55,0xFF
10.436728166666667,0,0xFF,0xFF
10.438155125000000,0,0x7E,0xFF
10.439597333333333,0,0xFF,0xFF
10.441024250000000,0,0x57,0xFF
10.442466458333334,0,0xFF,0xFF
10.443893375000000,0,0x3F,0xFF
10.445335583333334,0,0xFF,0xFF
10.446762500000000,0,0xFF,0xFF
10.448204750000000,0,0xFF,0xFF
10.449631666666667,0,0xFF,0xFF
10.451073875000001,0,0xFF,0xFF
10.452500791666667,0,0xFF,0xFF
10.453943000000001,0,0xFF,0xFF
10.455369916666667,0,0xFF,0xFF
10.456812166666667,0,0xFF,0xFF
10.458239041666667,0,0xDF,0xFF
10.459681291666667,0,0xFF,0xFF
10.461108166666667,0,0xFF,0xFF
10.462550416666666,0,0xFF,0xFF
10.463977291666666,0,0xFF,0xFF
10.465419583333333,0,0xFF,0xFF
10.466846458333332,0,0xFF,0xFF
10.468288708333333,0,0xFF,0xFF
10.469715583333333,0,0xFF,0xFF
10.471157874999999,0,0xFF,0xFF
10.472584708333333,0,0xCF,0xFF
10.474027000000000,0,0xFF,0xFF
10.475453833333333,0,0xBF,0xFF
10.476896125000000,0,0xDF,0xFF
10.478322958333333,0,0x8F,0xFF
10.479765291666666,0,0xFF,0xFF
10.481192083333333,0,0x9F,0xFF
10.482634416666667,0,0xFF,0xFF
10.484061250000000,0,0xCF,0xFF
10.485503541666667,0,0xFF,0xFF
10.486930375000000,0,0xF7,0xFF
10.488372708333333,0,0xFF,0xFF
10.489799500000000,0,0xFB,0xFF
10.491241833333333,0,0xFF,0xFF
10.492668625000000,0,0xFF,0xFF
10.494111000000000,0,0xFF,0xFF
10.495537750000000,0,0xFF,0xFF
10.496980125000000,0,0xFF,0xFF
10.498406875000001,0,0xF7,0xFF
10.499849250000000,0,0xFF,0xFF
10.501276000000001,0,0xFF,0xFF
10.502718416666667,0,0xFF,0xFF
10.504145166666667,0,0xFF,0xFF
10.505648583333333,0,0xFF,0xFF
10.507075333333333,0,0xFF,0xFF
10.508517749999999,0,0xFF,0xFF
10.509944458333333,0,0xFF,0xFF
10.511386874999999,0,0xFF,0xFF
10.512813583333333,0,0xFF,0xFF
10.514256000000000,0,0xFF,0xFF
10.515682708333333,0,0xFF,0xFF
10.517125166666666,0,0xFF,0xFF
10.518551875000000,0,0xFF,0xFF
10.519994291666666,0,0xFF,0xFF
10.521421000000000,0,0xFF,0xFF
10.522863458333333,0,0xFF,0xFF
10.524290125000000,0,0xFF,0xFF
10.525732583333333,0,0xFF,0xFF
10.527159250000000,0,0xFF,0xFF
10.528601708333333,0,0xFF,0xFF
10.530028375000001,0,0xFF,0xFF
10.531470875000000,0,0xFF,0xFF
10.532897500000001,0,0xFF,0xFF
10.534340000000000,0,0xFF,0xFF
10.535766625000001,0,0xFF,0xFF
10.537209125000000,0,0xFF,0xFF
10.538635791666668,0,0xFF,0xFF
10.540078291666667,0,0xFF,0xFF
10.541504916666666,0,0xFF,0xFF
10.542947416666667,0,0xFF,0xFF
10.544374041666666,0,0xFF,0xFF
10.545816583333334,0,0xFF,0xFF
10.547243166666666,0,0xFF,0xFF
10.548685708333334,0,0xFF,0xFF
10.550112291666666,0,0xFF,0xFF
10.551554833333334,0,0xFF,0xFF
10.552981416666666,0,0xFF,0xFF
10.554423999999999,0,0xFF,0xFF
10.555850583333333,0,0xFF,0xFF
10.557293124999999,0,0xFF,0xFF
10.558719708333333,0,0xFF,0xFF
10.560162291666666,0,0xFF,0xFF
10.561588833333333,0,0xFF,0xFF
10.563031416666666,0,0xFF,0xFF
10.564457958333334,0,0xFF,0xFF
10.565900541666666,0,0xFF,0xFF
10.567327083333334,0,0xFF,0xFF
10.568769708333333,0,0xFF,0xFF
10.570196208333334,0,0xFF,0xFF
10.571638833333333,0,0xFF,0xFF
10.573065375000001,0,0xFF,0xFF
10.574507958333333,0,0xFF,0xFF
10.575934500000001,0,0xFF,0xFF
10.577377125000000,0,0xFF,0xFF
10.578803625000001,0,0xFF,0xFF
10.580246250000000,0,0xFF,0xFF
10.581672749999999,0,0xFF,0xFF
10.583115416666667,0,0xFF,0xFF
10.584541874999999,0,0xFF,0xFF
10.585984541666667,0,0xFF,0xFF
10.587410999999999,0,0xFF,0xFF
10.588853666666667,0,0xFF,0xFF
10.590280166666666,0,0xFF,0xFF
10.591722833333334,0,0xFF,0xFF
10.593149291666666,0,0xFF,0xFF
10.594591958333334,0,0xFF,0xFF
10.596018416666666,0,0xFF,0xFF
10.597461125000001,0,0xFF,0xFF
10.598887541666667,0,0xFF,0xFF
10.600330250000001,0,0xFF,0xFF
10.601756666666667,0,0xFF,0xFF
10.603199375000001,0,0xFF,0xFF
10.604625791666667,0,0xFF,0xFF
10.606068541666666,0,0xFF,0xFF
10.607494916666667,0,0xFF,0xFF
10.608937666666666,0,0xFF,0xFF
10.610364083333334,0,0xFF,0xFF
10.611806791666666,0,0xFF,0xFF
10.613233208333334,0,0xFF,0xFF
10.614675958333333,0,0xFF,0xFF
10.616102333333334,0,0xFF,0xFF
10.617545083333333,0,0xFF,0xFF
10.618971458333334,0,0xFF,0xFF
10.620414250000000,0,0xFF,0xFF
10.621840583333332,0,0xFF,0xFF
10.623283375000000,0,0xFF,0xFF
10.624709708333333,0,0xFF,0xFF
10.626152500000000,0,0xFF,0xFF
10.627578874999999,0,0xFF,0xFF
10.629021666666667,0,0xFF,0xFF
10.630447999999999,0,0xFF,0xFF
10.631890791666667,0,0xFF,0xFF
10.633317125000000,0,0xFF,0xFF
10.634759958333333,0,0xFF,0xFF
10.636186250000000,0,0xFF,0xFF
10.637629083333334,0,0xFF,0xFF
10.639055375000000,0,0xFF,0xFF
10.640498208333334,0,0xFF,0xFF
10.641924500000000,0,0xFF,0xFF
10.643367375000000,0,0xFF,0xFF
10.644793666666667,0,0xFF,0xFF
10.646236500000001,0,0xFF,0xFF
10.647662791666667,0,0xFF,0xFF
10.649105625000001,0,0xFF,0xFF
10.650531916666667,0,0xFF,0xFF
10.651974791666667,0,0xFF,0xFF
10.653401041666667,0,0xFF,0xFF
10.654843916666668,0,0xFF,0xFF
10.656270166666667,0,0xFF,0xFF
10.657713083333332,0,0xFF,0xFF
10.659139291666667,0,0xFF,0xFF
10.660582208333333,0,0xFF,0xFF
10.662008458333334,0,0xFF,0xFF
10.663451333333333,0,0xFF,0xFF
10.664877583333332,0,0xFF,0xFF
10.666320499999999,0,0xFF,0xFF
10.667746708333333,0,0xFF,0xFF
10.669189625000000,0,0xFF,0xFF
10.670615833333333,0,0xFF,0xFF
10.672058791666666,0,0xFF,0xFF
10.673484958333333,0,0xFF,0xFF
10.674927916666666,0,0xFF,0xFF
10.676354083333333,0,0xFF,0xFF
10.677797041666667,0,0xFF,0xFF
10.679223250000000,0,0xFF,0xFF
10.680666208333333,0,0xFF,0xFF
10.682092375000000,0,0xFF,0xFF
10.683535333333333,0,0xFF,0xFF
10.684961500000000,0,0xFF,0xFF
10.686404458333334,0,0xFF,0xFF
10.687830625000000,0,0xFF,0xFF
10.689273625000000,0,0xFF,0xFF
10.690699750000000,0,0xFF,0xFF
10.692142750000000,0,0xFF,0xFF
10.693568875000000,0,0xFF,0xFF
10.695011916666667,0,0xFF,0xFF
10.696438000000001,0,0xFF,0xFF
10.697881041666667,0,0xFF,0xFF
10.699307166666667,0,0xFD,0xFF
10.700750166666667,0,0xFF,0xFF
10.702176291666667,0,0xFE,0xFF
10.703619333333334,0,0xFF,0xFF
10.705045416666668,0,0xFD,0xFF
10.706549499999999,0,0xFF,0xFF
10.707975583333333,0,0xFC,0xFF
10.709418666666666,0,0xFF,0xFF
10.710844708333333,0,0xFD,0xFF
10.712287791666666,0,0xFF,0xFF
10.713713875000000,0,0xFE,0xFF
10.715156958333333,0,0xFF,0xFF
10.716582958333333,0,0x51,0xFF
10.718026083333333,0,0xFF,0xFF
10.719452125000000,0,0x01,0xFF
10.720895208333333,0,0xFF,0xFF
10.722321250000000,0,0x11,0xFF
10.723764375000000,0,0xFF,0xFF
10.725190375000000,0,0x00,0xFF
10.726633500000000,0,0xFF,0xFF
10.728059500000001,0,0x08,0xFF
10.729502666666667,0,0xF7,0xFF
10.730928625000001,0,0x00,0xFF
10.732371791666667,0,0xFF,0xFF
10.733797750000001,0,0x0A,0xFF
10.735240958333334,0,0xF5,0xFF
10.736666916666668,0,0x00,0xFF
10.738110083333334,0,0xFF,0xFF
10.739536041666666,0,0x57,0xFF
10.740979208333334,0,0xFF,0xFF
10.742405166666666,0,0x3E,0xFF
10.743848375000001,0,0xFF,0xFF
10.745274291666666,0,0x55,0xFF
10.746717500000001,0,0xFF,0xFF
10.748143416666666,0,0x00,0xFF
10.749586624999999,0,0xFF,0xFF
10.751012583333333,0,0x90,0xFF
10.752455749999999,0,0x7F,0xFF
10.753881708333333,0,0x00,0xFF
10.755324916666666,0,0xFF,0xFF
10.756750833333333,0,0xAA,0xFF
10.758194041666666,0,0x55,0xFF
10.759619958333333,0,0x02,0xFF
10.761063208333333,0,0xFD,0xFF
10.762489083333334,0,0x4A,0xFF
10.763932333333333,0,0xF5,0xFF
10.765358208333334,0,0x31,0xFF
10.766801458333333,0,0xFF,0xFF
10.768227333333334,0,0x5F,0xFF
10.769670625000000,0,0xFF,0xFF
10.771096500000001,0,0x04,0xFF
10.772539791666667,0,0xFF,0xFF
10.773965625000001,0,0xAB,0xFF
10.775408875000000,0,0x55,0xFF
10.776834750000001,0,0x00,0xFF
10.778278041666667,0,0xFF,0xFF
10.779703874999999,0,0x8A,0xFF
10.781147166666667,0,0x75,0xFF
10.782572999999999,0,0x00,0xFF
10.784016333333334,0,0xFF,0xFF
10.785442124999999,0,0x55,0xFF
10.786885458333334,0,0xFF,0xFF
10.788311291666666,0,0xA3,0xFF
10.789754583333334,0,0xFF,0xFF
10.791180416666666,0,0x55,0xFF
10.792623750000001,0,0xFF,0xFF
10.794049541666666,0,0x02,0xFF
10.795492916666667,0,0xFF,0xFF
10.796918666666667,0,0xD5,0xFF
10.798361999999999,0,0x7F,0xFF
10.799787791666667,0,0x02,0xFF
10.801231166666666,0,0xFF,0xFF
10.802656916666667,0,0x15,0xFF
10.804100291666666,0,0xFF,0xFF
10.805526041666667,0,0x04,0xFF
10.807030500000000,0,0xFF,0xFF
10.808456250000001,0,0x57,0xFF
10.809899625000000,0,0xFF,0xFF
10.811325374999999,0,0xFF,0xFF
10.812768750000000,0,0xFF,0xFF
10.814194499999999,0,0x55,0xFF
10.815637916666667,0,0xFF,0xFF
10.817063624999999,0,0xFF,0xFF
10.818507041666667,0,0xFF,0xFF
10.819932750000000,0,0x55,0xFF
10.821376208333334,0,0xFF,0xFF
10.822801916666666,0,0xB2,0xFF
10.824245375000000,0,0xFF,0xFF
10.825671041666666,0,0x55,0xFF
10.827114458333334,0,0xFF,0xFF
10.828540166666667,0,0x8A,0xFF
10.829983625000001,0,0xFF,0xFF
10.831409291666667,0,0xFF,0xFF
10.832852750000001,0,0xFF,0xFF
10.834278416666667,0,0xFF,0xFF
10.835721916666667,0,0xFF,0xFF
10.837147541666667,0,0xDF,0xFF
10.838591041666668,0,0xFF,0xFF
10.840016708333334,0,0xFF,0xFF
10.841460166666666,0,0xFF,0xFF
10.842885833333334,0,0x5F,0xFF
10.844329333333333,0,0xFF,0xFF
10.845754958333334,0,0xFF,0xFF
10.847198458333333,0,0xFF,0xFF
10.848624083333334,0,0xDF,0xFF
10.850067583333333,0,0xFF,0xFF
10.851493208333334,0,0xFF,0xFF
10.852936750000000,0,0xFF,0xFF
10.854362333333333,0,0xFF,0xFF
10.855805875000000,0,0xFF,0xFF
10.857231499999999,0,0xFF,0xFF
10.858675041666666,0,0xFF,0xFF
10.860100624999999,0,0xFF,0xFF
10.861544166666667,0,0xFF,0xFF
10.862969750000000,0,0xFF,0xFF
10.864413291666667,0,0xFF,0xFF
10.865838875000000,0,0xFF,0xFF
10.867282458333333,0,0xFF,0xFF
10.868708000000000,0,0xFF,0xFF
10.870151583333334,0,0xFF,0xFF
10.871577125000000,0,0xFF,0xFF
10.873020750000000,0,0xFF,0xFF
10.874446291666667,0,0xFF,0xFF
10.875889875000000,0,0xFF,0xFF
10.877315416666667,0,0xFF,0xFF
10.878759000000001,0,0xFF,0xFF
10.880184541666667,0,0xFF,0xFF
10.881628166666667,0,0xFF,0xFF
10.883053666666667,0,0xFF,0xFF
10.884497291666667,0,0xFF,0xFF
10.885922791666667,0,0xFF,0xFF
10.887366416666667,0,0xFF,0xFF
10.888791916666667,0,0xFF,0xFF
10.890235583333334,0,0xFF,0xFF
10.891661083333334,0,0xFF,0xFF
10.893104708333333,0,0xFF,0xFF
10.894530208333334,0,0xFF,0xFF
10.895973874999999,0,0xFF,0xFF
10.897399333333333,0,0xFF,0xFF
10.898842999999999,0,0xFF,0xFF
10.900268458333333,0,0xFF,0xFF
10.901712125000000,0,0xFF,0xFF
10.903137583333333,0,0xFF,0xFF
10.904581291666666,0,0xFF,0xFF
10.906006708333333,0,0xFF,0xFF
10.907511458333333,0,0xFF,0xFF
10.908936916666667,0,0xFF,0xFF
10.910380625000000,0,0xFF,0xFF
10.911806041666667,0,0xFF,0xFF
10.913249750000000,0,0xFF,0xFF
10.914675166666667,0,0xFF,0xFF
10.916118875000000,0,0xFF,0xFF
10.917544291666667,0,0xFF,0xFF
10.918988041666667,0,0xFF,0xFF
10.920413416666667,0,0xFF,0xFF
10.921857166666667,0,0xFF,0xFF
10.923282541666667,0,0xFF,0xFF
10.924726333333334,0,0xFF,0xFF
10.926151708333334,0,0xFF,0xFF
10.927595458333334,0,0xFF,0xFF
10.929020833333333,0,0xFF,0xFF
10.930464583333332,0,0xFF,0xFF
10.931889958333333,0,0xFF,0xFF
10.933333749999999,0,0xFF,0xFF
10.934759083333333,0,0xFF,0xFF
10.936202874999999,0,0xFF,0xFF
10.937628208333333,0,0xFF,0xFF
10.939071999999999,0,0xFF,0xFF
10.940497333333333,0,0xFF,0xFF
10.941941166666666,0,0xFF,0xFF
10.943366458333333,0,0xFF,0xFF
10.944810291666666,0,0xFF,0xFF
10.946235625000000,0,0xFF,0xFF
10.947679458333333,0,0xFF,0xFF
10.949104750000000,0,0xFF,0xFF
10.950548583333333,0,0xFF,0xFF
10.951973875000000,0,0xFF,0xFF
10.953417708333333,0,0xFF,0xFF
10.954843000000000,0,0xFF,0xFF
10.956286875000000,0,0xFF,0xFF
10.957712125000000,0,0xFF,0xFF
10.959156000000000,0,0xFF,0xFF
10.960581250000001,0,0xFF,0xFF
10.962025125000000,0,0xFF,0xFF
10.963450416666667,0,0xFF,0xFF
10.964894291666667,0,0xFF,0xFF
10.966319541666667,0,0xFF,0xFF
10.967763416666667,0,0xFF,0xFF
10.969188666666666,0,0xFF,0xFF
10.970632583333334,0,0xFF,0xFF
10.972057791666666,0,0xFF,0xFF
10.973501708333334,0,0xFF,0xFF
10.974926916666666,0,0xF8,0xFF
10.976370875000001,0,0xFF,0xFF
10.977796041666666,0,0xF5,0xFF
10.979240000000001,0,0xF8,0xFF
10.980665208333333,0,0xF8,0xFF
10.982109166666667,0,0xF0,0xFF
10.983534333333333,0,0xFD,0xFF
10.984978291666666,0,0xF0,0xFF
10.986403500000000,0,0xF0,0xFF
10.987847458333333,0,0xF8,0xFF
10.989272625000000,0,0xF4,0xFF
10.990716583333333,0,0xF8,0xFF
10.992141750000000,0,0xFF,0xFF
10.993585708333333,0,0xFF,0xFF
10.995010833333334,0,0xF5,0xFF
10.996454833333333,0,0xFE,0xFF
10.997880000000000,0,0x72,0xFF
10.999324000000000,0,0xFC,0xFF
11.000749125000000,0,0x69,0xFF
11.002193083333333,0,0x14,0xFF
11.003618250000001,0,0x00,0xFF
11.005062250000000,0,0x00,0xFF
11.006487375000001,0,0x00,0xFF
11.007992458333334,0,0x00,0xFF
11.009417541666666,0,0x00,0xFF
11.010861583333334,0,0x00,0xFF
11.012286666666666,0,0x01,0xFF
11.013730708333334,0,0x00,0xFF
11.015155833333333,0,0xFF,0xFF
11.016599875000001,0,0xFF,0xFF
11.018024958333333,0,0x50,0xFF
11.019469000000001,0,0x04,0xFF
11.020894083333333,0,0x20,0xFF
11.022338166666668,0,0x00,0xFF
11.023763208333333,0,0x15,0xFF
11.025207291666666,0,0x40,0xFF
11.026632333333334,0,0x41,0xFF
11.028076416666666,0,0x00,0xFF
11.029501458333334,0,0x57,0xFF
11.030945541666666,0,0x00,0xFF
11.032370625000000,0,0x14,0xFF
11.033814708333333,0,0x00,0xFF
11.035239750000001,0,0x1E,0xFF
11.036683875000000,0,0x01,0xFF
11.038108875000001,0,0xFF,0xFF
11.039553000000000,0,0xFF,0xFF
11.040978000000001,0,0x55,0xFF
11.042422125000000,0,0x1F,0xFF
11.043847124999999,0,0x01,0xFF
11.045291250000000,0,0x1F,0xFF
11.046716249999999,0,0x45,0xFF
11.048160416666667,0,0x1F,0xFF
11.049585416666666,0,0xF9,0xFF
11.051029541666667,0,0x07,0xFF
11.052454541666666,0,0x39,0xFF
11.053898666666667,0,0x47,0xFF
11.055323666666666,0,0xEB,0xFF
11.056767833333334,0,0x07,0xFF
11.058192791666666,0,0x5B,0xFF
11.059637000000000,0,0x87,0xFF
11.061061916666667,0,0xF4,0xFF
11.062506166666667,0,0xF8,0xFF
11.063931083333333,0,0xFC,0xFF
11.065375291666667,0,0xF8,0xFF
11.066800208333333,0,0xFC,0xFF
11.068244416666667,0,0xF8,0xFF
11.069669333333334,0,0xFC,0xFF
11.071113583333334,0,0xF8,0xFF
11.072538458333334,0,0xF8,0xFF
11.073982708333334,0,0xF8,0xFF
11.075407625000000,0,0xFC,0xFF
11.076851874999999,0,0xF8,0xFF
11.078276750000001,0,0xF8,0xFF
11.079720999999999,0,0xF8,0xFF
11.081145875000001,0,0xFD,0xFF
11.082590124999999,0,0xF8,0xFF
11.084014958333333,0,0x01,0xFF
11.085459250000000,0,0x00,0xFF
11.086884124999999,0,0x00,0xFF
11.088328375000000,0,0x00,0xFF
11.089753249999999,0,0x00,0xFF
11.091197541666666,0,0x00,0xFF
11.092622374999999,0,0x00,0xFF
11.094066666666667,0,0x00,0xFF
11.095491500000000,0,0x00,0xFF
11.096935833333333,0,0x00,0xFF
11.098360625000000,0,0x00,0xFF
11.099804958333333,0,0x00,0xFF
11.101229750000000,0,0x00,0xFF
11.102674083333333,0,0x00,0xFF
11.104098916666667,0,0x00,0xFF
11.105543250000000,0,0x00,0xFF
11.106968041666667,0,0xE5,0xFF
11.108473416666667,0,0x02,0xFF
11.109898208333334,0,0x01,0xFF
11.111342541666666,0,0x00,0xFF
11.112767333333334,0,0x00,0xFF
11.114211708333332,0,0x00,0xFF
11.115636458333332,0,0x00,0xFF
11.117080833333333,0,0x00,0xFF
11.118505583333333,0,0x00,0xFF
11.119949999999999,0,0x00,0xFF
11.121374749999999,0,0x00,0xFF
11.122819124999999,0,0x00,0xFF
11.124243874999999,0,0x00,0xFF
11.125688291666666,0,0x00,0xFF
11.127113000000000,0,0x01,0xFF
11.128557416666666,0,0x00,0xFF
11.129982125000000,0,0x7B,0xFF
11.131426541666666,0,0x07,0xFF
11.132851250000000,0,0xC7,0xFF
11.134295666666667,0,0x1F,0xFF
11.135720375000000,0,0x8F,0xFF
11.137164833333333,0,0x7F,0xFF
11.138589500000000,0,0x27,0xFF
11.140033958333333,0,0x1F,0xFF
11.141458666666667,0,0x17,0xFF
11.142903083333334,0,0x0F,0xFF
11.144327791666667,0,0x47,0xFF
11.145772250000000,0,0x1F,0xFF
11.147196916666667,0,0x2F,0xFF
11.148641375000000,0,0x1F,0xFF
11.150066041666667,0,0x7F,0xFF
11.151510541666667,0,0x1F,0xFF
11.152935166666667,0,0xFC,0xFF
11.154379708333334,0,0xF8,0xFF
11.155804333333334,0,0xFE,0xFF
11.157248833333334,0,0xFD,0xFF
11.158673458333332,0,0xFC,0xFF
11.160118000000001,0,0xFF,0xFF
11.161542583333333,0,0xFE,0xFF
11.162987125000001,0,0xFF,0xFF
11.164411708333333,0,0xFF,0xFF
11.165856249999999,0,0xFF,0xFF
11.167280833333333,0,0xFF,0xFF
11.168725374999999,0,0xFF,0xFF
11.170149958333333,0,0xFF,0xFF
11.171594541666666,0,0xFF,0xFF
11.173019083333333,0,0xFF,0xFF
11.174463666666666,0,0xFF,0xFF
11.175888208333333,0,0x00,0xFF
11.177332791666666,0,0x00,0xFF
11.178757375000000,0,0xC0,0xFF
11.180201958333333,0,0x00,0xFF
11.181626500000000,0,0x00,0xFF
11.183071125000000,0,0x80,0xFF
11.184495625000000,0,0x35,0xFF
11.185940250000000,0,0xC0,0xFF
11.187364750000000,0,0x1C,0xFF
11.188809416666667,0,0xE0,0xFF
11.190233916666667,0,0xD5,0xFF
11.191678500000000,0,0xFF,0xFF
11.193103041666667,0,0xB0,0xFF
11.194547666666667,0,0xCF,0xFF
11.195972166666667,0,0xD3,0xFF
11.197416791666667,0,0xC7,0xFF
11.198841291666668,0,0x01,0xFF
11.200285916666667,0,0x02,0xFF
11.201710416666666,0,0x12,0xFF
11.203155083333334,0,0x07,0xFF
11.204579541666666,0,0x02,0xFF
11.206024208333334,0,0x07,0xFF
11.207448666666666,0,0x7A,0xFF
11.208954416666666,0,0x05,0xFF
11.210378875000000,0,0xE0,0xFF
11.211823541666666,0,0x1F,0xFF
11.213248000000000,0,0x5F,0xFF
11.214692708333333,0,0xFF,0xFF
11.216117125000000,0,0xFF,0xFF
11.217561833333333,0,0xFF,0xFF
11.218986250000000,0,0xFF,0xFF
11.220430958333333,0,0xFF,0xFF
11.221855375000001,0,0x4F,0xFF
11.223300083333333,0,0x3F,0xFF
11.224724500000001,0,0x9F,0xFF
11.226169250000000,0,0x7F,0xFF
11.227593625000001,0,0x3F,0xFF
11.229038375000000,0,0xFF,0xFF
11.230462791666667,0,0x7F,0xFF
11.231907541666667,0,0xFF,0xFF
11.233331916666666,0,0xFF,0xFF
11.234776666666667,0,0xFF,0xFF
11.236201041666666,0,0xFF,0xFF
11.237645833333334,0,0xFF,0xFF
11.239070166666666,0,0xFF,0xFF
11.240514958333334,0,0xFF,0xFF
11.241939291666666,0,0xFF,0xFF
11.243384083333334,0,0xFF,0xFF
11.244808458333333,0,0xFF,0xFF
11.246253250000001,0,0xFF,0xFF
11.247677583333333,0,0xFF,0xFF
11.249122375000001,0,0xFF,0xFF
11.250546708333333,0,0xFF,0xFF
11.251991541666667,0,0xFF,0xFF
11.253415833333333,0,0xFF,0xFF
11.254860666666668,0,0xFF,0xFF
11.256284958333334,0,0x00,0x00
11.257729791666666,0,0x00,0x00
11.259154083333334,0,0x00,0x00
11.260598958333333,0,0x00,0x00
11.262023250000000,0,0x00,0x00
11.263468083333333,0,0x00,0x00
11.264892375000001,0,0x00,0x00
11.266337208333333,0,0x00,0x00
11.267761541666667,0,0xD3,0xFF
11.269206375000000,0,0xEF,0xFF
11.270630625000001,0,0xD4,0xFF
11.272075541666666,0,0xFF,0xFF
11.273499749999999,0,0x80,0xFF
11.274944666666666,0,0xFF,0xFF
11.276368874999999,0,0xFF,0xFF
11.277813791666667,0,0xFF,0xFF
11.279237999999999,0,0x00,0x00
11.280682916666667,0,0x00,0x00
11.282107166666666,0,0x00,0x00
11.283552083333333,0,0x00,0x00
11.284976291666666,0,0x00,0x00
11.286421208333334,0,0x00,0x00
11.287845416666666,0,0x00,0x00
11.289290375000000,0,0x00,0x00
11.290714541666667,0,0x06,0xFF
11.292159500000000,0,0xFF,0xFF
11.293583666666667,0,0x57,0xFF
11.295028625000000,0,0xFF,0xFF
11.296452791666667,0,0x07,0xFF
11.297897791666667,0,0xFF,0xFF
11.299321958333334,0,0xFF,0xFF
11.300766916666667,0,0xFF,0xFF
11.302191041666667,0,0x00,0x00
11.303636041666667,0,0x00,0x00
11.305060208333334,0,0x00,0x00
11.306505208333334,0,0x00,0x00
11.307929333333334,0,0x00,0x00
11.309435375000000,0,0x00,0x00
11.310859499999999,0,0x00,0x00
11.312304541666666,0,0x00,0x00
11.313728708333333,0,0xFF,0xFF
11.315173666666666,0,0xFF,0xFF
11.316597791666666,0,0xFF,0xFF
11.318042791666667,0,0xFF,0xFF
11.319466916666666,0,0xFF,0xFF
11.320911958333333,0,0xFF,0xFF
11.322336041666667,0,0xFF,0xFF
11.323781083333333,0,0xFF,0xFF
11.325205166666667,0,0x00,0x00
11.326650250000000,0,0x00,0x00
11.328074291666667,0,0x00,0x00
11.329519375000000,0,0x00,0x00
11.330943416666667,0,0x00,0x00
11.332388500000000,0,0x00,0x00
11.333812583333334,0,0x00,0x00
11.335257666666667,0,0x00,0x00
11.336681708333334,0,0x79,0x79
11.338126791666667,0,0x65,0x65
11.339550833333334,0,0x43,0x43
11.340995916666667,0,0x38,0x38
11.342420000000001,0,0xC4,0xBC
11.343865125000001,0,0xCD,0xC9
11.345289083333334,0,0xD6,0xCE
11.346734250000001,0,0xC9,0xC9
11.348158208333333,0,0xDA,0xCD
11.349603374999999,0,0xD7,0xD4
11.351027333333333,0,0x00,0x00
11.352472499999999,0,0x00,0x00
11.353896499999999,0,0x00,0x00
11.355341624999999,0,0x05,0x05
11.356765625000000,0,0x2A,0x2A
11.358210833333333,0,0xA4,0xA4
11.359634750000000,0,0x1A,0x1A
11.361079916666666,0,0x14,0x14
11.362503875000000,0,0x1E,0x17
11.363949083333333,0,0x00,0x00
11.365373000000000,0,0x1E,0x17
11.366818208333333,0,0x00,0x00
11.368242166666667,0,0x00,0x00
11.369687333333333,0,0x00,0x00
11.371111291666667,0,0x00,0x00
11.372556500000000,0,0x00,0x00
11.373980416666667,0,0x00,0x00
11.375425625000000,0,0x00,0x00
11.376849541666667,0,0x00,0x00
11.378294791666667,0,0x00,0x00
11.379718666666667,0,0x00,0x00
11.381163916666667,0,0x00,0x00
11.382587791666667,0,0x00,0x00
11.384033041666667,0,0x00,0x00
11.385456916666667,0,0x00,0x00
11.386902208333334,0,0x00,0x00
11.388326083333334,0,0x00,0x00
11.389771333333334,0,0x00,0x00
11.391195208333333,0,0x00,0x00
11.392640458333334,0,0x00,0x00
11.394064333333333,0,0x00,0x00
11.395509625000001,0,0x00,0x00
11.396933458333333,0,0x00,0x00
11.398378749999999,0,0x00,0x00
11.399802583333333,0,0x00,0x00
11.401247916666666,0,0x00,0x00
11.402671708333333,0,0x00,0x00
11.404117041666666,0,0x00,0x00
11.405540875000000,0,0x00,0x00
11.406986166666666,0,0x00,0x00
11.408410000000000,0,0x00,0x00
11.409855333333333,0,0x00,0x00
11.411279125000000,0,0x5A,0x00
11.412724499999999,0,0xEC,0x00
11.414148250000000,0,0x00,0x00
11.415593625000000,0,0x00,0x00
11.417017375000000,0,0x00,0x00
11.418462750000000,0,0x00,0x00
11.419886500000000,0,0x00,0x00
11.421331875000000,0,0x00,0x00
11.422755666666667,0,0x00,0x00
11.424201041666667,0,0x00,0x00
11.425624791666667,0,0x00,0x00
11.427070166666667,0,0x00,0x00
11.428493916666667,0,0x00,0x00
11.429939291666667,0,0x00,0x00
11.431363041666666,0,0x00,0x00
11.432808458333334,0,0x00,0x00
11.434232166666666,0,0x00,0x00
11.435677583333334,0,0x00,0x00
11.437101291666666,0,0x00,0x00
11.438546750000000,0,0x00,0x00
11.439970458333333,0,0x00,0x00
11.441415875000001,0,0x00,0x00
11.442839583333333,0,0x00,0x00
11.444285000000001,0,0x00,0x00
11.445708708333333,0,0x00,0x00
11.447154166666667,0,0x00,0x00
11.448577833333333,0,0x00,0x00
11.450023291666668,0,0x00,0x00
11.451446958333333,0,0x00,0x00
11.452892458333332,0,0x00,0x00
11.454316083333334,0,0x00,0x00
11.455761583333333,0,0x00,0x00
11.457185250000000,0,0x11,0x11
11.458630708333333,0,0x4D,0x4D
11.460054333333334,0,0x61,0x61
11.461499833333333,0,0x67,0x67
11.462923500000000,0,0x69,0x69
11.464369000000000,0,0x63,0x63
11.465792625000001,0,0xFD,0x85
11.467238125000000,0,0x4B,0x8D
11.468661750000001,0,0x79,0x79
11.470107250000000,0,0x65,0x65
11.471530874999999,0,0x43,0x43
11.472976416666667,0,0x38,0x38
11.474400083333334,0,0xC4,0xBC
11.475845583333333,0,0xCD,0xC9
11.477269166666666,0,0xD6,0xCE
11.478714750000000,0,0xC9,0xC9
11.480138291666666,0,0xDA,0xCD
11.481583875000000,0,0xD7,0xD4
11.483007416666666,0,0x00,0x00
11.484453000000000,0,0x00,0x00
11.485876541666666,0,0x00,0x00
11.487322125000000,0,0x05,0x05
11.488745666666667,0,0x2A,0x2A
11.490191291666667,0,0xA4,0xA4
11.491614791666667,0,0x1A,0x1A
11.493060416666667,0,0x14,0x14
11.494483958333333,0,0x1E,0x17
11.495929541666667,0,0x00,0x00
11.497353083333334,0,0x1E,0x17
11.498798708333334,0,0x00,0x00
11.500222208333334,0,0x00,0x00
11.501667833333334,0,0x00,0x00
11.503091333333334,0,0x00,0x00
11.504536958333333,0,0x00,0x00
11.505960458333334,0,0x00,0x00
11.507406124999999,0,0x00,0x00
11.508829583333334,0,0x00,0x00
11.510336291666666,0,0x00,0x00
11.511759791666666,0,0x00,0x00
11.513205458333333,0,0x00,0x00
11.514628916666666,0,0x00,0x00
11.516074583333333,0,0x00,0x00
11.517498041666666,0,0x00,0x00
11.518943708333333,0,0x00,0x00
11.520367166666666,0,0x00,0x00
11.521812875000000,0,0x00,0x00
11.523236291666667,0,0x00,0x00
11.524682000000000,0,0x00,0x00
11.526105416666667,0,0x00,0x00
11.527551166666667,0,0x00,0x00
11.528974583333333,0,0x00,0x00
11.530420291666667,0,0x00,0x00
11.531843708333334,0,0x00,0x00
11.533289416666667,0,0x00,0x00
11.534712833333334,0,0x00,0x00
11.536158583333334,0,0x00,0x00
11.537581958333334,0,0x00,0x00
11.539027708333334,0,0x00,0x00
11.540451083333334,0,0x00,0x00
11.541896833333332,0,0x00,0x00
11.543320208333334,0,0x5A,0x00
11.544765999999999,0,0xEC,0x00
11.546189375000001,0,0x00,0x00
11.547635124999999,0,0x00,0x00
11.549058499999999,0,0x00,0x00
11.550504291666666,0,0x00,0x00
11.551927624999999,0,0x00,0x00
11.553373416666666,0,0x00,0x00
11.554796750000000,0,0x00,0x00
11.556242541666666,0,0x00,0x00
11.557665875000000,0,0x00,0x00
11.559111708333333,0,0x00,0x00
11.560535000000000,0,0x00,0x00
11.561980833333333,0,0x00,0x00
11.563404166666666,0,0x00,0x00
11.564850000000000,0,0x00,0x00
11.566273291666667,0,0x00,0x00
11.567719125000000,0,0x00,0x00
11.569142416666667,0,0x00,0x00
11.570588250000000,0,0x00,0x00
11.572011541666667,0,0x00,0x00
11.573457416666667,0,0x00,0x00
11.574880666666667,0,0x00,0x00
11.576326541666667,0,0x00,0x00
11.577749791666667,0,0x00,0x00
11.579195666666667,0,0x00,0x00
11.580618916666667,0,0x00,0x00
11.582064833333334,0,0x00,0x00
11.583488083333334,0,0x00,0x00
11.584933958333334,0,0x00,0x00
11.586357208333334,0,0x00,0x00
11.587803125000001,0,0x00,0x00
11.589226333333333,0,0x11,0x11
11.590672250000001,0,0x4D,0x4D
11.592095458333333,0,0x61,0x61
11.593541374999999,0,0x67,0x67
11.594964583333333,0,0x69,0x69
11.596410499999999,0,0x63,0x63
11.597833708333333,0,0xFD,0x85
11.599279666666666,0,0x4B,0x8D
11.600702833333333,0,0x00,0x00
11.602148833333333,0,0x00,0x00
11.603572000000000,0,0x00,0x00
11.605017958333333,0,0x00,0x00
11.606441125000000,0,0x00,0x00
11.607887083333333,0,0x00,0x00
11.609310250000000,0,0x00,0x00
11.610817291666667,0,0x00,0x00
11.612240416666667,0,0x00,0x00
11.613686416666667,0,0x00,0x00
11.615109541666667,0,0x00,0x00
11.616555583333334,0,0x00,0x00
11.617978708333334,0,0x00,0x00
11.619424708333334,0,0x00,0x00
11.620847833333332,0,0x00,0x00
11.622293833333334,0,0x00,0x00
11.623716958333333,0,0x00,0x00
11.625163000000001,0,0x00,0x00
11.626586083333333,0,0x00,0x00
11.628032125000001,0,0x00,0x00
11.629455208333333,0,0x00,0x00
11.630901291666667,0,0x00,0x00
11.632324333333333,0,0x00,0x00
11.633770416666666,0,0x00,0x00
11.635193500000000,0,0x00,0x00
11.636639541666666,0,0x00,0x00
11.638062625000000,0,0x00,0x00
11.639508708333333,0,0x00,0x00
11.640931750000000,0,0x00,0x00
11.642377833333333,0,0x00,0x00
11.643800875000000,0,0x00,0x00
11.645246958333333,0,0x00,0x00
11.646670000000000,0,0x00,0x00
11.648116125000000,0,0x00,0x00
11.649539125000000,0,0x00,0x00
11.650985250000000,0,0x00,0x00
11.652408291666667,0,0x00,0x00
11.653854416666666,0,0x00,0x00
11.655277416666667,0,0x00,0x00
11.656723541666667,0,0x00,0x00
11.658146541666667,0,0x00,0x00
11.659592666666667,0,0x00,0x00
11.661015666666666,0,0x00,0x00
11.662461833333333,0,0x00,0x00
11.663884791666666,0,0x00,0x00
11.665330958333334,0,0x00,0x00
11.666753916666666,0,0x00,0x00
11.668200083333334,0,0x00,0x00
11.669623083333333,0,0x00,0x00
11.671069250000000,0,0x00,0x00
11.672492208333333,0,0x00,0x00
11.673938375000001,0,0x00,0x00
11.675361333333333,0,0x00,0x00
11.676807541666667,0,0x00,0x00
11.678230458333333,0,0x00,0x00
11.679676666666667,0,0x00,0x00
11.681099583333333,0,0x00,0x00
11.682545791666668,0,0x00,0x00
11.683968708333333,0,0x00,0x00
11.685414958333334,0,0x00,0x00
11.686837875000000,0,0x00,0x00
11.688284083333333,0,0x00,0x00
11.689707000000000,0,0x00,0x00
11.691153249999999,0,0x00,0x00
11.692576125000000,0,0x00,0x00
11.694022374999999,0,0x00,0x00
11.695445250000001,0,0x00,0x00
11.696891500000000,0,0x00,0x00
11.698314375000001,0,0x00,0x00
11.699760666666666,0,0x00,0x00
11.701183500000001,0,0x00,0x00
11.702629791666666,0,0x05,0x00
