Time [s],Packet ID,MOSI,MISO
0.833058291666667,0,0x29,0x12
0.834460791666667,0,0x5E,0x03
8.953580958333333,0,0x00,0x00
8.954958000000000,0,0x5D,0x00
8.956389041666666,0,0x00,0x00
8.957766083333333,0,0x01,0x00
8.959136125000001,0,0x00,0x01
8.960574208333334,0,0xFF,0xFF
8.962005250000001,0,0xFF,0xFF
8.963443291666668,0,0xFF,0xFF
8.964874416666667,0,0xFF,0x80
8.966312458333332,0,0xFF,0xCE
8.967743541666668,0,0xFF,0x80
8.969181583333333,0,0xFF,0xFA
8.970612708333332,0,0xFF,0x85
8.972050708333333,0,0xFF,0xB8
8.973481833333333,0,0xFF,0x87
8.974919833333333,0,0xFF,0xF5
8.976350958333333,0,0xFF,0x8F
8.977788958333333,0,0xFF,0xD4
8.979220124999999,0,0xFF,0x8F
8.980658083333333,0,0xFF,0xB7
8.982089250000000,0,0xFF,0xDE
8.983527250000000,0,0xFF,0xFF
8.984958375000000,0,0xFF,0xFF
8.986396375000000,0,0xFF,0x00
8.987827541666666,0,0xFF,0x00
8.989265500000000,0,0xFF,0x80
8.990696666666667,0,0xFF,0x00
8.992134625000000,0,0xFF,0x45
8.993565833333333,0,0xFF,0xF8
8.995003750000000,0,0xFF,0x03
8.996434958333333,0,0xFF,0xFC
8.998056041666667,0,0xFF,0xC0
8.999487250000000,0,0xFF,0x07
9.000925166666667,0,0xFF,0x64
9.002356375000000,0,0xFF,0x01
9.003794291666667,0,0xFF,0x3C
9.005225500000000,0,0xFF,0x41
9.006663416666667,0,0xFF,0xFF
9.008094666666667,0,0xFF,0xFF
9.009532541666667,0,0xFF,0x27
9.010963791666667,0,0xFF,0x1F
9.012401666666667,0,0xFF,0x43
9.013832916666667,0,0xFF,0x3F
9.015270791666667,0,0xFF,0x15
9.016702083333334,0,0xFF,0x7F
9.018139958333334,0,0xFF,0x96
9.019571208333334,0,0xFF,0x78
9.021009083333333,0,0xFF,0x93
9.022440375000000,0,0xFF,0x7C
9.023878208333333,0,0xFF,0x83
9.025309500000001,0,0xFF,0x7C
9.026747374999999,0,0xFF,0x90
9.028178625000001,0,0xFF,0x7D
9.029616458333333,0,0xFF,0xFF
9.031047791666667,0,0xFF,0xFF
9.032485625000000,0,0xFF,0xD1
9.033916916666668,0,0xFF,0xE1
9.035354750000000,0,0xFF,0x91
9.036786041666666,0,0xFF,0xE1
9.038223875000000,0,0xFF,0x49
9.039655208333333,0,0xFF,0xF1
9.041093000000000,0,0xFF,0x89
9.042524333333333,0,0xFF,0x71
9.043962125000000,0,0xFF,0x49
9.045393499999999,0,0xFF,0x15
9.046831250000000,0,0xFF,0x9D
9.048262625000000,0,0xFF,0x01
9.049700416666667,0,0xFF,0xB5
9.051131750000000,0,0xFF,0x41
9.052569541666667,0,0xFF,0xAD
9.054000916666666,0,0xFF,0x9E
9.055438666666667,0,0xFF,0x94
9.056870041666667,0,0xFF,0xFF
9.058307791666667,0,0xFF,0x81
9.059739166666667,0,0xFF,0xFE
9.061176916666666,0,0xFF,0xDC
9.062608333333333,0,0xFF,0xFF
9.064046041666666,0,0xFF,0x88
9.065477458333334,0,0xFF,0xFE
9.066915208333333,0,0xFF,0xC5
9.068346625000000,0,0xFF,0xFE
9.069784333333333,0,0xFF,0xD0
9.071215750000000,0,0xFF,0xEE
9.072653458333333,0,0xFF,0xD4
9.074084875000000,0,0xFF,0xFE
9.075522583333333,0,0xFF,0xF7
9.076954041666667,0,0xFF,0x00
9.078391708333333,0,0xFF,0x92
9.079823166666667,0,0xFF,0x65
9.081321875000000,0,0xFF,0xFF
9.082753374999999,0,0xFF,0x00
9.084191041666667,0,0xFF,0x8C
9.085622499999999,0,0xFF,0x73
9.087060125000001,0,0xFF,0x56
9.088491625000000,0,0xFF,0x28
9.089929291666667,0,0xFF,0x7D
9.091360791666666,0,0xFF,0x00
9.092798416666668,0,0xFF,0x74
9.094229916666666,0,0xFF,0x00
9.095667541666666,0,0xFF,0x0B
9.097099041666667,0,0xFF,0x74
9.098536666666666,0,0xFF,0x44
9.099968208333333,0,0xFF,0x39
9.101405791666666,0,0xFF,0x82
9.102837333333333,0,0xFF,0x7D
9.104274916666666,0,0xFF,0x39
9.105706500000000,0,0xFF,0x06
9.107144083333333,0,0xFF,0x1C
9.108575625000000,0,0xFF,0x07
9.110013208333333,0,0xFF,0x09
9.111444750000000,0,0xFF,0x06
9.112882333333333,0,0xFF,0x10
9.114313916666667,0,0xFF,0x07
9.115751458333333,0,0xFF,0x01
9.117183041666667,0,0xFF,0x06
9.118620583333334,0,0xFF,0x50
9.120052166666667,0,0xFF,0x07
9.121489708333334,0,0xFF,0x69
9.122921333333334,0,0xFF,0x01
9.124358875000000,0,0xFF,0x25
9.125790458333332,0,0xFF,0x01
9.127228000000001,0,0xFF,0xA1
9.128659624999999,0,0xFF,0x01
9.130097125000001,0,0xFF,0x2D
9.131528749999999,0,0xFF,0x11
9.132966250000001,0,0xFF,0x59
9.134397874999999,0,0xFF,0x21
9.135835374999999,0,0xFF,0xF1
9.137267041666666,0,0xFF,0x01
9.138704541666666,0,0xFF,0xE1
9.140136166666666,0,0xFF,0x01
9.141573666666666,0,0xFF,0xD1
9.143005291666666,0,0xFF,0x01
9.144442791666666,0,0xFF,0xB0
9.145874458333333,0,0xFF,0xFE
9.147311916666666,0,0xFF,0xFD
9.148743583333333,0,0xFF,0xFE
9.150181083333333,0,0xFF,0xFA
9.151612750000000,0,0xFF,0xFF
9.153050166666667,0,0xFF,0xF9
9.154481875000000,0,0xFF,0xFF
9.155919333333333,0,0xFF,0xF8
9.157351000000000,0,0xFF,0xFD
9.158788458333333,0,0xFF,0xF2
9.160220166666667,0,0xFF,0xFC
9.161657583333334,0,0xFF,0xF2
9.163089291666667,0,0xFF,0xF8
9.164526708333334,0,0xFF,0xD9
9.165958416666667,0,0xFF,0xF0
9.167395833333334,0,0xFF,0xE7
9.168827583333334,0,0xFF,0x00
9.170265000000001,0,0xFF,0x84
9.171696708333334,0,0xFF,0x01
9.173134083333334,0,0xFF,0x34
9.174565875000001,0,0xFF,0xCB
9.176003208333332,0,0xFF,0x54
9.177434999999999,0,0xFF,0xFF
9.178872374999999,0,0xFF,0x80
9.180304124999999,0,0xFF,0xFF
9.181802541666666,0,0xFF,0x95
9.183234333333333,0,0xFF,0x7F
9.184671666666667,0,0xFF,0x70
9.186103458333333,0,0xFF,0x0F
9.187540791666667,0,0xFF,0x25
9.188972625000000,0,0xFF,0x1B
9.190409916666667,0,0xFF,0x09
9.191841750000000,0,0xFF,0x06
9.193279083333334,0,0xFF,0xE3
9.194710875000000,0,0xFF,0x1C
9.196148208333334,0,0xFF,0xC8
9.197580041666667,0,0xFF,0x30
9.199017333333334,0,0xFF,0x55
9.200449166666667,0,0xFF,0xE0
9.201886458333334,0,0xFF,0x20
9.203318291666667,0,0xFF,0xC0
9.204755583333334,0,0xFF,0x20
9.206187458333334,0,0xFF,0xD0
9.207624708333332,0,0xFF,0x12
9.209056583333334,0,0xFF,0xA0
9.210493874999999,0,0xFF,0xA4
9.211925750000001,0,0xFF,0x10
9.213362999999999,0,0xFF,0x81
9.214794875000001,0,0xFF,0x01
9.216232124999999,0,0xFF,0x41
9.217663999999999,0,0xFF,0x01
9.219101250000000,0,0xFF,0x01
9.220533166666666,0,0xFF,0x01
9.221970375000000,0,0xFF,0x05
9.223402291666666,0,0xFF,0x01
9.224839500000000,0,0xFF,0x01
9.226271416666666,0,0xFF,0x01
9.227708625000000,0,0xFF,0x05
9.229140583333333,0,0xFF,0x01
9.230577791666667,0,0xFF,0x01
9.232009708333333,0,0xFF,0x01
9.233446916666667,0,0xFF,0x55
9.234878875000000,0,0xFF,0x01
9.236316041666667,0,0xFF,0x85
9.237748000000000,0,0xFF,0xF8
9.239185208333334,0,0xFF,0xC5
9.240617125000000,0,0xFF,0xF8
9.242054333333334,0,0xFF,0x8A
9.243486291666667,0,0xFF,0xF0
9.244923458333334,0,0xFF,0xFF
9.246355416666667,0,0xFF,0xFF
9.247792541666668,0,0xFF,0x00
9.249224541666667,0,0xFF,0x00
9.250661708333332,0,0xFF,0x00
9.252093708333334,0,0xFF,0x00
9.253530833333333,0,0xFF,0x00
9.254962833333334,0,0xFF,0x00
9.256399958333333,0,0xFF,0x00
9.257831958333334,0,0xFF,0x00
9.259269083333333,0,0xFF,0x10
9.260701125000001,0,0xFF,0x03
9.262138208333333,0,0xFF,0xF4
9.263570250000001,0,0xFF,0x03
9.265007375000000,0,0xFF,0xF0
9.266439416666667,0,0xFF,0x03
9.267876500000000,0,0xFF,0xFF
9.269308541666666,0,0xFF,0xFF
9.270745625000000,0,0xFF,0x00
9.272177666666666,0,0xFF,0x00
9.273614750000000,0,0xFF,0x00
9.275046833333333,0,0xFF,0x00
9.276483875000000,0,0xFF,0x00
9.277915958333333,0,0xFF,0x00
9.279353000000000,0,0xFF,0x00
9.280785125000000,0,0xFF,0x00
9.282283208333334,0,0xFF,0x90
9.283715291666667,0,0xFF,0x00
9.285152333333333,0,0xFF,0x85
9.286584416666667,0,0xFF,0x00
9.288021458333333,0,0xFF,0x80
9.289453583333334,0,0xFF,0x00
9.290890624999999,0,0xFF,0xFF
9.292322708333334,0,0xFF,0xFF
9.293759708333333,0,0xFF,0x00
9.295191875000000,0,0xFF,0x00
9.296628875000000,0,0xFF,0x00
9.298061000000001,0,0xFF,0x00
9.299498000000000,0,0xFF,0x00
9.300930125000001,0,0xFF,0x00
9.302367125000000,0,0xFF,0x00
9.303799291666667,0,0xFF,0x00
9.305236250000000,0,0xFF,0x01
9.306668416666668,0,0xFF,0x01
9.308105375000000,0,0xFF,0x01
9.309537541666666,0,0xFF,0x01
9.310974500000000,0,0xFF,0x01
9.312406708333333,0,0xFF,0x01
9.313843625000001,0,0xFF,0xFF
9.315275833333333,0,0xFF,0xFF
9.316712750000001,0,0xFF,0x00
9.318144958333333,0,0xFF,0x00
9.319581916666667,0,0xFF,0x00
9.321014125000000,0,0xFF,0x00
9.322451041666667,0,0xFF,0x00
9.323883250000000,0,0xFF,0x00
9.325320166666666,0,0xFF,0x00
9.326752416666666,0,0xFF,0x00
9.328189333333333,0,0xFF,0xFF
9.329621541666667,0,0xFF,0xFF
9.331058416666666,0,0xFF,0xAB
9.332490666666667,0,0xFF,0xD4
9.333927583333333,0,0xFF,0x85
9.335359833333333,0,0xFF,0xF8
9.336796708333333,0,0xFF,0x99
9.338228958333334,0,0xFF,0xE4
9.339665833333333,0,0xFF,0xCF
9.341098125000000,0,0xFF,0x80
9.342534958333333,0,0xFF,0xAB
9.343967250000000,0,0xFF,0xD4
9.345404125000000,0,0xFF,0xBF
9.346836375000001,0,0xFF,0xF0
9.348273250000000,0,0xFF,0xC2
9.349705541666667,0,0xFF,0xFD
9.351142375000000,0,0xFF,0xFF
9.352574666666667,0,0xFF,0xFF
9.354011458333334,0,0xFF,0x7D
9.355443791666668,0,0xFF,0x00
9.356880625000001,0,0xFF,0x10
9.358312958333334,0,0xFF,0x00
9.359749750000001,0,0xFF,0x50
9.361182083333333,0,0xFF,0x00
9.362618875000001,0,0xFF,0x90
9.364051249999999,0,0xFF,0x00
9.365488041666667,0,0xFF,0xED
9.366920374999999,0,0xFF,0x10
9.368357166666666,0,0xFF,0xFF
9.369789500000000,0,0xFF,0x00
9.371226291666666,0,0xFF,0xFD
9.372658666666666,0,0xFF,0x00
9.374095416666666,0,0xFF,0xFF
9.375527791666666,0,0xFF,0xFF
9.376964541666666,0,0xFF,0xD6
9.378396916666667,0,0xFF,0x00
9.379833666666666,0,0xFF,0x02
9.381266083333333,0,0xFF,0x00
9.382763833333334,0,0xFF,0x40
9.384196250000000,0,0xFF,0x00
9.385633000000000,0,0xFF,0x02
9.387065416666667,0,0xFF,0x00
9.388502125000000,0,0xFF,0xD7
9.389934541666667,0,0xFF,0x00
9.391371250000001,0,0xFF,0xFF
9.392803666666667,0,0xFF,0x00
9.394240375000001,0,0xFF,0xD7
9.395672833333334,0,0xFF,0x00
9.397109541666667,0,0xFF,0xFF
9.398541958333333,0,0xFF,0xFF
9.399978624999999,0,0xFF,0x51
9.401411083333333,0,0xFF,0x01
9.402847749999999,0,0xFF,0x01
9.404280249999999,0,0xFF,0x01
9.405716875000000,0,0xFF,0x01
9.407149374999999,0,0xFF,0x01
9.408586041666666,0,0xFF,0x01
9.410018541666666,0,0xFF,0x01
9.411455166666666,0,0xFF,0x41
9.412887666666666,0,0xFF,0x01
9.414324291666667,0,0xFF,0x01
9.415756791666666,0,0xFF,0x01
9.417193416666667,0,0xFF,0x09
9.418625958333333,0,0xFF,0x01
9.420062541666667,0,0xFF,0x9F
9.421495083333333,0,0xFF,0xF0
9.422931708333333,0,0xFF,0xD3
9.424364208333333,0,0xFF,0xFC
9.425800833333334,0,0xFF,0x87
9.427233375000000,0,0xFF,0xF8
9.428669958333334,0,0xFF,0xAA
9.430102500000000,0,0xFF,0xD5
9.431539083333334,0,0xFF,0x83
9.432971666666667,0,0xFF,0xFC
9.434408250000001,0,0xFF,0x82
9.435840791666667,0,0xFF,0xFD
9.437277333333334,0,0xFF,0xBF
9.438709916666667,0,0xFF,0xC0
9.440146500000001,0,0xFF,0xAA
9.441579083333334,0,0xFF,0xD5
9.443015624999999,0,0xFF,0xFA
9.444448208333334,0,0xFF,0x00
9.445884749999999,0,0xFF,0xFD
9.447317333333332,0,0xFF,0x00
9.448753875000000,0,0xFF,0xFE
9.450186499999999,0,0xFF,0x00
9.451623041666666,0,0xFF,0xFF
9.453055624999999,0,0xFF,0x00
9.454492166666666,0,0xFF,0xFF
9.455924791666666,0,0xFF,0x00
9.457361291666667,0,0xFF,0x2B
9.458793916666666,0,0xFF,0xD4
9.460230416666667,0,0xFF,0xFF
9.461663041666666,0,0xFF,0x00
9.463099541666667,0,0xFF,0xAA
9.464532208333333,0,0xFF,0x55
9.465968666666667,0,0xFF,0xC2
9.467401333333333,0,0xFF,0x00
9.468837791666667,0,0xFF,0xD7
9.470270458333333,0,0xFF,0x00
9.471706958333334,0,0xFF,0xC2
9.473139625000000,0,0xFF,0x00
9.474576083333334,0,0xFF,0xB7
9.476008750000000,0,0xFF,0x40
9.477445208333334,0,0xFF,0xFF
9.478877916666667,0,0xFF,0x00
9.480314333333334,0,0xFF,0xBF
9.481747041666667,0,0xFF,0x40
9.483244500000000,0,0xFF,0xE2
9.484677208333334,0,0xFF,0x00
9.486113625000000,0,0xFF,0x3E
9.487546375000001,0,0xFF,0xC1
9.488982750000000,0,0xFF,0x09
9.490415499999999,0,0xFF,0x01
9.491851875000000,0,0xFF,0x09
9.493284666666666,0,0xFF,0x01
9.494721000000000,0,0xFF,0x09
9.496153791666666,0,0xFF,0x01
9.497590166666667,0,0xFF,0x09
9.499022916666666,0,0xFF,0x01
9.500459291666667,0,0xFF,0x09
9.501892083333333,0,0xFF,0x01
9.503328416666667,0,0xFF,0x09
9.504761208333333,0,0xFF,0x01
9.506197541666667,0,0xFF,0x09
9.507630333333333,0,0xFF,0x01
9.509066666666667,0,0xFF,0x5D
9.510499500000000,0,0xFF,0x01
9.511935833333334,0,0xFF,0xFA
9.513368625000000,0,0xFF,0x85
9.514804958333333,0,0xFF,0xA2
9.516237791666667,0,0xFF,0xDD
9.517674083333333,0,0xFF,0x82
9.519106916666667,0,0xFF,0xFD
9.520543208333333,0,0xFF,0xD7
9.521976041666667,0,0xFF,0xFD
9.523412333333333,0,0xFF,0x83
9.524845208333334,0,0xFF,0xFC
9.526281500000000,0,0xFF,0xD7
9.527714333333334,0,0xFF,0xF8
9.529150625000000,0,0xFF,0x8F
9.530583458333334,0,0xFF,0xF0
9.532019750000000,0,0xFF,0xEA
9.533452625000001,0,0xFF,0xF5
9.534888875000000,0,0xFF,0x40
9.536321750000001,0,0xFF,0xFF
9.537758000000000,0,0xFF,0x87
9.539190916666668,0,0xFF,0x7F
9.540627125000000,0,0xFF,0x03
9.542060041666666,0,0xFF,0xFF
9.543496250000000,0,0xFF,0x57
9.544929166666666,0,0xFF,0xFF
9.546365416666667,0,0xFF,0xFF
9.547798333333333,0,0xFF,0x00
9.549234541666667,0,0xFF,0x73
9.550667458333333,0,0xFF,0x04
9.552103666666667,0,0xFF,0xE8
9.553536625000000,0,0xFF,0x00
9.554972791666666,0,0xFF,0xBA
9.556405750000000,0,0xFF,0x45
9.557841916666666,0,0xFF,0x1E
9.559274875000000,0,0xFF,0xE0
9.560711041666666,0,0xFF,0x6B
9.562144041666667,0,0xFF,0xF4
9.563580208333333,0,0xFF,0xCF
9.565013166666667,0,0xFF,0xF0
9.566449333333333,0,0xFF,0xCF
9.567882291666667,0,0xFF,0xF0
9.569318458333333,0,0xFF,0x07
9.570751458333334,0,0xFF,0x00
9.572187583333333,0,0xFF,0x50
9.573620583333334,0,0xFF,0x00
9.575056708333333,0,0xFF,0x30
9.576489708333334,0,0xFF,0x00
9.577925875000000,0,0xFF,0xA2
9.579358875000000,0,0xFF,0x5D
9.580794958333334,0,0xFF,0x09
9.582228000000001,0,0xFF,0x01
9.583725125000001,0,0xFF,0x5D
9.585158208333333,0,0xFF,0x01
9.586594291666668,0,0xFF,0x29
9.588027333333333,0,0xFF,0x11
9.589463416666666,0,0xFF,0x5D
9.590896458333333,0,0xFF,0x31
9.592332541666666,0,0xFF,0x01
9.593765625000000,0,0xFF,0x01
9.595201666666666,0,0xFF,0x61
9.596634750000000,0,0xFF,0x01
9.598070791666666,0,0xFF,0x23
9.599503916666666,0,0xFF,0x01
9.600939958333333,0,0xFF,0xAB
9.602373041666667,0,0xFF,0x55
9.603809083333333,0,0xFF,0xE8
9.605242166666667,0,0xFF,0xFF
9.606678208333333,0,0xFF,0xF5
9.608111333333333,0,0xFF,0xFF
9.609547333333333,0,0xFF,0xE0
9.610980458333334,0,0xFF,0xFF
9.612416458333334,0,0xFF,0xFF
9.613849583333334,0,0xFF,0xFF
9.615285583333334,0,0xFF,0x00
9.616718750000000,0,0xFF,0x00
9.618154750000000,0,0xFF,0x00
9.619587875000001,0,0xFF,0x00
9.621023875000001,0,0xFF,0x00
9.622457041666667,0,0xFF,0x00
9.623893000000001,0,0xFF,0x00
9.625326166666667,0,0xFF,0x00
9.626762125000001,0,0xFF,0x00
9.628195291666668,0,0xFF,0xFF
9.629631249999999,0,0xFF,0x40
9.631064458333332,0,0xFF,0xFF
9.632500374999999,0,0xFF,0x01
9.633933583333333,0,0xFF,0xFE
9.635369541666666,0,0xFF,0xFF
9.636802708333333,0,0xFF,0xFF
9.638238625000000,0,0xFF,0x00
9.639671874999999,0,0xFF,0x00
9.641107791666666,0,0xFF,0x00
9.642541000000000,0,0xFF,0x00
9.643976916666666,0,0xFF,0x00
9.645410166666666,0,0xFF,0x00
9.646846041666667,0,0xFF,0x00
9.648279291666666,0,0xFF,0x00
9.649715208333333,0,0xFF,0xFF
9.651148416666667,0,0xFF,0x00
9.652584333333333,0,0xFF,0xAE
9.654017583333333,0,0xFF,0x51
9.655453458333334,0,0xFF,0xFF
9.656886708333333,0,0xFF,0x00
9.658322583333334,0,0xFF,0xFF
9.659755875000000,0,0xFF,0xFF
9.661191708333334,0,0xFF,0x00
9.662625000000000,0,0xFF,0x00
9.664060833333334,0,0xFF,0x00
9.665494125000000,0,0xFF,0x00
9.666929958333334,0,0xFF,0x00
9.668363291666667,0,0xFF,0x00
9.669799125000001,0,0xFF,0x00
9.671232416666667,0,0xFF,0x00
9.672668249999999,0,0xFF,0xFF
9.674101541666667,0,0xFF,0x01
9.675537374999999,0,0xFF,0xFF
9.676970708333334,0,0xFF,0x01
9.678406499999999,0,0xFF,0xFF
9.679839833333334,0,0xFF,0x01
9.681275625000000,0,0xFF,0xFF
9.682708958333333,0,0xFF,0xFF
9.684144750000000,0,0xFF,0x00
9.685578124999999,0,0xFF,0x00
9.687013875000000,0,0xFF,0x00
9.688447249999999,0,0xFF,0x00
9.689883041666667,0,0xFF,0x00
9.691316416666666,0,0xFF,0x00
9.692752166666667,0,0xFF,0x00
9.694185541666666,0,0xFF,0x00
9.695621291666667,0,0xFF,0xFF
9.697054666666666,0,0xFF,0xFF
9.698490416666667,0,0xFF,0x85
9.699923833333333,0,0xFF,0xBF
9.701359541666667,0,0xFF,0x80
9.702792958333333,0,0xFF,0x9F
9.704228666666667,0,0xFF,0x85
9.705662083333333,0,0xFF,0x9F
9.707097833333334,0,0xFF,0x80
9.708531250000000,0,0xFF,0x9F
9.709966958333334,0,0xFF,0x81
9.711400375000000,0,0xFF,0x9F
9.712836083333332,0,0xFF,0x90
9.714269541666667,0,0xFF,0x8F
9.715705208333333,0,0xFF,0x81
9.717138666666667,0,0xFF,0x9F
9.718574333333333,0,0xFF,0xFF
9.720007791666667,0,0xFF,0xFF
9.721443458333333,0,0xFF,0xB0
9.722876958333334,0,0xFF,0x40
9.724312625000000,0,0xFF,0x10
9.725746083333334,0,0xFF,0xE0
9.727181750000000,0,0xFF,0x30
9.728615250000001,0,0xFF,0xC0
9.730050875000000,0,0xFF,0x20
9.731484375000001,0,0xFF,0xC0
9.732920000000000,0,0xFF,0x20
9.734353499999999,0,0xFF,0xC0
9.735789125000000,0,0xFF,0x40
9.737222666666666,0,0xFF,0x80
9.738658250000000,0,0xFF,0x00
9.740091791666666,0,0xFF,0xC0
9.741527416666667,0,0xFF,0xFF
9.742960916666666,0,0xFF,0xFF
9.744396500000001,0,0xFF,0x18
9.745830083333333,0,0xFF,0x07
9.747265666666667,0,0xFF,0x0C
9.748699208333333,0,0xFF,0x03
9.750134791666667,0,0xFF,0x02
9.751568333333333,0,0xFF,0x05
9.753003916666668,0,0xFF,0x06
9.754437500000000,0,0xFF,0x01
9.755873041666666,0,0xFF,0x06
9.757306625000000,0,0xFF,0x01
9.758742166666666,0,0xFF,0x02
9.760175791666667,0,0xFF,0x01
9.761611291666666,0,0xFF,0x06
9.763044916666667,0,0xFF,0x01
9.764480458333333,0,0xFF,0xFF
9.765914041666667,0,0xFF,0xFF
9.767349583333333,0,0xFF,0x47
9.768783208333334,0,0xFF,0xF9
9.770218708333333,0,0xFF,0x03
9.771652333333334,0,0xFF,0xF1
9.773087833333333,0,0xFF,0x5D
9.774521500000001,0,0xFF,0xF1
9.775956958333333,0,0xFF,0x0D
9.777390625000001,0,0xFF,0xF1
9.778826083333334,0,0xFF,0x4D
9.780259750000001,0,0xFF,0xF1
9.781695208333334,0,0xFF,0x09
9.783128916666668,0,0xFF,0xF1
9.784625416666668,0,0xFF,0x4D
9.786059083333333,0,0xFF,0xF1
9.787494541666666,0,0xFF,0x90
9.788928208333333,0,0xFF,0x8F
9.790363666666666,0,0xFF,0x81
9.791797375000000,0,0xFF,0x9F
9.793232791666666,0,0xFF,0x80
9.794666500000000,0,0xFF,0x9F
9.796101958333333,0,0xFF,0xEB
9.797535666666667,0,0xFF,0x94
9.798971083333333,0,0xFF,0xEF
9.800404791666667,0,0xFF,0x90
9.801840208333333,0,0xFF,0xC0
9.803273916666667,0,0xFF,0xFF
9.804709333333333,0,0xFF,0x80
9.806143083333334,0,0xFF,0xFF
9.807578458333333,0,0xFF,0xD5
9.809012208333334,0,0xFF,0xFF
9.810447583333334,0,0xFF,0x40
9.811881375000000,0,0xFF,0x80
9.813316750000000,0,0xFF,0x00
9.814750500000001,0,0xFF,0xC0
9.816185875000000,0,0xFF,0x60
9.817619625000001,0,0xFF,0x80
9.819055000000001,0,0xFF,0xB0
9.820488791666667,0,0xFF,0x40
9.821924125000001,0,0xFF,0xF0
9.823357916666666,0,0xFF,0x00
9.824793250000001,0,0xFF,0x10
9.826227041666666,0,0xFF,0xE0
9.827662374999999,0,0xFF,0x20
9.829096208333333,0,0xFF,0xC0
9.830531541666666,0,0xFF,0x30
9.831965333333333,0,0xFF,0xC0
9.833400666666666,0,0xFF,0x03
9.834834458333333,0,0xFF,0x00
9.836269791666666,0,0xFF,0x06
9.837703625000000,0,0xFF,0x01
9.839138916666666,0,0xFF,0x05
9.840572750000000,0,0xFF,0x02
9.842008041666666,0,0xFF,0x03
9.843441916666666,0,0xFF,0x04
9.844877166666667,0,0xFF,0x07
9.846311041666667,0,0xFF,0x00
9.847746291666667,0,0xFF,0x00
9.849180166666667,0,0xFF,0x07
9.850615416666667,0,0xFF,0x04
9.852049333333333,0,0xFF,0x03
9.853484583333334,0,0xFF,0x07
9.854918458333334,0,0xFF,0x01
9.856353708333334,0,0xFF,0x09
9.857787583333334,0,0xFF,0xF1
9.859222833333334,0,0xFF,0x4D
9.860656750000000,0,0xFF,0xF1
9.862091958333334,0,0xFF,0x09
9.863525875000001,0,0xFF,0xF1
9.864961083333334,0,0xFF,0xDD
9.866395041666667,0,0xFF,0x21
9.867830208333332,0,0xFF,0x7F
9.869264166666667,0,0xFF,0x81
9.870699333333333,0,0xFF,0x09
9.872133291666668,0,0xFF,0xF7
9.873568499999999,0,0xFF,0x01
9.875002458333332,0,0xFF,0xFF
9.876437624999999,0,0xFF,0x45
9.877871583333333,0,0xFF,0xFF
9.879306750000000,0,0xFF,0x84
9.880740708333333,0,0xFF,0xFF
9.882175875000000,0,0xFF,0xD5
9.883609874999999,0,0xFF,0xFF
9.885106083333334,0,0xFF,0x90
9.886540041666667,0,0xFF,0xFF
9.887975208333334,0,0xFF,0xD5
9.889409208333333,0,0xFF,0xFF
9.890844333333334,0,0xFF,0xA5
9.892278333333334,0,0xFF,0xDF
9.893713458333334,0,0xFF,0xFD
9.895147458333334,0,0xFF,0xFF
9.896582583333334,0,0xFF,0xFF
9.898016625000000,0,0xFF,0xFF
9.899451708333334,0,0xFF,0xFF
9.900885750000000,0,0xFF,0xFF
9.902320833333333,0,0xFF,0x30
9.903754916666667,0,0xFF,0xC0
9.905189999999999,0,0xFF,0x30
9.906624041666667,0,0xFF,0xC0
9.908059124999999,0,0xFF,0x10
9.909493166666667,0,0xFF,0xE0
9.910928250000000,0,0xFF,0x40
9.912362333333334,0,0xFF,0xF0
9.913797416666666,0,0xFF,0x88
9.915231458333333,0,0xFF,0xF0
9.916666541666666,0,0xFF,0xD0
9.918100583333333,0,0xFF,0xFF
9.919535666666667,0,0xFF,0xE0
9.920969749999999,0,0xFF,0xFF
9.922404791666667,0,0xFF,0xF7
9.923838875000000,0,0xFF,0xFF
9.925273916666667,0,0xFF,0x06
9.926708041666666,0,0xFF,0x01
9.928143041666667,0,0xFF,0x00
9.929577166666666,0,0xFF,0x07
9.931012166666667,0,0xFF,0x00
9.932446291666666,0,0xFF,0x07
9.933881291666667,0,0xFF,0x09
9.935315458333333,0,0xFF,0x07
9.936750416666667,0,0xFF,0x08
9.938184583333333,0,0xFF,0x07
9.939619541666668,0,0xFF,0x15
9.941053708333333,0,0xFF,0xFF
9.942488708333334,0,0xFF,0x37
9.943922875000000,0,0xFF,0xFF
9.945357833333333,0,0xFF,0x5F
9.946792000000000,0,0xFF,0xFF
9.948226958333333,0,0xFF,0x01
9.949661166666667,0,0xFF,0xFF
9.951096083333333,0,0xFF,0x51
9.952530291666667,0,0xFF,0xFF
9.953965208333333,0,0xFF,0x03
9.955399416666667,0,0xFF,0xFF
9.956834375000000,0,0xFF,0xD7
9.958268583333334,0,0xFF,0xFF
9.959703500000000,0,0xFF,0x21
9.961137708333334,0,0xFF,0xFF
9.962572625000000,0,0xFF,0x7D
9.964006833333332,0,0xFF,0xFF
9.965441750000000,0,0xFF,0xFB
9.966875999999999,0,0xFF,0xFF
9.968310875000000,0,0xFF,0xFF
9.969745124999999,0,0xFF,0xFF
9.971180000000000,0,0xFF,0xFF
9.972614291666666,0,0xFF,0xFF
9.974049166666667,0,0xFF,0xFF
9.975483416666666,0,0xFF,0xFF
9.976918291666667,0,0xFF,0xFF
9.978352541666666,0,0xFF,0xFF
9.979787416666667,0,0xFF,0xFF
9.981221708333333,0,0xFF,0xFF
9.982656541666667,0,0xFF,0x00
9.984090833333333,0,0xFF,0x00
9.985586708333333,0,0xFF,0x00
9.987021041666667,0,0xFF,0x00
9.988455833333333,0,0xFF,0x00
9.989890166666667,0,0xFF,0x00
9.991325000000000,0,0xFF,0x00
9.992759291666667,0,0xFF,0x00
9.994194125000000,0,0xFF,0xFF
9.995628458333334,0,0xFF,0xFF
9.997063250000000,0,0xFF,0xFF
9.998497583333334,0,0xFF,0xFF
9.999932375000000,0,0xFF,0xFF
10.001366708333334,0,0xFF,0xFF
10.002801500000000,0,0xFF,0xFF
10.004235874999999,0,0xFF,0xFF
10.005670625000000,0,0xFF,0x00
10.007104999999999,0,0xFF,0x00
10.008539791666667,0,0xFF,0x00
10.009974166666666,0,0xFF,0x00
10.011408916666667,0,0xFF,0x00
10.012843291666666,0,0xFF,0x00
10.014278041666667,0,0xFF,0x00
10.015712416666666,0,0xFF,0x00
10.017147166666666,0,0xFF,0xFF
10.018581583333333,0,0xFF,0xFF
10.020016291666666,0,0xFF,0xFF
10.021450708333333,0,0xFF,0xFF
10.022885416666666,0,0xFF,0xFF
10.024319833333333,0,0xFF,0xFF
10.025754583333333,0,0xFF,0xFF
10.027189000000000,0,0xFF,0xFF
10.028623666666666,0,0xFF,0x00
10.030058125000000,0,0xFF,0x00
10.031492833333333,0,0xFF,0x00
10.032927291666667,0,0xFF,0x00
10.034361958333333,0,0xFF,0x00
10.035796416666667,0,0xFF,0x00
10.037231083333333,0,0xFF,0x00
10.038665541666667,0,0xFF,0x00
10.040100250000000,0,0xFF,0xFF
10.041534708333334,0,0xFF,0xFF
10.042969375000000,0,0xFF,0xFF
10.044403833333334,0,0xFF,0xFF
10.045838500000000,0,0xFF,0xFF
10.047272958333334,0,0xFF,0xFF
10.048707625000000,0,0xFF,0xFF
10.050142125000001,0,0xFF,0xFF
10.051576750000001,0,0xFF,0x00
10.053011250000001,0,0xFF,0x00
10.054445875000001,0,0xFF,0x00
10.055880416666668,0,0xFF,0x00
10.057314999999999,0,0xFF,0x00
10.058749541666666,0,0xFF,0x00
10.060184124999999,0,0xFF,0x00
10.061618666666666,0,0xFF,0x00
10.063053291666666,0,0xFF,0xFF
10.064487833333333,0,0xFF,0xFF
10.065922416666666,0,0xFF,0xFF
10.067356958333333,0,0xFF,0xFF
10.068791541666666,0,0xFF,0xFF
10.070226083333333,0,0xFF,0xFF
10.071660666666666,0,0xFF,0xFF
10.073095250000000,0,0xFF,0xFF
10.074529791666667,0,0xFF,0xFF
10.075964375000000,0,0xFF,0xFF
10.077398916666667,0,0xFF,0xFF
10.078833541666667,0,0xFF,0xFF
10.080268083333333,0,0xFF,0xFF
10.081702666666667,0,0xFF,0xFF
10.083137208333333,0,0xFF,0xDF
10.084571791666667,0,0xFF,0xFF
10.086067375000001,0,0xFF,0xFF
10.087502000000001,0,0xFF,0xFF
10.088936500000001,0,0xFF,0xFF
10.090371125000001,0,0xFF,0xFF
10.091805624999999,0,0xFF,0xFF
10.093240291666667,0,0xFF,0xFF
10.094674749999999,0,0xFF,0xFF
10.096109416666666,0,0xFF,0xFF
10.097543916666666,0,0xFF,0xFF
10.098978541666666,0,0xFF,0xFF
10.100413041666666,0,0xFF,0xFF
10.101847708333333,0,0xFF,0xFF
10.103282166666666,0,0xFF,0xFF
10.104716833333333,0,0xFF,0xFF
10.106151291666666,0,0xFF,0xFF
10.107585958333333,0,0xFF,0xFF
10.109020416666667,0,0xFF,0xFF
10.110455125000000,0,0xFF,0xFF
10.111889541666667,0,0xFF,0xFC
10.113324250000000,0,0xFF,0xFF
10.114758708333333,0,0xFF,0xFA
10.116193416666666,0,0xFF,0xFC
10.117627833333334,0,0xFF,0xFC
10.119062541666667,0,0xFF,0xF0
10.120496958333334,0,0xFF,0xEC
10.121931666666667,0,0xFF,0xF0
10.123366083333334,0,0xFF,0xEC
10.124800833333333,0,0xFF,0xF0
10.126235208333334,0,0xFF,0xFC
10.127669958333334,0,0xFF,0xE0
10.129104375000001,0,0xFF,0xE0
10.130539083333334,0,0xFF,0xF0
10.131973500000001,0,0xFF,0xFF
10.133408250000000,0,0xFF,0xFF
10.134842624999999,0,0xFF,0xAF
10.136277375000001,0,0xFF,0x5F
10.137711749999999,0,0xFF,0x03
10.139146500000001,0,0xFF,0x07
10.140580874999999,0,0xFF,0x05
10.142015666666667,0,0xFF,0x03
10.143450000000000,0,0xFF,0x03
10.144884791666666,0,0xFF,0x01
10.146319125000000,0,0xFF,0x1B
10.147753958333332,0,0xFF,0x05
10.149188250000000,0,0xFF,0x01
10.150623083333333,0,0xFF,0x0F
10.152057375000000,0,0xFF,0x07
10.153492208333333,0,0xFF,0x0F
10.154926541666667,0,0xFF,0xFF
10.156361374999999,0,0xFF,0xFF
10.157795666666667,0,0xFF,0xFF
10.159230500000000,0,0xFF,0xFF
10.160664791666667,0,0xFF,0xFF
10.162099666666666,0,0xFF,0xFF
10.163533916666667,0,0xFF,0xFF
10.164968791666666,0,0xFF,0xFF
10.166403041666667,0,0xFF,0xFC
10.167837916666667,0,0xFF,0xFE
10.169272208333334,0,0xFF,0xFA
10.170707083333333,0,0xFF,0xFC
10.172141333333334,0,0xFF,0x80
10.173576208333333,0,0xFF,0xF0
10.175010458333333,0,0xFF,0x80
10.176445333333334,0,0xFF,0xC0
10.177879583333333,0,0xFF,0xFF
10.179314500000000,0,0xFF,0xFF
10.180748708333333,0,0xFF,0xFF
10.182183625000000,0,0xFF,0xFF
10.183617833333333,0,0xFF,0xA7
10.185052791666667,0,0xFF,0xDF
10.186548041666667,0,0xFF,0x83
10.187982958333333,0,0xFF,0x07
10.189417166666667,0,0xFF,0x03
10.190852083333333,0,0xFF,0x01
10.192286291666667,0,0xFF,0x03
10.193721249999999,0,0xFF,0x01
10.195155416666667,0,0xFF,0x01
10.196590375000000,0,0xFF,0x06
10.198024541666667,0,0xFF,0x04
10.199459541666666,0,0xFF,0x0F
10.200893666666667,0,0xFF,0xF0
10.202328666666666,0,0xFF,0xE0
10.203762833333334,0,0xFF,0xF0
10.205197791666667,0,0xFF,0xE0
10.206631958333332,0,0xFF,0xE0
10.208066958333333,0,0xFF,0xE0
10.209501083333333,0,0xFF,0xF4
10.210936083333333,0,0xFF,0xE0
10.212370208333333,0,0xFF,0x80
10.213805208333333,0,0xFF,0xE0
10.215239333333333,0,0xFF,0x34
10.216674375000000,0,0xFF,0xE0
10.218108500000000,0,0xFF,0xD0
10.219543500000000,0,0xFF,0xA0
10.220977625000000,0,0xFF,0xE4
10.222412666666667,0,0xFF,0xA0
10.223846750000000,0,0xFF,0x03
10.225281791666667,0,0xFF,0x0F
10.226715875000000,0,0xFF,0x19
10.228150916666667,0,0xFF,0x07
10.229585000000000,0,0xFF,0x09
10.231020083333334,0,0xFF,0x01
10.232454125000000,0,0xFF,0x01
10.233889208333334,0,0xFF,0x0D
10.235323250000000,0,0xFF,0x07
10.236758333333333,0,0xFF,0x01
10.238192375000001,0,0xFF,0x15
10.239627499999999,0,0xFF,0x0F
10.241061500000001,0,0xFF,0x09
10.242496624999999,0,0xFF,0x07
10.243930666666667,0,0xFF,0x5D
10.245365749999999,0,0xFF,0x07
10.246799791666668,0,0xFF,0x80
10.248234916666666,0,0xFF,0x82
10.249668916666666,0,0xFF,0x82
10.251104041666666,0,0xFF,0x90
10.252538083333333,0,0xFF,0x92
10.253973208333333,0,0xFF,0x80
10.255407208333333,0,0xFF,0x82
10.256842333333333,0,0xFF,0x80
10.258276333333333,0,0xFF,0xA2
10.259711458333333,0,0xFF,0x80
10.261145458333333,0,0xFF,0xA2
10.262580625000000,0,0xFF,0x90
10.264014583333333,0,0xFF,0x80
10.265449750000000,0,0xFF,0x80
10.266883708333333,0,0xFF,0x90
10.268318916666667,0,0xFF,0x80
10.269752833333333,0,0xFF,0x09
10.271188041666667,0,0xFF,0x06
10.272621958333334,0,0xFF,0x04
10.274057166666667,0,0xFF,0x03
10.275491083333334,0,0xFF,0x09
10.276926333333334,0,0xFF,0x02
10.278360250000000,0,0xFF,0x00
10.279795458333334,0,0xFF,0x0F
10.281229375000001,0,0xFF,0x0D
10.282664583333334,0,0xFF,0x02
10.284098500000001,0,0xFF,0x00
10.285533750000001,0,0xFF,0x0F
10.287028666666666,0,0xFF,0x0C
10.288463916666666,0,0xFF,0x03
10.289897791666666,0,0xFF,0x01
10.291333083333333,0,0xFF,0x03
10.292766916666666,0,0xFF,0x50
10.294202208333333,0,0xFF,0xA0
10.295636083333333,0,0xFF,0xB4
10.297071333333333,0,0xFF,0xE0
10.298505208333333,0,0xFF,0xE0
10.299940500000000,0,0xFF,0xA0
10.301374333333333,0,0xFF,0xB4
10.302809625000000,0,0xFF,0xE0
10.304243500000000,0,0xFF,0xC0
10.305678750000000,0,0xFF,0xA0
10.307112625000000,0,0xFF,0xB0
10.308547916666667,0,0xFF,0xE0
10.309981750000000,0,0xFF,0xE0
10.311417041666667,0,0xFF,0xB0
10.312850875000001,0,0xFF,0x38
10.314286208333334,0,0xFF,0xF0
10.315720000000001,0,0xFF,0x09
10.317155333333334,0,0xFF,0x07
10.318589125000001,0,0xFF,0x05
10.320024458333334,0,0xFF,0x07
10.321458249999999,0,0xFF,0x01
10.322893625000001,0,0xFF,0x01
10.324327374999999,0,0xFF,0x01
10.325762750000001,0,0xFF,0x01
10.327196499999999,0,0xFF,0x01
10.328631874999999,0,0xFF,0x01
10.330065625000000,0,0xFF,0x01
10.331501041666666,0,0xFF,0x01
10.332934791666666,0,0xFF,0x01
10.334370166666666,0,0xFF,0x01
10.335803916666666,0,0xFF,0x05
10.337239333333333,0,0xFF,0x03
10.338673041666667,0,0xFF,0x95
10.340108458333333,0,0xFF,0x9A
10.341542208333333,0,0xFF,0xF5
10.342977583333333,0,0xFF,0x9F
10.344411333333333,0,0xFF,0xD8
10.345846750000000,0,0xFF,0xBF
10.347280458333334,0,0xFF,0xFF
10.348715875000000,0,0xFF,0xFF
10.350149583333334,0,0xFF,0x00
10.351585041666667,0,0xFF,0x00
10.353018708333334,0,0xFF,0x00
10.354454166666667,0,0xFF,0x00
10.355887833333334,0,0xFF,0x00
10.357323291666667,0,0xFF,0x00
10.358756958333334,0,0xFF,0x00
10.360192458333334,0,0xFF,0x00
10.361626083333332,0,0xFF,0x04
10.363061583333334,0,0xFF,0x03
10.364495208333333,0,0xFF,0x27
10.365930708333334,0,0xFF,0xDF
10.367364374999999,0,0xFF,0x02
10.368799875000001,0,0xFF,0xFF
10.370233499999999,0,0xFF,0xFF
10.371669000000001,0,0xFF,0xFF
10.373102625000000,0,0xFF,0x00
10.374538125000001,0,0xFF,0x00
10.375971750000000,0,0xFF,0x00
10.377407291666668,0,0xFF,0x00
10.378840875000000,0,0xFF,0x00
10.380276416666666,0,0xFF,0x00
10.381710041666667,0,0xFF,0x00
10.383145583333333,0,0xFF,0x00
10.384579166666667,0,0xFF,0x25
10.386014708333333,0,0xFF,0xFE
10.387509333333334,0,0xFF,0xF5
10.388944875000000,0,0xFF,0xFF
10.390378458333334,0,0xFF,0xB4
10.391814041666667,0,0xFF,0xFF
10.393247583333334,0,0xFF,0xFF
10.394683166666667,0,0xFF,0xFF
10.396116708333333,0,0xFF,0x00
10.397552333333334,0,0xFF,0x00
10.398985874999999,0,0xFF,0x00
10.400421458333334,0,0xFF,0x00
10.401854999999999,0,0xFF,0x00
10.403290583333334,0,0xFF,0x00
10.404724125000000,0,0xFF,0x00
10.406159750000000,0,0xFF,0x00
10.407593250000000,0,0xFF,0x07
10.409028875000001,0,0xFF,0xFF
10.410462375000000,0,0xFF,0xFF
10.411898000000001,0,0xFF,0xFF
10.413331500000000,0,0xFF,0xFF
10.414767166666667,0,0xFF,0xFF
10.416200666666667,0,0xFF,0xFF
10.417636291666666,0,0xFF,0xFF
10.419069750000000,0,0xFF,0x00
10.420505458333333,0,0xFF,0x00
10.421938916666667,0,0xFF,0x00
10.423374583333333,0,0xFF,0x00
10.424808041666667,0,0xFF,0x00
10.426243708333333,0,0xFF,0x00
10.427677166666667,0,0xFF,0x00
10.429112875000000,0,0xFF,0x00
10.430546333333334,0,0xFF,0xFF
10.431982000000000,0,0xFF,0xFF
10.433415458333334,0,0xFF,0xFF
10.434851125000000,0,0xFF,0xFF
10.436284583333334,0,0xFF,0xFF
10.437720291666666,0,0xFF,0xFF
10.439153708333333,0,0xFF,0xFD
10.440589416666667,0,0xFF,0xFF
10.442022833333333,0,0xFF,0xE0
10.443458583333333,0,0xFF,0xF0
10.444891958333333,0,0xFF,0xE5
10.446327708333333,0,0xFF,0xF0
10.447761125000000,0,0xFF,0xF0
10.449196833333334,0,0xFF,0xE0
10.450630250000000,0,0xFF,0xEC
10.452066000000000,0,0xFF,0xF0
10.453499375000000,0,0xFF,0xFF
10.454935125000000,0,0xFF,0xFF
10.456368500000000,0,0xFF,0xD1
10.457804250000001,0,0xFF,0xFE
10.459237625000000,0,0xFF,0xC7
10.460673416666667,0,0xFF,0xF8
10.462106750000000,0,0xFF,0xC3
10.463542541666667,0,0xFF,0xFC
10.464975916666667,0,0xFF,0x8C
10.466411708333334,0,0xFF,0x70
10.467845000000001,0,0xFF,0x41
10.469280833333332,0,0xFF,0x00
10.470714166666667,0,0xFF,0x02
10.472149958333333,0,0xFF,0x00
10.473583291666667,0,0xFF,0x00
10.475019124999999,0,0xFF,0x01
10.476452416666667,0,0xFF,0xFF
10.477888249999999,0,0xFF,0xFF
10.479321541666666,0,0xFF,0xBE
10.480757375000000,0,0xFF,0x44
10.482190708333333,0,0xFF,0xD0
10.483626541666666,0,0xFF,0x20
10.485059791666666,0,0xFF,0x15
10.486495666666666,0,0xFF,0x40
10.487928958333333,0,0xFF,0x41
10.489364833333333,0,0xFF,0x00
10.490798083333333,0,0xFF,0x15
10.492233958333333,0,0xFF,0x00
10.493667208333333,0,0xFF,0x07
10.495103083333333,0,0xFF,0x08
10.496536333333333,0,0xFF,0x28
10.497972250000000,0,0xFF,0xD7
10.499405458333333,0,0xFF,0xFF
10.500841375000000,0,0xFF,0xFF
10.502274583333334,0,0xFF,0x45
10.503710500000000,0,0xFF,0x3F
10.505143708333334,0,0xFF,0x21
10.506579666666667,0,0xFF,0x1F
10.508012875000000,0,0xFF,0xE5
10.509448791666667,0,0xFF,0x1F
10.510882000000001,0,0xFF,0x79
10.512317958333334,0,0xFF,0x07
10.513751125000001,0,0xFF,0x39
10.515187083333334,0,0xFF,0x47
10.516620250000001,0,0xFF,0x39
10.518056208333334,0,0xFF,0xC7
10.519489374999999,0,0xFF,0xFD
10.520925374999999,0,0xFF,0x07
10.522358499999999,0,0xFF,0xE8
10.523794499999999,0,0xFF,0xF0
10.525227666666666,0,0xFF,0xF8
10.526663624999999,0,0xFF,0xF0
10.528096791666666,0,0xFF,0xE0
10.529532791666666,0,0xFF,0xF0
10.530965916666666,0,0xFF,0xF0
10.532401916666666,0,0xFF,0xF0
10.533835041666666,0,0xFF,0xF0
10.535271083333333,0,0xFF,0xF0
10.536704208333333,0,0xFF,0xF0
10.538140208333333,0,0xFF,0xF0
10.539573333333333,0,0xFF,0xE0
10.541009333333333,0,0xFF,0xF0
10.542442458333333,0,0xFF,0xF4
10.543878500000000,0,0xFF,0xF0
10.545311583333334,0,0xFF,0x00
10.546747625000000,0,0xFF,0x00
10.548180708333334,0,0xFF,0x00
10.549616791666667,0,0xFF,0x00
10.551049833333334,0,0xFF,0x00
10.552485916666667,0,0xFF,0x00
10.553918958333334,0,0xFF,0x00
10.555355041666667,0,0xFF,0x00
10.556788083333334,0,0xFF,0x00
10.558224208333334,0,0xFF,0x00
10.559657250000001,0,0xFF,0x00
10.561093333333334,0,0xFF,0x00
10.562526374999999,0,0xFF,0x00
10.563962458333334,0,0xFF,0x00
10.565395499999999,0,0xFF,0x00
10.566831625000001,0,0xFF,0x00
10.568264624999999,0,0xFF,0x00
10.569700750000001,0,0xFF,0x00
10.571133750000000,0,0xFF,0x00
10.572569916666666,0,0xFF,0x00
10.574002875000000,0,0xFF,0x00
10.575439041666666,0,0xFF,0x00
10.576872000000000,0,0xFF,0x00
10.578308166666666,0,0xFF,0x00
10.579741166666667,0,0xFF,0x00
10.581177333333333,0,0xFF,0x00
10.582610291666667,0,0xFF,0x00
10.584046458333333,0,0xFF,0x00
10.585479416666667,0,0xFF,0x00
10.586915583333333,0,0xFF,0x00
10.588409583333334,0,0xFF,0x00
10.589845791666667,0,0xFF,0x01
10.591278708333334,0,0xFF,0xF9
10.592714916666667,0,0xFF,0x07
10.594147833333333,0,0xFF,0x1D
10.595584083333334,0,0xFF,0x7F
10.597016958333333,0,0xFF,0x0B
10.598453208333334,0,0xFF,0x1F
10.599886124999999,0,0xFF,0x17
10.601322333333334,0,0xFF,0x0F
10.602755250000000,0,0xFF,0x17
10.604191500000001,0,0xFF,0x0F
10.605624375000000,0,0xFF,0x57
10.607060625000001,0,0xFF,0x0F
10.608493500000000,0,0xFF,0x17
10.609929749999999,0,0xFF,0x0F
10.611362625000000,0,0xFF,0x67
10.612798916666666,0,0xFF,0x9F
10.614231791666667,0,0xFF,0xE8
10.615668041666666,0,0xFF,0xF0
10.617100916666667,0,0xFF,0xFC
10.618537208333333,0,0xFF,0xF1
10.619970041666667,0,0xFF,0xF7
10.621406333333333,0,0xFF,0xF9
10.622839166666667,0,0xFF,0xF1
10.624275458333333,0,0xFF,0xFF
10.625708291666667,0,0xFF,0xFD
10.627144625000000,0,0xFF,0xFE
10.628577458333334,0,0xFF,0xFF
10.630013750000000,0,0xFF,0xFF
10.631446583333334,0,0xFF,0xFF
10.632882875000000,0,0xFF,0xFF
10.634315708333334,0,0xFF,0xFF
10.635752041666667,0,0xFF,0xFF
10.637184833333333,0,0xFF,0x00
10.638621166666667,0,0xFF,0x00
10.640053958333333,0,0xFF,0xD5
10.641490291666667,0,0xFF,0x00
10.642923083333333,0,0xFF,0x00
10.644359458333334,0,0xFF,0x80
10.645792250000000,0,0xFF,0xBC
10.647228583333334,0,0xFF,0xC0
10.648661375000000,0,0xFF,0x0E
10.650097750000000,0,0xFF,0xF0
10.651530500000000,0,0xFF,0x55
10.652966875000001,0,0xFF,0xFF
10.654399625000000,0,0xFF,0xF8
10.655836000000001,0,0xFF,0xFF
10.657268750000000,0,0xFF,0xDF
10.658705166666667,0,0xFF,0xFF
10.660137875000000,0,0xFF,0x01
10.661574291666666,0,0xFF,0x01
10.663007000000000,0,0xFF,0x57
10.664443458333333,0,0xFF,0x01
10.665876125000000,0,0xFF,0x0E
10.667312583333333,0,0xFF,0x01
10.668745250000001,0,0xFF,0x79
10.670181708333333,0,0xFF,0x07
10.671614416666667,0,0xFF,0xA0
10.673050874999999,0,0xFF,0x5F
10.674483541666667,0,0xFF,0x57
10.675920000000000,0,0xFF,0xFF
10.677352666666666,0,0xFF,0xFF
10.678789125000000,0,0xFF,0xFF
10.680221791666666,0,0xFF,0xFF
10.681658291666666,0,0xFF,0xFF
10.683090916666666,0,0xFF,0xE7
10.684527416666667,0,0xFF,0x9F
10.685960083333333,0,0xFF,0x9F
10.687396583333333,0,0xFF,0xFF
10.688890250000000,0,0xFF,0x9F
10.690326750000001,0,0xFF,0x7F
10.691759375000000,0,0xFF,0x7F
10.693195875000001,0,0xFF,0xFF
10.694628500000000,0,0xFF,0xFF
10.696065041666667,0,0xFF,0xFF
10.697497625000000,0,0xFF,0xFF
10.698934166666668,0,0xFF,0xFF
10.700366791666667,0,0xFF,0xFF
10.701803333333332,0,0xFF,0xFF
10.703235916666667,0,0xFF,0xFF
10.704672458333333,0,0xFF,0xFF
10.706105041666667,0,0xFF,0xFF
10.707541583333333,0,0xFF,0xFF
10.708974166666666,0,0xFF,0xFF
10.710410749999999,0,0xFF,0xFF
10.711843291666666,0,0xFF,0xFF
10.713279875000000,0,0xFF,0xFF
10.714712416666666,0,0xFF,0xFF
10.716149000000000,0,0xFF,0xFF
10.717581541666666,0,0xFF,0x00
10.719018166666666,0,0xFF,0x00
10.720450708333333,0,0xFF,0x00
10.721887291666667,0,0xFF,0x00
10.723319833333333,0,0xFF,0x00
10.724756458333333,0,0xFF,0x00
10.726188958333333,0,0xFF,0x00
10.727625583333333,0,0xFF,0x00
10.729058083333333,0,0xFF,0xC3
10.730494708333334,0,0xFF,0x87
10.731927208333333,0,0xFF,0x9B
10.733363875000000,0,0xFF,0xC7
10.734796333333334,0,0xFF,0xC3
10.736233000000000,0,0xFF,0xFF
10.737665500000000,0,0xFF,0xFF
10.739102125000000,0,0xFF,0xFF
10.740534625000000,0,0xFF,0x00
10.741971291666667,0,0xFF,0x00
10.743403750000001,0,0xFF,0x00
10.744840416666667,0,0xFF,0x00
10.746272875000001,0,0xFF,0x00
10.747709583333334,0,0xFF,0x00
10.749142000000001,0,0xFF,0x00
10.750578708333334,0,0xFF,0x00
10.752011166666666,0,0xFF,0xFF
10.753447833333333,0,0xFF,0xFF
10.754880291666666,0,0xFF,0xFF
10.756316999999999,0,0xFF,0xFF
10.757749416666666,0,0xFF,0xDF
10.759186124999999,0,0xFF,0xFF
10.760618541666666,0,0xFF,0xFF
10.762055250000000,0,0xFF,0xFF
10.763487666666666,0,0xFF,0x00
10.764924416666666,0,0xFF,0x00
10.766356791666666,0,0xFF,0x00
10.767793541666666,0,0xFF,0x00
10.769225916666667,0,0xFF,0x00
10.770662708333333,0,0xFF,0x00
10.772095041666667,0,0xFF,0x00
10.773531833333333,0,0xFF,0x00
10.774964208333333,0,0xFF,0xFF
10.776400958333333,0,0xFF,0xFF
10.777833333333334,0,0xFF,0xFF
10.779270125000000,0,0xFF,0xFF
10.780702458333334,0,0xFF,0xFF
10.782139250000000,0,0xFF,0xFF
10.783571583333334,0,0xFF,0xFF
10.785008416666667,0,0xFF,0xFF
10.786440708333334,0,0xFF,0x00
10.787877541666667,0,0xFF,0x00
10.789370916666666,0,0xFF,0x00
10.790807708333332,0,0xFF,0x00
10.792240041666666,0,0xFF,0x00
10.793676874999999,0,0xFF,0x00
10.795109166666666,0,0xFF,0x00
10.796545999999999,0,0xFF,0x00
10.797978291666666,0,0xFF,0xFF
10.799415124999999,0,0xFF,0xFF
10.800847416666667,0,0xFF,0xC0
10.802284291666666,0,0xFF,0xFF
10.803716541666667,0,0xFF,0x83
10.805153416666666,0,0xFF,0xFC
10.806585708333333,0,0xFF,0xAB
10.808022541666666,0,0xFF,0xD4
10.809454833333334,0,0xFF,0xFF
10.810891708333333,0,0xFF,0x80
10.812323958333334,0,0xFF,0xBD
10.813760833333333,0,0xFF,0xC0
10.815193083333334,0,0xFF,0xF8
10.816630000000000,0,0xFF,0x80
10.818062208333334,0,0xFF,0xD5
10.819499125000000,0,0xFF,0x80
10.820931375000001,0,0xFF,0xFF
10.822368250000000,0,0xFF,0xFF
10.823800458333332,0,0xFF,0x2A
10.825237416666667,0,0xFF,0xD5
10.826669624999999,0,0xFF,0xFF
10.828106541666667,0,0xFF,0x00
10.829538749999999,0,0xFF,0xFF
10.830975708333334,0,0xFF,0x00
10.832407874999999,0,0xFF,0xE0
10.833844833333334,0,0xFF,0x00
10.835277000000000,0,0xFF,0x55
10.836713958333334,0,0xFF,0x00
10.838146125000000,0,0xFF,0x00
10.839583125000001,0,0xFF,0x00
10.841015250000000,0,0xFF,0x40
10.842452249999999,0,0xFF,0x00
10.843884416666667,0,0xFF,0xFF
10.845321374999999,0,0xFF,0xFF
10.846753541666667,0,0xFF,0xF0
10.848190541666666,0,0xFF,0x00
10.849622666666667,0,0xFF,0xF3
10.851059666666666,0,0xFF,0x04
10.852491791666667,0,0xFF,0x43
10.853928833333333,0,0xFF,0x34
10.855360916666667,0,0xFF,0x10
10.856797958333333,0,0xFF,0x20
10.858230041666667,0,0xFF,0x43
10.859667083333333,0,0xFF,0x34
10.861099208333334,0,0xFF,0x08
10.862536250000000,0,0xFF,0x30
10.863968333333334,0,0xFF,0x1F
10.865405375000000,0,0xFF,0x30
10.866837458333332,0,0xFF,0xFF
10.868274500000000,0,0xFF,0xFF
10.869706583333333,0,0xFF,0x03
10.871143666666667,0,0xFF,0x01
10.872575708333333,0,0xFF,0xE1
10.874012791666667,0,0xFF,0x01
10.875444833333333,0,0xFF,0xE1
10.876881916666667,0,0xFF,0x01
10.878313958333333,0,0xFF,0x01
10.879751083333334,0,0xFF,0x01
10.881183125000000,0,0xFF,0xA1
10.882620208333334,0,0xFF,0x41
10.884052250000000,0,0xFF,0x01
10.885489375000001,0,0xFF,0x01
10.886921375000000,0,0xFF,0xF5
10.888358500000001,0,0xFF,0x01
10.889851541666667,0,0xFF,0xC0
10.891288708333333,0,0xFF,0x80
10.892720708333334,0,0xFF,0x85
10.894157833333333,0,0xFF,0x80
10.895589833333334,0,0xFF,0xFA
10.897026958333333,0,0xFF,0x81
10.898458958333332,0,0xFF,0xB6
10.899896125000000,0,0xFF,0xC1
10.901328083333333,0,0xFF,0xE7
10.902765250000000,0,0xFF,0x80
10.904197208333333,0,0xFF,0xFC
10.905634375000000,0,0xFF,0xC0
10.907066374999999,0,0xFF,0x9E
10.908503541666667,0,0xFF,0x80
10.909935500000000,0,0xFF,0xB0
10.911372666666667,0,0xFF,0x84
10.912804583333333,0,0xFF,0x00
10.914241833333334,0,0xFF,0x00
10.915673750000000,0,0xFF,0x02
10.917110958333334,0,0xFF,0x00
10.918542875000000,0,0xFF,0x80
10.919980083333334,0,0xFF,0x00
10.921412000000000,0,0xFF,0x44
10.922849250000001,0,0xFF,0x01
10.924281125000000,0,0xFF,0x21
10.925718375000001,0,0xFF,0x00
10.927150250000000,0,0xFF,0x64
10.928587500000001,0,0xFF,0x01
10.930019375000001,0,0xFF,0x61
10.931456666666667,0,0xFF,0x00
10.932888541666667,0,0xFF,0x10
10.934325791666666,0,0xFF,0x41
10.935757625000001,0,0xFF,0x0F
10.937194916666666,0,0xFF,0x30
10.938626791666668,0,0xFF,0x1D
10.940064083333333,0,0xFF,0x30
10.941495916666666,0,0xFF,0x1B
10.942933208333333,0,0xFF,0x30
10.944365083333333,0,0xFF,0xDA
10.945802375000000,0,0xFF,0x35
10.947234166666666,0,0xFF,0x98
10.948671500000000,0,0xFF,0x30
10.950103333333333,0,0xFF,0x5F
10.951540625000000,0,0xFF,0xB0
10.952972458333333,0,0xFF,0x1F
10.954409791666667,0,0xFF,0xB0
10.955841583333333,0,0xFF,0x58
10.957278916666667,0,0xFF,0xB0
10.958710708333333,0,0xFF,0x9D
10.960148041666667,0,0xFF,0x63
10.961579833333333,0,0xFF,0x75
10.963017208333333,0,0xFF,0x01
10.964448958333334,0,0xFF,0xFF
10.965886333333334,0,0xFF,0x01
10.967318083333334,0,0xFF,0x8B
10.968755500000000,0,0xFF,0x75
10.970187250000000,0,0xFF,0xC1
10.971624625000000,0,0xFF,0x01
10.973056375000001,0,0xFF,0xAB
10.974493750000001,0,0xFF,0x55
10.975925500000001,0,0xFF,0x9F
10.977362916666667,0,0xFF,0x61
10.978794625000001,0,0xFF,0x65
10.980232041666667,0,0xFF,0x01
10.981663749999999,0,0xFF,0xA9
10.983101208333334,0,0xFF,0xC0
10.984532916666666,0,0xFF,0xB6
10.985970333333333,0,0xFF,0x81
10.987402041666666,0,0xFF,0xE3
10.988839458333333,0,0xFF,0x80
10.990332208333333,0,0xFF,0x98
10.991769666666666,0,0xFF,0x86
10.993201333333333,0,0xFF,0x84
10.994638791666667,0,0xFF,0x80
10.996070500000000,0,0xFF,0xD4
10.997507958333333,0,0xFF,0x88
10.998939625000000,0,0xFF,0xB0
11.000377083333333,0,0xFF,0xC8
11.001808750000000,0,0xFF,0xE1
11.003246208333334,0,0xFF,0xD0
11.004677875000000,0,0xFF,0x82
11.006115375000000,0,0xFF,0x00
11.007547000000001,0,0xFF,0x72
11.008984500000000,0,0xFF,0x00
11.010416125000001,0,0xFF,0x02
11.011853625000001,0,0xFF,0x00
11.013285249999999,0,0xFF,0x72
11.014722791666667,0,0xFF,0x01
11.016154374999999,0,0xFF,0x03
11.017591916666667,0,0xFF,0x00
11.019023499999999,0,0xFF,0x06
11.020461041666668,0,0xFF,0x41
11.021892625000000,0,0xFF,0x04
11.023330208333334,0,0xFF,0x02
11.024761791666666,0,0xFF,0x87
11.026199333333333,0,0xFF,0x04
11.027630916666666,0,0xFF,0xDF
11.029068499999999,0,0xFF,0x30
11.030500041666667,0,0xFF,0x9A
11.031937624999999,0,0xFF,0x35
11.033369166666667,0,0xFF,0x18
11.034806750000000,0,0xFF,0xB0
11.036238291666667,0,0xFF,0x1A
11.037675916666666,0,0xFF,0xB5
11.039107416666667,0,0xFF,0x3F
11.040545041666666,0,0xFF,0x90
11.041976583333334,0,0xFF,0x5D
11.043414166666667,0,0xFF,0xB0
11.044845708333334,0,0xFF,0x5F
11.046283333333333,0,0xFF,0xB0
11.047714833333334,0,0xFF,0x1D
11.049152458333333,0,0xFF,0xF0
11.050584000000001,0,0xFF,0xF3
11.052021625000000,0,0xFF,0x0D
11.053453083333334,0,0xFF,0xAF
11.054890750000000,0,0xFF,0x51
11.056322208333333,0,0xFF,0x0B
11.057759875000000,0,0xFF,0x01
11.059191333333333,0,0xFF,0x23
11.060629041666667,0,0xFF,0xDD
11.062060499999999,0,0xFF,0xF3
11.063498166666667,0,0xFF,0x01
11.064929625000000,0,0xFF,0xEB
11.066367291666667,0,0xFF,0x15
11.067798750000000,0,0xFF,0x43
11.069236458333334,0,0xFF,0xBD
11.070667875000000,0,0xFF,0x57
11.072105583333334,0,0xFF,0x01
11.073537000000000,0,0xFF,0x80
11.074974750000001,0,0xFF,0x80
11.076406166666667,0,0xFF,0x80
11.077843874999999,0,0xFF,0x81
11.079275291666667,0,0xFF,0xB3
11.080712999999999,0,0xFF,0xC0
11.082144416666667,0,0xFF,0xFF
11.083582166666666,0,0xFF,0xFF
11.085013541666667,0,0xFF,0x00
11.086451291666666,0,0xFF,0x00
11.087882666666667,0,0xFF,0x00
11.089320458333333,0,0xFF,0x00
11.090812874999999,0,0xFF,0x00
11.092250625000000,0,0xFF,0x00
11.093681999999999,0,0xFF,0x00
11.095119750000000,0,0xFF,0x00
11.096551125000000,0,0xFF,0x05
11.097988916666667,0,0xFF,0x00
11.099420250000000,0,0xFF,0x41
11.100858041666667,0,0xFF,0x00
11.102289375000000,0,0xFF,0x01
11.103727166666667,0,0xFF,0x00
11.105158541666666,0,0xFF,0xFF
11.106596333333334,0,0xFF,0xFF
11.108027625000000,0,0xFF,0x00
11.109465458333334,0,0xFF,0x00
11.110896791666667,0,0xFF,0x00
11.112334625000001,0,0xFF,0x00
11.113765916666667,0,0xFF,0x00
11.115203749999999,0,0xFF,0x00
11.116635041666667,0,0xFF,0x00
11.118072874999999,0,0xFF,0x00
11.119504166666667,0,0xFF,0x5F
11.120942041666666,0,0xFF,0xB0
11.122373333333334,0,0xFF,0x9A
11.123811166666666,0,0xFF,0x75
11.125242416666667,0,0xFF,0x1A
11.126680291666666,0,0xFF,0x30
11.128111583333334,0,0xFF,0xFF
11.129549458333333,0,0xFF,0xFF
11.130980666666666,0,0xFF,0x00
11.132418583333333,0,0xFF,0x00
11.133849833333333,0,0xFF,0x00
11.135287750000000,0,0xFF,0x00
11.136718958333333,0,0xFF,0x00
11.138156875000000,0,0xFF,0x00
11.139588083333333,0,0xFF,0x00
11.141026000000000,0,0xFF,0x00
11.142457250000000,0,0xFF,0xC3
11.143895166666667,0,0xFF,0x3D
11.145326375000000,0,0xFF,0xAB
11.146764291666667,0,0xFF,0x55
11.148195500000000,0,0xFF,0xF7
11.149633416666667,0,0xFF,0x01
11.151064625000000,0,0xFF,0xFF
11.152502583333334,0,0xFF,0xFF
11.153933750000000,0,0xFF,0x00
11.155371708333334,0,0xFF,0x00
11.156802875000000,0,0xFF,0x00
11.158240875000001,0,0xFF,0x00
11.159672000000000,0,0xFF,0x00
11.161110000000001,0,0xFF,0x00
11.162541125000001,0,0xFF,0x00
11.163979124999999,0,0xFF,0x00
11.165410291666667,0,0xFF,0xFF
11.166848291666666,0,0xFF,0xFF
11.168279416666667,0,0xFF,0xC0
11.169717416666666,0,0xFF,0xFF
11.171148541666666,0,0xFF,0x83
11.172586583333333,0,0xFF,0xFC
11.174017666666666,0,0xFF,0xAB
11.175455708333333,0,0xFF,0xD4
11.176886833333333,0,0xFF,0xFF
11.178324833333333,0,0xFF,0x80
11.179755958333333,0,0xFF,0xBD
11.181194000000000,0,0xFF,0xC0
11.182625083333333,0,0xFF,0xF8
11.184063125000000,0,0xFF,0x80
11.185494208333333,0,0xFF,0xD5
11.186932250000000,0,0xFF,0x80
11.188363333333333,0,0xFF,0xFF
11.189801416666667,0,0xFF,0xFF
11.191293500000000,0,0xFF,0x2A
11.192731583333334,0,0xFF,0xD5
11.194162625000001,0,0xFF,0xFF
11.195600750000001,0,0xFF,0x00
11.197031791666667,0,0xFF,0xFF
11.198469875000001,0,0xFF,0x00
11.199900916666667,0,0xFF,0xE0
11.201339000000001,0,0xFF,0x00
11.202770041666666,0,0xFF,0x55
11.204208166666668,0,0xFF,0x00
11.205639166666666,0,0xFF,0x00
11.207077291666666,0,0xFF,0x00
11.208508291666666,0,0xFF,0x40
11.209946416666666,0,0xFF,0x00
11.211377458333333,0,0xFF,0xFF
11.212815583333333,0,0xFF,0xFF
11.214246541666666,0,0xFF,0xF0
11.215684708333333,0,0xFF,0x00
11.217115708333333,0,0xFF,0xF3
11.218553875000000,0,0xFF,0x04
11.219984833333333,0,0xFF,0x43
11.221423000000000,0,0xFF,0x34
11.222853958333333,0,0xFF,0x10
11.224292125000000,0,0xFF,0x20
11.225723083333333,0,0xFF,0x43
11.227161291666667,0,0xFF,0x34
11.228592208333334,0,0xFF,0x08
11.230030416666667,0,0xFF,0x30
11.231461333333334,0,0xFF,0x1F
11.232899541666667,0,0xFF,0x30
11.234330500000000,0,0xFF,0xFF
11.235768708333334,0,0xFF,0xFF
11.237199583333334,0,0xFF,0x03
11.238637833333334,0,0xFF,0x01
11.240068750000001,0,0xFF,0xE1
11.241507000000000,0,0xFF,0x01
11.242937875000001,0,0xFF,0xE1
11.244376125000000,0,0xFF,0x01
11.245806999999999,0,0xFF,0x01
11.247245250000001,0,0xFF,0x01
11.248676124999999,0,0xFF,0xA1
11.250114416666667,0,0xFF,0x41
11.251545249999999,0,0xFF,0x01
11.252983541666667,0,0xFF,0x01
11.254414416666666,0,0xFF,0xF5
11.255852666666666,0,0xFF,0x01
11.257283541666666,0,0xFF,0xC0
11.258721833333333,0,0xFF,0x80
11.260152666666666,0,0xFF,0x85
11.261590958333333,0,0xFF,0x80
11.263021791666667,0,0xFF,0xFA
11.264460124999999,0,0xFF,0x81
11.265890916666667,0,0xFF,0xB6
11.267329250000000,0,0xFF,0xC1
11.268760041666667,0,0xFF,0xE7
11.270198375000000,0,0xFF,0x80
11.271629208333334,0,0xFF,0xFC
11.273067541666666,0,0xFF,0xC0
11.274498333333334,0,0xFF,0x9E
11.275936666666666,0,0xFF,0x80
11.277367458333334,0,0xFF,0xB0
11.278805791666667,0,0xFF,0x84
11.280236583333334,0,0xFF,0x00
11.281674958333333,0,0xFF,0x00
11.283105708333334,0,0xFF,0x02
11.284544083333333,0,0xFF,0x00
11.285974875000001,0,0xFF,0x80
11.287413250000000,0,0xFF,0x00
11.288843999999999,0,0xFF,0x44
11.290282375000000,0,0xFF,0x01
11.291713124999999,0,0xFF,0x21
11.293151500000000,0,0xFF,0x00
11.294582249999999,0,0xFF,0x64
11.296020666666667,0,0xFF,0x01
