Time [s],Packet ID,MOSI,MISO
2.087295583333333,,0x12,0x29
2.088670291666667,,0x1D,0x02
10.710452291666666,,0x00,0x00
10.711822958333334,,0x00,0x41
10.713260375000001,,0x00,0x00
10.714631041666667,,0x00,0x01
10.716007416666667,,0x01,0x00
10.717439125000000,,0x00,0xFF
10.718876541666667,,0x05,0xFF
10.720308250000000,,0x01,0xFF
10.721745708333334,,0x05,0xFF
10.723177375000001,,0x02,0xFF
10.724614833333334,,0x05,0xFF
10.726046500000001,,0x00,0xFF
10.727483958333334,,0x05,0xFF
10.728915666666667,,0x03,0xFF
10.730353083333334,,0x05,0xFF
10.731784791666668,,0x04,0xFF
10.733222250000001,,0x05,0xFF
10.734653916666666,,0x00,0xFF
10.736091375000001,,0x05,0xFF
10.737523041666666,,0x05,0xFF
10.738960499999999,,0x05,0xFF
10.740392208333333,,0x06,0xFF
10.741829624999999,,0x05,0xFF
10.743261333333333,,0x05,0xFF
10.744698791666666,,0x05,0xFF
10.746130458333333,,0xFF,0xFF
10.747567916666666,,0x00,0xFF
10.748999583333333,,0xFF,0xFF
10.750437041666666,,0xFF,0xFF
10.751868750000000,,0xFF,0xFF
10.753306166666666,,0xFF,0xFF
10.754921000000000,,0xFF,0xFF
10.756358458333333,,0xFF,0xFF
10.757790125000000,,0xFF,0xFF
10.759227583333333,,0xFF,0xFF
10.760659250000000,,0xFF,0xFF
10.762096708333333,,0xFF,0xFF
10.763528416666666,,0xFF,0xFF
10.764965875000000,,0xFF,0xFF
10.766397541666667,,0xFF,0xFF
10.767835000000000,,0xFF,0xFF
10.769266666666667,,0xFF,0xFF
10.770704125000000,,0xFF,0xFF
10.772135791666667,,0xFF,0xFF
10.773573250000000,,0xFF,0xFF
10.775004958333334,,0xFF,0xFF
10.776442416666667,,0xFF,0xFF
10.777874083333334,,0xFF,0xFF
10.779311541666667,,0xFF,0xFF
10.780743208333334,,0xFF,0xFF
10.782180666666667,,0xFF,0xFF
10.783612333333334,,0xFF,0xFF
10.785049833333334,,0xFF,0xFF
10.786481458333334,,0xFF,0xFF
10.787918958333334,,0x00,0xFF
10.789350625000001,,0x00,0xFF
10.790788083333334,,0x00,0xFF
10.792219749999999,,0x00,0xFF
10.793657208333334,,0x00,0xFF
10.795088874999999,,0x00,0xFF
10.796526374999999,,0x00,0xFF
10.797958000000000,,0x00,0xFF
10.799395499999999,,0x00,0xFF
10.800827166666666,,0x00,0xFF
10.802264624999999,,0x00,0xFF
10.803696291666666,,0x00,0xFF
10.805133750000000,,0x00,0xFF
10.806565416666666,,0x00,0xFF
10.808002916666666,,0x00,0xFF
10.809434541666667,,0x00,0xFF
10.810872041666666,,0x00,0xFF
10.812303708333333,,0x00,0xFF
10.813741166666667,,0x00,0xFF
10.815172833333333,,0x00,0xFF
10.816610291666667,,0x00,0xFF
10.818041958333334,,0x00,0xFF
10.819479458333333,,0x00,0xFF
10.820911083333334,,0x00,0xFF
10.822348583333333,,0x00,0xFF
10.823780208333334,,0x00,0xFF
10.825217708333334,,0x00,0xFF
10.826649375000001,,0x00,0xFF
10.828086833333334,,0x00,0xFF
10.829518500000001,,0x00,0xFF
10.830956000000000,,0x00,0xFF
10.832387625000001,,0x00,0xFF
10.833825125000001,,0x00,0xFF
10.835256749999999,,0x00,0xFF
10.836694250000001,,0x00,0xFF
10.838125874999999,,0x00,0xFF
10.839563374999999,,0x00,0xFF
10.840995041666666,,0x00,0xFF
10.842432541666666,,0x00,0xFF
10.843864166666666,,0x00,0xFF
10.845301666666666,,0x00,0xFF
10.846733291666666,,0x00,0xFF
10.848170791666666,,0x00,0xFF
10.849602416666666,,0x00,0xFF
10.851039916666666,,0x00,0xFF
10.852471583333333,,0x00,0xFF
10.853909083333333,,0x00,0xFF
10.855401750000000,,0x00,0xF5
10.856839250000000,,0x00,0xFF
10.858270875000001,,0x00,0xF2
10.859708375000000,,0x00,0xFF
10.861140000000001,,0x00,0xD5
10.862577541666667,,0x00,0xFF
10.864009166666667,,0x00,0xCA
10.865446666666667,,0x00,0xFF
10.866878291666668,,0x00,0xD5
10.868315791666667,,0x00,0xFF
10.869747416666666,,0x00,0xA0
10.871184916666667,,0x00,0xFF
10.872616541666666,,0x00,0xD5
10.874054083333334,,0x00,0xFF
10.875485708333333,,0x00,0xBF
10.876923208333332,,0x00,0xFF
10.878354833333333,,0x00,0x42
10.879792333333333,,0x00,0xFD
10.881223958333333,,0x00,0x00
10.882661458333333,,0x00,0xFF
10.884093083333333,,0x00,0x68
10.885530624999999,,0x00,0xD7
10.886962208333333,,0x00,0x02
10.888399750000000,,0x00,0xFC
10.889831375000000,,0x00,0x29
10.891268875000000,,0x00,0xD4
10.892700500000000,,0x00,0x02
10.894138000000000,,0x00,0xF8
10.895569625000000,,0x00,0x15
10.897007166666667,,0x00,0xF0
10.898438750000000,,0x00,0x0A
10.899876291666667,,0x00,0xF0
10.901307875000001,,0x00,0x17
10.902745416666667,,0x00,0xC0
10.904177041666667,,0x00,0xBF
10.905614541666667,,0x00,0x00
10.907046166666667,,0x00,0x55
10.908483708333334,,0x00,0x00
10.909915291666668,,0x00,0xFF
10.911352833333334,,0x00,0x00
10.912784416666666,,0x00,0x55
10.914221958333334,,0x00,0x00
10.915653583333333,,0x00,0xBB
10.917091083333334,,0x00,0x00
10.918522708333333,,0x00,0x55
10.919960250000001,,0x00,0x00
10.921391833333333,,0x00,0xAA
10.922829374999999,,0x00,0x00
10.924260958333333,,0x00,0x76
10.925698499999999,,0x00,0x01
10.927130083333333,,0x00,0xFF
10.928567624999999,,0x00,0x00
10.929999250000000,,0x00,0x55
10.931436791666666,,0x00,0x00
10.932868375000000,,0x00,0xFF
10.934305916666666,,0x00,0x00
10.935737500000000,,0x00,0x75
10.937175041666666,,0x00,0x00
10.938606625000000,,0x00,0xBF
10.940044166666667,,0x00,0x00
10.941475791666667,,0x00,0x55
10.942913333333333,,0x00,0x00
10.944344916666667,,0x00,0xFF
10.945782458333333,,0x00,0x00
10.947214041666667,,0x00,0xBF
10.948651583333334,,0x00,0x7F
10.950083166666667,,0x00,0x3F
10.951520708333334,,0x00,0xFF
10.952952333333334,,0x00,0xD5
10.954389875000000,,0x00,0x7F
10.955882500000000,,0x00,0xFE
10.957320041666666,,0x00,0x3F
10.958751625000000,,0x00,0x75
10.960189166666666,,0x00,0x1F
10.961620750000000,,0x00,0xFF
10.963058333333333,,0x00,0x0F
10.964489916666667,,0x00,0x57
10.965927458333333,,0x00,0x0C
10.967359041666667,,0x00,0xEC
10.968796583333333,,0x00,0x00
10.970228166666667,,0x00,0xFF
10.971665708333333,,0x00,0xFF
10.973097291666667,,0x00,0xFF
10.974534875000000,,0x00,0xFF
10.975966416666667,,0x00,0x57
10.977404000000000,,0x00,0xFC
10.978835583333334,,0x00,0xA8
10.980273125000000,,0x00,0xF0
10.981704708333334,,0x00,0x71
10.983142250000000,,0x00,0xC0
10.984573833333334,,0x00,0x00
10.986011416666667,,0x00,0x80
10.987442958333334,,0x00,0x15
10.988880541666667,,0x00,0x00
10.990312125000001,,0x00,0x0A
10.991749666666667,,0x00,0x00
10.993181249999999,,0x00,0xF5
10.994618791666667,,0x00,0xFF
10.996050374999999,,0x00,0xFB
10.997487958333334,,0x00,0x80
10.998919500000000,,0x00,0x45
11.000357083333334,,0x00,0x00
11.001788625000000,,0x00,0x0A
11.003226208333333,,0x00,0x00
11.004657791666666,,0x00,0x55
11.006095333333333,,0x00,0x00
11.007526916666666,,0x00,0x3B
11.008964499999999,,0x00,0x00
11.010396041666667,,0x00,0x55
11.011833625000000,,0x00,0x00
11.013265166666667,,0x00,0xAF
11.014702750000000,,0x00,0x00
11.016134333333333,,0x00,0xFD
11.017571875000000,,0x00,0xFF
11.019003458333334,,0x00,0x7F
11.020441041666666,,0x00,0xFF
11.021872583333334,,0x00,0xBD
11.023310166666667,,0x00,0x7F
11.024741708333334,,0x00,0xDE
11.026179291666667,,0x00,0x3F
11.027610833333334,,0x00,0x6F
11.029048416666667,,0x00,0x1F
11.030480000000001,,0x00,0xFE
11.031917583333334,,0x00,0x0F
11.033349125000001,,0x00,0x5D
11.034786708333334,,0x00,0x0F
11.036218249999999,,0x00,0xFE
11.037655833333334,,0x00,0x0F
11.039087374999999,,0x00,0x57
11.040524958333334,,0x00,0xFF
11.041956541666666,,0x00,0x3B
11.043394125000001,,0x00,0xFF
11.044825666666666,,0x00,0x55
11.046263250000001,,0x00,0xFF
11.047694791666666,,0x00,0xAE
11.049132374999999,,0x00,0xFF
11.050563916666666,,0x00,0x75
11.052001499999999,,0x00,0xFF
11.053433041666667,,0x00,0xEA
11.054870666666666,,0x00,0xFF
11.056363250000000,,0x00,0x55
11.057800833333333,,0x00,0xFF
11.059232375000001,,0x00,0xEA
11.060669958333333,,0x00,0xFF
11.062101500000001,,0x00,0xD5
11.063539125000000,,0x00,0xFF
11.064970625000001,,0x00,0xFF
11.066408250000000,,0x00,0xFF
11.067839791666668,,0x00,0xD5
11.069277375000000,,0x00,0xFF
11.070708916666666,,0x00,0xEF
11.072146500000001,,0x00,0xFF
11.073578041666666,,0x00,0x55
11.075015666666667,,0x00,0xFF
11.076447166666666,,0x00,0xBF
11.077884791666667,,0x00,0xFF
11.079316333333333,,0x00,0x55
11.080753916666668,,0x00,0xFF
11.082185458333333,,0x00,0xFF
11.083623041666666,,0x00,0xFF
11.085054583333333,,0x00,0xFF
11.086492208333333,,0x00,0xFF
11.087923708333333,,0x00,0xFF
11.089361333333333,,0x00,0xFF
11.090792833333333,,0x00,0xFF
11.092230458333333,,0x00,0xFF
11.093662000000000,,0x00,0xFF
11.095099583333333,,0x00,0xFF
11.096531125000000,,0x00,0xFF
11.097968750000000,,0x00,0xFF
11.099400250000000,,0x00,0xFF
11.100837875000000,,0x00,0xFF
11.102269375000001,,0x00,0xFF
11.103707000000000,,0x00,0xFF
11.105138541666667,,0x00,0xFF
11.106576125000000,,0x00,0xFF
11.108007666666667,,0x00,0xFF
11.109445291666667,,0x00,0xFF
11.110876791666668,,0x00,0xFF
11.112314416666667,,0x00,0xFF
11.113745916666666,,0x00,0xFF
11.115183541666667,,0x00,0xFF
11.116615083333333,,0x00,0xFF
11.118052666666667,,0x00,0xFF
11.119484208333333,,0x00,0xFF
11.120921833333334,,0x00,0xFF
11.122353333333333,,0x00,0xFF
11.123790958333334,,0x00,0xFF
11.125222458333333,,0x00,0xFF
11.126660083333332,,0x00,0xFF
11.128091583333333,,0x00,0xFF
11.129529208333333,,0x00,0xFF
11.130960750000000,,0x00,0xFF
11.132398374999999,,0x00,0xFF
11.133829875000000,,0x00,0xFF
11.135267499999999,,0x00,0xFF
11.136699000000000,,0x00,0xFF
11.138136625000000,,0x00,0xFF
11.139568125000000,,0x00,0xFD
11.141005750000000,,0x00,0xFE
11.142437291666667,,0x00,0xFD
11.143874916666666,,0x00,0xF8
11.145306416666667,,0x00,0xF2
11.146744041666667,,0x00,0xF0
11.148175541666667,,0x00,0xF5
11.149613166666667,,0x00,0xE0
11.151044666666667,,0x00,0xCA
11.152482291666667,,0x00,0xE0
11.153913791666668,,0x00,0xFF
11.155351458333334,,0x00,0xFF
11.156782958333334,,0x00,0xFF
11.158220583333334,,0x00,0xFF
11.159652083333333,,0x00,0xDF
11.161089708333334,,0x00,0xFF
11.162521208333333,,0x00,0xAF
11.163958833333334,,0x00,0x00
11.165390333333333,,0x00,0x55
11.166828000000001,,0x00,0x00
11.168259500000000,,0x00,0x22
11.169697125000001,,0x00,0x00
11.171128625000000,,0x00,0x55
11.172566249999999,,0x00,0x00
11.173997750000000,,0x00,0xAF
11.175435374999999,,0x00,0x00
11.176866875000000,,0x00,0xFF
11.178304541666666,,0x00,0xFF
11.179736000000000,,0x00,0xFF
11.181173666666666,,0x00,0xFF
11.182605166666667,,0x00,0xFF
11.184042791666666,,0x00,0xFF
11.185474291666667,,0x00,0x7F
11.186911916666666,,0x00,0xFF
11.188343416666667,,0x00,0x6F
11.189781083333333,,0x00,0x17
11.191212541666667,,0x00,0x0B
11.192650208333333,,0x00,0x00
11.194081666666667,,0x00,0x55
11.195519333333333,,0x00,0x00
11.196950833333334,,0x00,0xE8
11.198388500000000,,0x00,0x00
11.199819958333334,,0x00,0xFF
11.201257625000000,,0x00,0xFF
11.202689083333333,,0x00,0xFF
11.204126750000000,,0x00,0xFF
11.205558208333333,,0x00,0xFF
11.206995875000000,,0x00,0xFF
11.208427374999999,,0x00,0xFF
11.209865041666667,,0x00,0xFF
11.211296500000000,,0x00,0xFF
11.212734166666667,,0x00,0xFF
11.214165625000000,,0x00,0x3F
11.215603291666667,,0x00,0xFF
11.217034750000000,,0x00,0x77
11.218472416666666,,0x00,0x0F
11.219903916666667,,0x00,0x3F
11.221341583333333,,0x00,0x00
11.222773041666667,,0x00,0xD1
11.224210708333333,,0x00,0xFF
11.225642166666667,,0x00,0xB0
11.227079833333333,,0x00,0xFF
11.228511291666667,,0x00,0xD8
11.229948958333333,,0x00,0xF7
11.231380416666667,,0x00,0x80
11.232818125000000,,0x00,0xFF
11.234249583333334,,0x00,0x09
11.235687250000000,,0x00,0xF7
11.237118708333334,,0x00,0x01
11.238556375000000,,0x00,0xFF
11.239987833333334,,0x00,0x82
11.241425500000000,,0x00,0xFD
11.242856958333334,,0x00,0xFE
11.244294666666667,,0x00,0x00
11.245726124999999,,0x00,0x15
11.247163791666667,,0x00,0xE0
11.248595249999999,,0x00,0x13
11.250032916666667,,0x00,0xE0
11.251464374999999,,0x00,0x55
11.252902041666667,,0x00,0xC0
11.254333500000000,,0x00,0x6E
11.255771208333334,,0x00,0xC0
11.257263708333333,,0x00,0x55
11.258701374999999,,0x00,0x80
11.260132833333333,,0x00,0xBA
11.261570499999999,,0x00,0x80
11.263001958333334,,0x00,0x55
11.264439625000000,,0x00,0x00
11.265871083333334,,0x00,0xAA
11.267308791666666,,0x00,0x00
11.268740208333334,,0x00,0x55
11.270177916666666,,0x00,0x00
11.271609375000001,,0x00,0xA3
11.273047041666667,,0x00,0x00
11.274478500000001,,0x00,0x55
11.275916166666667,,0x00,0x00
11.277347625000001,,0x00,0xAF
11.278785333333333,,0x00,0x01
11.280216749999999,,0x00,0x57
11.281654458333334,,0x00,0x03
11.283085874999999,,0x00,0xAF
11.284523583333334,,0x00,0x07
11.285955041666666,,0x00,0x5F
11.287392750000000,,0x00,0x04
11.288824166666666,,0x00,0xAC
11.290261875000001,,0x00,0x0C
11.291693291666666,,0x00,0x55
11.293131000000001,,0x00,0x00
11.294562416666666,,0x00,0xFF
11.296000125000001,,0x00,0x00
11.297431583333333,,0x00,0xA5
11.298869291666668,,0x00,0x50
11.300300708333333,,0x00,0xFA
11.301738416666666,,0x00,0xFC
11.303169833333333,,0x00,0xA5
11.304607541666666,,0x00,0xDE
11.306038958333334,,0x00,0x01
11.307476666666666,,0x00,0x02
11.308908125000000,,0x00,0x55
11.310345833333333,,0x00,0x00
11.311777250000000,,0x00,0x0E
11.313214958333333,,0x00,0x00
11.314646375000001,,0x00,0x55
11.316084083333333,,0x00,0x00
11.317515500000001,,0x00,0xAE
11.318953208333333,,0x00,0x00
11.320384625000001,,0x00,0x55
11.321822375000000,,0x00,0x00
11.323253791666666,,0x00,0xEF
11.324691500000000,,0x00,0x00
11.326122916666666,,0x00,0x57
11.327560625000000,,0x00,0x00
11.328992041666666,,0x00,0xBF
11.330429750000000,,0x00,0x00
11.331861166666666,,0x00,0x7F
11.333298916666667,,0x00,0x00
11.334730333333333,,0x00,0xFF
11.336168041666667,,0x00,0x00
11.337599458333333,,0x00,0x55
11.339037166666667,,0x00,0x00
11.340468583333333,,0x00,0xA3
11.341906291666668,,0x00,0x00
11.343337708333333,,0x00,0x55
11.344775458333332,,0x00,0x00
11.346206833333333,,0x00,0xFE
11.347644583333333,,0x00,0x00
11.349076000000000,,0x00,0x77
11.350513708333333,,0x00,0x00
11.351945125000000,,0x00,0xFF
11.353382833333333,,0x00,0x00
11.354814250000000,,0x00,0xFB
11.356252000000000,,0x00,0x04
11.357744416666666,,0x00,0xFF
11.359182166666667,,0x00,0x00
11.360613583333333,,0x00,0x55
11.362051291666667,,0x00,0x00
11.363482708333333,,0x00,0xBB
11.364920416666667,,0x00,0x00
11.366351833333333,,0x00,0x55
11.367789583333334,,0x00,0x00
11.369220958333333,,0x00,0xAF
11.370658708333334,,0x00,0x00
11.372090125000000,,0x00,0x55
11.373527833333334,,0x00,0x00
11.374959250000000,,0x00,0x82
11.376397000000001,,0x00,0x00
11.377828375000000,,0x00,0x85
11.379266124999999,,0x00,0x40
11.380697500000000,,0x00,0xDF
11.382135249999999,,0x00,0x20
11.383566625000000,,0x00,0x75
11.385004374999999,,0x00,0x0F
11.386435791666667,,0x00,0xF6
11.387873541666666,,0x00,0x0F
11.389304916666667,,0x00,0x5D
11.390742666666666,,0x00,0x07
11.392174041666667,,0x00,0xFA
11.393611791666666,,0x00,0x07
11.395043166666667,,0x00,0x53
11.396480916666667,,0x00,0x07
11.397912333333334,,0x00,0x2F
11.399350083333333,,0x00,0x03
11.400781458333332,,0x00,0x5E
11.402219208333333,,0x00,0x01
11.403650583333333,,0x00,0xFF
11.405088333333333,,0x00,0x00
11.406519708333333,,0x00,0x55
11.407957458333334,,0x00,0xFF
11.409388833333333,,0x00,0xBA
11.410826625000000,,0x00,0xFF
11.412258000000000,,0x00,0x55
11.413695750000000,,0x00,0xFF
11.415127125000000,,0x00,0xFE
11.416564875000001,,0x00,0xFF
11.417996250000000,,0x00,0x55
11.419434000000001,,0x00,0xFF
11.420865375000000,,0x00,0xAB
11.422303166666667,,0x00,0xFF
11.423734541666667,,0x00,0x57
11.425172291666666,,0x00,0xFF
11.426603666666667,,0x00,0xEE
11.428041416666666,,0x00,0x3F
11.429472791666667,,0x00,0x55
11.430910541666666,,0x00,0xFF
11.432341916666667,,0x00,0xBB
11.433779708333333,,0x00,0xFF
11.435211041666667,,0x00,0x55
11.436648833333333,,0x00,0xFF
11.438080208333334,,0x00,0xAE
11.439517958333333,,0x00,0xFF
11.440949333333334,,0x00,0x77
11.442387083333333,,0x00,0xFF
11.443818458333334,,0x00,0xAF
11.445256250000000,,0x00,0xFF
11.446687583333333,,0x00,0x55
11.448125375000000,,0x00,0xFF
11.449556749999999,,0x00,0xAE
11.450994500000000,,0x00,0xFF
11.452425874999999,,0x00,0xFF
11.453863625000000,,0x00,0xFF
11.455295000000000,,0x00,0xFF
11.456732791666667,,0x00,0xFF
11.458225166666667,,0x00,0xFF
11.459662958333332,,0x00,0xFF
11.461094333333333,,0x00,0xFF
11.462532083333333,,0x00,0xFF
11.463963458333334,,0x00,0xFF
11.465401249999999,,0x00,0xFF
11.466832583333334,,0x00,0xFF
11.468270374999999,,0x00,0xFF
11.469701708333334,,0x00,0xFF
11.471139500000000,,0x00,0xFF
11.472570833333334,,0x00,0xFF
11.474008625000000,,0x00,0xFF
11.475440000000001,,0x00,0xFF
11.476877791666666,,0x00,0xFF
11.478309124999999,,0x00,0xFF
11.479746916666667,,0x00,0xFF
11.481178249999999,,0x00,0xFF
11.482616041666667,,0x00,0xFF
11.484047374999999,,0x00,0xFF
11.485485166666667,,0x00,0xFF
11.486916541666666,,0x00,0xFF
11.488354333333334,,0x00,0xFF
11.489785666666666,,0x00,0xFF
11.491223458333334,,0x00,0xFF
11.492654791666666,,0x00,0xFF
11.494092583333334,,0x00,0xFF
11.495523916666667,,0x00,0xFF
11.496961708333334,,0x00,0xFF
11.498393041666667,,0x00,0xD5
11.499830875000001,,0x00,0xC0
11.501262208333333,,0x00,0xFB
11.502700000000001,,0x00,0xC0
11.504131333333333,,0x00,0xD5
11.505569124999999,,0x00,0xC0
11.507000458333334,,0x00,0xBF
11.508438249999999,,0x00,0xC0
11.509869583333334,,0x00,0x97
11.511307416666666,,0x00,0xC0
11.512738750000000,,0x00,0xBF
11.514176541666666,,0x00,0xC0
11.515607875000001,,0x00,0xBD
11.517045666666666,,0x00,0xC0
11.518477000000001,,0x00,0xBF
11.519914791666666,,0x00,0xC0
11.521346125000001,,0x00,0x55
11.522783958333333,,0x00,0x00
11.524215249999999,,0x00,0xFF
11.525653083333333,,0x00,0x00
11.527084416666666,,0x00,0x55
11.528522208333333,,0x00,0x00
11.529953541666666,,0x00,0xFF
11.531391333333334,,0x00,0x00
11.532822666666666,,0x00,0x75
11.534260500000000,,0x00,0x00
11.535691791666666,,0x00,0xFF
11.537129625000000,,0x00,0x00
11.538560958333333,,0x00,0xD5
11.539998750000001,,0x00,0x00
11.541430083333333,,0x00,0xFF
11.542867875000001,,0x00,0x00
11.544299208333333,,0x00,0x55
11.545737041666667,,0x00,0x00
11.547168333333333,,0x00,0xBB
11.548606166666668,,0x00,0x00
11.550037500000000,,0x00,0x55
11.551475291666666,,0x00,0x00
11.552906625000000,,0x00,0xFF
11.554344416666666,,0x00,0x00
11.555775750000000,,0x00,0x55
11.557213583333333,,0x00,0x00
11.558705916666666,,0x00,0xBA
11.560143750000000,,0x00,0x00
11.561575041666666,,0x00,0x55
11.563012875000000,,0x00,0x00
11.564444208333333,,0x00,0xA8
11.565882041666667,,0x00,0x00
11.567313333333333,,0x00,0x55
11.568751166666667,,0x00,0x00
11.570182458333333,,0x00,0xA2
11.571620291666667,,0x00,0x00
11.573051583333333,,0x00,0x54
11.574489416666667,,0x00,0x00
11.575920750000000,,0x00,0xE0
11.577358583333334,,0x00,0x00
11.578789875000000,,0x00,0x50
11.580227708333334,,0x00,0x00
11.581659000000000,,0x00,0x00
11.583096833333334,,0x00,0x00
11.584528125000000,,0x00,0x00
11.585965958333333,,0x00,0x00
11.587397250000000,,0x00,0x00
11.588835124999999,,0x00,0x00
11.590266416666667,,0x00,0x55
11.591704249999999,,0x00,0x00
11.593135541666667,,0x00,0x00
11.594573375000000,,0x00,0x00
11.596004666666667,,0x00,0x40
11.597442500000000,,0x00,0x00
11.598873791666668,,0x00,0x00
11.600311666666666,,0x00,0x00
11.601742958333332,,0x00,0x00
11.603180791666666,,0x00,0x00
11.604612083333333,,0x00,0x00
11.606049916666667,,0x00,0x00
11.607481208333333,,0x00,0x00
11.608919041666667,,0x00,0x00
11.610350333333333,,0x00,0x00
11.611788208333333,,0x00,0x00
11.613219458333333,,0x00,0x55
11.614657333333334,,0x00,0x00
11.616088625000000,,0x00,0x22
11.617526458333334,,0x00,0x00
11.618957750000000,,0x00,0x54
11.620395583333334,,0x00,0x00
11.621826875000000,,0x00,0x88
11.623264750000001,,0x00,0x00
11.624696000000000,,0x00,0x55
11.626133875000001,,0x00,0x00
11.627565166666667,,0x00,0xA2
11.629003000000001,,0x00,0x00
11.630434291666667,,0x00,0x55
11.631872124999999,,0x00,0x00
11.633303416666667,,0x00,0x8A
11.634741291666666,,0x00,0x00
11.636172541666667,,0x00,0x51
11.637610416666666,,0x00,0x0C
11.639041666666667,,0x00,0x3C
11.640479541666666,,0x00,0x08
11.641910833333334,,0x00,0x59
11.643348666666666,,0x00,0x04
11.644779958333332,,0x00,0xA8
11.646217833333333,,0x00,0x04
11.647649083333333,,0x00,0x56
11.649086958333333,,0x00,0x00
11.650518208333333,,0x00,0x03
11.651956083333333,,0x00,0x00
11.653387374999999,,0x00,0x55
11.654825208333333,,0x00,0x00
11.656256500000000,,0x00,0x0A
11.657694375000000,,0x00,0x00
11.659186666666667,,0x00,0x55
11.660624541666667,,0x00,0x00
