Time [s],Packet ID,MOSI,MISO
1.175433041666667,0,0x02,0x01
1.191915250000000,0,0x02,0x00
1.208641750000000,0,0xFE,0x00
5.796995583333334,0,0x02,0x00
5.813722000000000,0,0x02,0x60
5.830448458333334,0,0xFE,0x60
5.847235916666667,0,0x02,0x60
5.864023416666667,0,0xFE,0x60
5.880749833333334,0,0x02,0x60
5.897598375000000,0,0xFE,0x60
5.915911958333333,0,0x02,0x60
5.930990208333333,0,0xFE,0x60
5.947777666666667,0,0x02,0x60
5.964443083333333,0,0xFE,0x60
5.981230500000000,0,0x02,0x60
5.997956958333333,0,0xFE,0x60
6.014683375000000,0,0x02,0x60
6.031470875000000,0,0xFE,0x60
6.048258333333333,0,0x02,0x60
6.064923750000000,0,0xFE,0x60
6.081711208333333,0,0x02,0x60
6.098437666666666,0,0xFE,0x60
6.115225125000000,0,0x02,0x60
6.132928291666667,0,0xFE,0x60
6.148739041666667,0,0x02,0x60
6.165465500000000,0,0xFE,0x60
6.182252958333334,0,0x02,0x60
6.198918375000000,0,0xFE,0x60
6.215705833333334,0,0x02,0x60
6.232493333333333,0,0xFE,0x60
6.249219750000000,0,0x02,0x60
6.265885125000000,0,0xFE,0x60
6.282733625000000,0,0x02,0x60
6.299399041666667,0,0xFE,0x60
6.316125458333333,0,0x02,0x60
6.332974000000000,0,0xFE,0x60
6.349700416666667,0,0x02,0x60
6.368746625000000,0,0xFE,0x60
6.383092250000000,0,0x02,0x60
6.399818708333333,0,0xFE,0x60
6.416606166666667,0,0x02,0x60
6.433332625000000,0,0xFE,0x60
6.450059041666667,0,0x02,0x60
6.466785500000000,0,0xFE,0x60
6.483572958333333,0,0x02,0x60
6.500299416666667,0,0xFE,0x60
6.517086833333333,0,0x02,0x60
6.533813291666666,0,0xFE,0x60
6.550600750000000,0,0x02,0x60
6.567388250000000,0,0xFE,0x60
6.585701875000000,0,0x02,0x60
6.600841125000000,0,0xFE,0x60
6.617567541666666,0,0x02,0x60
6.634294000000000,0,0xFE,0x60
6.651020416666666,0,0x02,0x60
6.667807916666667,0,0xFE,0x60
6.684534333333334,0,0x02,0x60
6.701321833333333,0,0xFE,0x60
6.718048250000000,0,0x02,0x60
6.734774708333333,0,0xFE,0x60
6.751501125000000,0,0x02,0x60
6.768288625000000,0,0xFE,0x60
6.785015000000000,0,0x02,0x60
6.801924625000000,0,0xFE,0x60
6.820177166666666,0,0x02,0x60
6.835255375000000,0,0xFE,0x60
6.851981791666667,0,0x02,0x60
6.868708250000000,0,0xFE,0x60
6.885495708333333,0,0x02,0x60
6.902283208333333,0,0xFE,0x60
6.918948583333333,0,0x02,0x60
6.935736083333333,0,0xFE,0x60
6.952462500000000,0,0x02,0x60
6.969188958333334,0,0xFE,0x60
6.985915375000000,0,0x02,0x60
7.002763916666667,0,0xFE,0x60
7.019490333333334,0,0x02,0x60
7.037865000000000,0,0xFE,0x60
7.052943166666667,0,0x02,0x60
7.069669625000000,0,0xFE,0x60
7.086457083333333,0,0x02,0x60
7.103244583333334,0,0xFE,0x60
7.119909958333333,0,0x02,0x60
7.136636416666667,0,0xFE,0x60
7.153423875000000,0,0x02,0x60
7.170150333333333,0,0xFE,0x60
7.186876750000000,0,0x02,0x60
7.203725291666666,0,0xFE,0x60
7.220451708333333,0,0x02,0x60
7.237178166666666,0,0xFE,0x60
7.253904583333333,0,0xFE,0x60
7.273072833333333,0,0xFE,0x60
7.287357458333333,0,0xFE,0x60
7.304083875000000,0,0xFE,0x60
7.320810333333333,0,0xFE,0x60
7.337597791666667,0,0xFE,0x60
7.354324250000000,0,0xFE,0x60
7.371050666666667,0,0xFE,0x60
7.387838166666667,0,0xFE,0x60
7.404564583333333,0,0xFE,0x60
7.421352083333334,0,0xFE,0x60
7.438078500000000,0,0xFE,0x60
7.454988083333333,0,0xFE,0x60
7.471592416666667,0,0xFE,0x60
7.490699625000000,0,0xFE,0x60
7.505045291666667,0,0xFE,0x60
7.521771708333334,0,0xFE,0x60
7.538498166666667,0,0xFE,0x60
7.555285625000000,0,0xFE,0x60
7.572012041666667,0,0xFE,0x60
7.588738500000000,0,0xFE,0x60
7.605525958333334,0,0xFE,0x60
7.622252416666667,0,0xFE,0x60
7.639039875000000,0,0xFE,0x60
7.655766333333333,0,0xFE,0x60
7.672553791666667,0,0xFE,0x60
7.689341291666667,0,0xFE,0x60
7.706067708333333,0,0xFE,0x60
7.725174916666667,0,0xFE,0x60
7.739459541666666,0,0xFE,0x60
7.756247000000000,0,0xFE,0x60
7.772973458333333,0,0xFE,0x60
7.789699875000000,0,0xFE,0x60
7.806426291666667,0,0xFE,0x60
7.823213791666666,0,0xFE,0x60
7.839940208333333,0,0xFE,0x60
7.856666666666666,0,0xFE,0x60
7.873454125000000,0,0xFE,0x60
7.890180583333334,0,0xFE,0x60
7.906968041666667,0,0xFE,0x60
7.923816583333333,0,0xFE,0x60
7.942130166666667,0,0xFE,0x60
7.957208375000000,0,0xFE,0x60
7.973995875000000,0,0xFE,0x60
7.990661250000000,0,0xFE,0x60
8.007448750000000,0,0xFE,0x60
8.024236208333333,0,0xFE,0x60
8.040901583333333,0,0x00,0x60
8.057689083333333,0,0x00,0x60
8.074476583333333,0,0xFE,0x60
8.091203000000000,0,0xFE,0x60
8.107990500000000,0,0xFE,0x60
8.124716916666667,0,0xFE,0x60
8.141382291666666,0,0xFE,0x60
8.158169791666667,0,0xFE,0x60
8.177277000000000,0,0xFE,0x60
8.191622666666667,0,0xFE,0x60
8.208349083333333,0,0xFE,0x60
8.225075500000001,0,0xFE,0x60
8.241801958333333,0,0xFE,0x60
8.258589416666666,0,0xFE,0x60
8.275315875000000,0,0xFE,0x60
8.292042291666666,0,0xFE,0x60
8.308829791666666,0,0xFE,0x60
8.325617250000001,0,0xFE,0x60
8.342343666666666,0,0xFE,0x60
8.359253250000000,0,0xFE,0x60
8.375857583333334,0,0xFE,0x60
8.394232250000000,0,0xFE,0x60
8.409310458333334,0,0xFE,0x60
8.426036916666666,0,0xFE,0x60
8.442824375000001,0,0xFE,0x60
8.459611875000000,0,0xFE,0x60
8.476277250000001,0,0xFE,0x60
8.493064708333334,0,0xFE,0x60
8.509791166666666,0,0xFE,0x60
8.526517583333334,0,0xFE,0x60
8.543305083333333,0,0xFE,0x60
8.560092541666666,0,0xFE,0x60
8.576819000000000,0,0xFE,0x60
8.593606458333333,0,0xFE,0x60
8.610271833333334,0,0xFE,0x60
8.628646500000000,0,0xFE,0x60
8.643724708333334,0,0xFE,0x60
8.660573250000001,0,0xFE,0x60
8.677238624999999,0,0xFE,0x60
8.693965083333334,0,0xFE,0x60
8.710752541666666,0,0xFE,0x60
8.727478958333334,0,0xFE,0x60
8.744205416666667,0,0xFE,0x60
8.761053916666667,0,0xFE,0x60
8.777719333333334,0,0xFE,0x60
8.794445750000000,0,0xFE,0x60
8.811233250000001,0,0xFE,0x60
8.828020708333334,0,0xFE,0x60
8.846334333333333,0,0xFE,0x60
8.861534625000001,0,0xFE,0x60
8.878200000000000,0,0xFE,0x60
8.894926458333334,0,0xFE,0x60
8.911652875000000,0,0xFE,0x60
8.928440374999999,0,0xFE,0x60
8.945166791666667,0,0xFE,0x60
8.961954291666666,0,0xFE,0x60
8.978680708333334,0,0xFE,0x60
8.995407125000000,0,0xFE,0x60
9.012133583333334,0,0xFE,0x60
9.028921041666667,0,0xFE,0x60
9.045647499999999,0,0xFE,0x60
9.062557041666667,0,0xFE,0x60
9.081542166666667,0,0xFE,0x60
9.095887833333334,0,0xFE,0x60
9.112614250000000,0,0xFE,0x60
9.129340708333334,0,0xFE,0x60
9.146067125000000,0,0xFE,0x60
9.162854625000000,0,0xFE,0x60
9.179581041666667,0,0xFE,0x60
9.196307458333333,0,0xFE,0x60
9.213094958333333,0,0xFE,0x60
9.229821375000000,0,0xFE,0x60
9.246608875000000,0,0xFE,0x60
9.263335291666667,0,0xFE,0x60
9.280122791666667,0,0xFE,0x60
9.298497458333333,0,0xFE,0x60
9.313636708333334,0,0xFE,0x60
9.330302083333333,0,0xFE,0x60
9.347089583333334,0,0xFE,0x60
9.363816000000000,0,0xFE,0x60
9.380542416666668,0,0xFE,0x60
9.397268875000000,0,0xFE,0x60
9.414117375000000,0,0xFE,0x60
9.430782791666667,0,0xFE,0x60
9.447509208333333,0,0xFE,0x60
9.464296708333332,0,0xFE,0x60
9.481145208333333,0,0xFE,0x60
9.497810583333333,0,0xFE,0x60
9.514598083333333,0,0xFE,0x60
9.532972750000001,0,0xFE,0x60
9.547989916666667,0,0xFE,0x60
9.564777375000000,0,0xFE,0x60
9.581503833333333,0,0xFE,0x60
9.598230250000000,0,0xFE,0x60
9.615078791666667,0,0xFE,0x60
9.631744166666667,0,0xFE,0x60
9.648470583333333,0,0xFE,0x60
9.665258083333333,0,0xFE,0x60
9.681984500000000,0,0xFE,0x60
9.698710958333333,0,0xFE,0x60
9.715620500000000,0,0xFE,0x60
9.732224875000000,0,0xFE,0x60
9.749928000000001,0,0xFE,0x60
9.765799833333332,0,0xFE,0x60
9.782465208333333,0,0xFE,0x60
9.799191625000001,0,0xFE,0x60
9.816101208333333,0,0xFE,0x60
9.832705541666666,0,0xFE,0x60
9.849432000000000,0,0xFE,0x60
9.866280500000000,0,0xFE,0x60
9.882945875000001,0,0xFE,0x60
9.899672333333333,0,0xFE,0x60
9.916581875000000,0,0xFE,0x60
9.933186250000000,0,0xFE,0x60
9.949912666666666,0,0xFE,0x60
9.966761208333333,0,0xFE,0x60
9.985807333333334,0,0xFE,0x60
10.000091958333334,0,0xFE,0x60
10.016879458333333,0,0xFE,0x60
10.033605874999999,0,0xFE,0x60
10.050332333333333,0,0xFE,0x60
10.067119791666666,0,0xFE,0x60
10.083846250000001,0,0xFE,0x60
10.100572666666666,0,0xFE,0x60
10.117360124999999,0,0xFE,0x60
10.134086583333334,0,0xFE,0x60
10.150874041666667,0,0xFE,0x60
10.167661541666666,0,0xFE,0x60
10.184387958333334,0,0xFE,0x60
10.202762625000000,0,0xFE,0x60
10.217840833333334,0,0xFE,0x60
10.234567250000000,0,0xFE,0x60
10.251293708333334,0,0xFE,0x60
10.268142208333334,0,0xFE,0x60
10.284807624999999,0,0xFE,0x60
10.301534041666667,0,0xFE,0x60
10.318321541666666,0,0xFE,0x60
10.335047958333334,0,0xFE,0x60
10.351774375000000,0,0xFE,0x60
10.368622916666666,0,0xFE,0x60
10.385349375000001,0,0xFE,0x60
10.402075791666666,0,0xFE,0x60
10.418802208333334,0,0xFE,0x60
10.437176875000000,0,0xFE,0x60
10.452255083333334,0,0xFE,0x60
10.469103625000001,0,0xFE,0x60
10.485768999999999,0,0xFE,0x60
10.502495416666667,0,0xFE,0x60
10.519221874999999,0,0xFE,0x60
10.536009333333332,0,0xFE,0x60
10.552735791666667,0,0xFE,0x60
10.569584291666667,0,0xFE,0x60
10.586249708333334,0,0xFE,0x60
10.602976125000000,0,0xFE,0x60
10.619824666666666,0,0xFE,0x60
10.636490041666667,0,0xFE,0x60
10.654864666666667,0,0xFE,0x60
10.670003958333334,0,0xFE,0x60
10.686730375000000,0,0xFE,0x60
10.703456791666667,0,0xFE,0x60
10.720183250000000,0,0xFE,0x60
10.736970708333333,0,0xFE,0x60
10.753697166666667,0,0xFE,0x60
10.770484625000000,0,0xFE,0x60
10.787150041666667,0,0xFE,0x60
10.803937500000000,0,0xFE,0x60
10.820663958333334,0,0xFE,0x60
10.837451416666667,0,0xFE,0x60
10.854238916666667,0,0xFE,0x60
10.870965333333332,0,0xFE,0x60
10.890011500000000,0,0xFE,0x60
10.904357166666667,0,0xFE,0x60
10.921144625000000,0,0xFE,0x60
10.937871083333333,0,0xFE,0x60
10.954597500000000,0,0xFE,0x60
10.971384958333333,0,0xFE,0x60
10.988111416666667,0,0xFE,0x60
11.004837833333333,0,0xFE,0x60
11.021564291666667,0,0xFE,0x60
11.038351750000000,0,0xFE,0x60
11.055078208333333,0,0xFE,0x60
11.071865666666667,0,0xFE,0x60
11.088714208333334,0,0xFE,0x60
11.107760333333333,0,0xFE,0x60
11.122044958333333,0,0xFE,0x60
11.138832458333333,0,0xFE,0x60
11.155558875000001,0,0xFE,0x60
11.172285333333333,0,0xFE,0x60
11.189072791666666,0,0xFE,0x60
11.205799208333334,0,0xFE,0x60
11.222525666666666,0,0xFE,0x60
11.239313125000001,0,0xFE,0x60
11.256039583333333,0,0xFE,0x60
11.272888083333333,0,0xFE,0x60
11.289553500000000,0,0xFE,0x60
11.306279916666666,0,0xFE,0x60
11.323128458333333,0,0xFE,0x60
11.342174583333334,0,0xFE,0x60
11.356520250000001,0,0xFE,0x60
11.373246708333333,0,0xFE,0x60
11.389973124999999,0,0xFE,0x60
11.406760625000000,0,0xFE,0x60
11.423487041666666,0,0xFE,0x60
11.440213500000000,0,0xFE,0x60
11.456939916666666,0,0xFE,0x60
11.473727374999999,0,0xFE,0x60
11.490514875000001,0,0xFE,0x60
11.507241291666666,0,0xFE,0x60
11.524089833333333,0,0xFE,0x60
11.540755208333334,0,0xFE,0x60
11.559862416666666,0,0xFE,0x60
11.574208083333334,0,0xFE,0x60
11.590934541666666,0,0xFE,0x60
11.607660958333334,0,0xFE,0x60
11.624448416666667,0,0xFE,0x60
11.641174875000001,0,0xFE,0x60
11.657901291666667,0,0xFE,0x60
11.674688791666666,0,0xFE,0x60
11.691415208333334,0,0xFE,0x60
11.708202708333333,0,0xFE,0x60
11.724929124999999,0,0xFE,0x60
11.741777666666666,0,0xFE,0x60
11.758443041666666,0,0xFE,0x60
11.775230499999999,0,0xFE,0x60
11.794337708333334,0,0xFE,0x60
11.808622333333334,0,0xFE,0x60
11.825348791666666,0,0xFE,0x60
11.842136249999999,0,0xFE,0x60
11.858862666666667,0,0xFE,0x60
11.875589124999999,0,0xFE,0x60
11.892376583333334,0,0xFE,0x60
11.909103041666667,0,0xFE,0x60
11.925829458333334,0,0xFE,0x60
11.942616958333334,0,0xFE,0x60
11.959343375000000,0,0xFE,0x60
11.976191916666666,0,0xFE,0x60
11.992857291666667,0,0xFE,0x60
12.010560458333334,0,0xFE,0x60
12.026493291666666,0,0xFE,0x60
12.043097625000000,0,0xFE,0x60
12.059885124999999,0,0xFE,0x60
12.076672583333334,0,0xFE,0x60
12.093337999999999,0,0xFE,0x60
12.110125458333334,0,0xFE,0x60
12.126974000000001,0,0xFE,0x60
12.143578291666667,0,0x60,0x60
12.160365791666667,0,0xFE,0x60
12.193757583333333,0,0x60,0x60
12.210545083333333,0,0x60,0x60
12.227393583333333,0,0x60,0x60
12.244974666666666,0,0x60,0x60
12.260785416666666,0,0x60,0x60
12.277572916666667,0,0x60,0x60
12.294238291666666,0,0x60,0x60
12.311025750000001,0,0x60,0x60
12.327874291666667,0,0x60,0x60
12.344478625000001,0,0x00,0x60
12.361205083333333,0,0x00,0x60
12.377992541666666,0,0x00,0x00
12.394719000000000,0,0x00,0x00
12.411445416666666,0,0x00,0x00
12.428293958333333,0,0x00,0x00
12.444959333333333,0,0x00,0x00
12.462601458333333,0,0x00,0x00
12.478473250000000,0,0x00,0x00
12.495199666666666,0,0x00,0x00
12.511926125000000,0,0xFE,0x00
13.113833583333333,0,0xFE,0x00
13.130559999999999,0,0xD0,0xD0
13.149056750000000,0,0xD0,0xD0
13.164012833333333,0,0x00,0xD0
13.230979666666666,0,0xFE,0x00
13.247706083333334,0,0xD0,0xD0
13.264493583333334,0,0xD0,0xD0
13.281281000000000,0,0x00,0xD0
13.348247833333334,0,0xFE,0x00
13.365889958333334,0,0xD0,0xD0
13.381883833333333,0,0xD0,0xD0
13.398488125000000,0,0x00,0xD0
13.465454958333334,0,0xFE,0x00
13.482303500000000,0,0xD0,0xD0
13.498968874999999,0,0xD0,0xD0
13.515695250000000,0,0x00,0xD0
13.582784166666666,0,0xFE,0x00
13.601830333333334,0,0xFE,0xD0
13.616114958333334,0,0xFE,0xD0
13.632841375000000,0,0xD1,0xD0
13.649628833333333,0,0xD1,0xD0
13.666355250000001,0,0x00,0xD0
13.733322041666666,0,0xFE,0x00
13.750109541666667,0,0xD1,0xD0
13.766835958333333,0,0xD1,0xD0
13.783623416666666,0,0x00,0xD0
13.850590208333333,0,0xFE,0x00
13.867316666666667,0,0xD1,0xD0
13.884043083333333,0,0xD1,0xD0
13.900830541666666,0,0x00,0xD0
13.967797333333333,0,0xFE,0x00
13.984523791666666,0,0xD1,0xD0
14.001372291666666,0,0xD1,0xD0
14.018037666666666,0,0x00,0xD0
14.085004458333334,0,0xFE,0x00
14.101730916666666,0,0xD1,0xD0
14.118518375000001,0,0xD1,0xD0
14.135305833333334,0,0x00,0xD0
14.202211583333334,0,0xFE,0x00
14.218999083333333,0,0xD1,0xD0
14.235908625000000,0,0xD1,0xD0
14.252512958333334,0,0x00,0xD0
14.319418708333334,0,0xFE,0x00
14.336267250000001,0,0xD1,0xD0
14.352932624999999,0,0xD1,0xD0
14.369659041666667,0,0x00,0xD0
14.436747916666667,0,0xFE,0x00
14.453413333333334,0,0xD1,0xD0
14.470261833333334,0,0xD1,0xD0
14.486927208333332,0,0x00,0xD0
14.553894000000000,0,0xFE,0x00
14.570620458333334,0,0xD1,0xD0
14.587346875000000,0,0xD1,0xD0
14.604134333333333,0,0x00,0xD0
14.723722250000000,0,0xFE,0x00
14.738067916666667,0,0xD1,0xD1
14.754794333333333,0,0xD1,0xD1
14.771581791666666,0,0x00,0xD1
14.838548583333333,0,0xFE,0x00
14.855275041666667,0,0xD1,0xD1
14.872062500000000,0,0xD1,0xD1
14.888788916666666,0,0x00,0xD1
14.958197541666667,0,0xFE,0x00
14.972482166666667,0,0xD1,0xD1
14.989269625000000,0,0xD1,0xD1
15.005996041666666,0,0x00,0xD1
15.072962833333333,0,0xFE,0x00
15.089689291666666,0,0xD1,0xD1
15.106476750000001,0,0xD1,0xD1
15.123264208333334,0,0x00,0xD1
15.190231000000001,0,0xFE,0x00
15.206957458333333,0,0xD1,0xD1
15.223744916666666,0,0xD1,0xD1
15.240471333333334,0,0x00,0xD1
15.307438124999999,0,0xFE,0x00
15.324286666666668,0,0xD1,0xD1
15.341013083333333,0,0xD1,0xD1
15.357678458333334,0,0x00,0xD1
15.424645249999999,0,0xFE,0x00
15.441371708333334,0,0xD1,0xD1
15.458098083333333,0,0xD1,0xD1
15.474885583333334,0,0x00,0xD1
15.541852374999999,0,0xFE,0x00
15.558639875000001,0,0xD1,0xD1
15.575366250000000,0,0xD1,0xD1
15.592214791666667,0,0x00,0xD1
15.659120541666667,0,0xFE,0x00
15.675846999999999,0,0xD1,0xD1
15.692634416666667,0,0xD1,0xD1
15.709360875000000,0,0x00,0xD1
15.776327666666667,0,0xFE,0x00
15.793115166666666,0,0xD1,0xD1
15.809841541666668,0,0xD1,0xD1
15.826568000000000,0,0x00,0xD1
15.893595833333332,0,0xFE,0x00
15.910261250000000,0,0xD1,0xD1
15.926987625000001,0,0xD1,0xD1
15.943775125000000,0,0x00,0xD1
16.010741916666667,0,0xFE,0x00
16.027468375000002,0,0xD1,0xD1
16.044255791666668,0,0xD1,0xD1
16.060982249999999,0,0x00,0xD1
16.128010083333333,0,0xFE,0x00
16.144736541666667,0,0xD1,0xD1
16.161462916666668,0,0xD1,0xD1
16.178189333333332,0,0x00,0xD1
16.245217208333333,0,0xFE,0x00
16.262004708333333,0,0xD1,0xD1
16.278670041666668,0,0xD1,0xD1
16.295518583333333,0,0x00,0xD1
16.362363291666668,0,0xFE,0x00
16.379089749999999,0,0xD1,0xD1
16.395877166666665,0,0xD1,0xD1
16.412603583333333,0,0x00,0xD1
16.479631458333333,0,0xFE,0x00
16.496479999999998,0,0xD1,0xD1
16.513145333333334,0,0xD1,0xD1
16.531642083333335,0,0x00,0xD1
16.596838583333334,0,0xFE,0x00
16.613565041666668,0,0xD1,0xD1
16.630352458333334,0,0xD1,0xD1
16.647139916666667,0,0x00,0xD1
16.714106749999999,0,0xFE,0x00
16.730894249999999,0,0xFE,0xD1
16.747620666666666,0,0xFE,0xD1
16.766666833333332,0,0xD0,0xD1
16.781012499999999,0,0xD0,0xD1
16.797738875000000,0,0x00,0xD1
16.864766708333335,0,0xFE,0x00
16.881493208333332,0,0xD0,0xD1
16.898219624999999,0,0xD0,0xD1
16.915007041666666,0,0x00,0xD1
16.983683124999999,0,0xFE,0x00
16.998700333333332,0,0xD0,0xD1
17.015548833333334,0,0xD0,0xD1
17.032214166666666,0,0x00,0xD1
17.099180958333335,0,0xFE,0x00
17.116029541666666,0,0xD0,0xD1
17.132755958333334,0,0xD0,0xD1
17.149543375000000,0,0x00,0xD1
17.218829916666667,0,0xFE,0x00
17.233114541666666,0,0xD0,0xD1
17.249901999999999,0,0xD0,0xD1
17.266628416666666,0,0x00,0xD1
17.333595208333332,0,0xFE,0x00
17.350382708333335,0,0xD0,0xD1
17.367109124999999,0,0xD0,0xD1
17.383896583333332,0,0x00,0xD1
17.450863375000001,0,0xFE,0x00
17.467589833333335,0,0xD0,0xD1
17.484377291666668,0,0xD0,0xD1
17.501164750000001,0,0x00,0xD1
17.568070500000001,0,0xFE,0x00
17.584796958333332,0,0xD0,0xD1
17.601645458333333,0,0xD0,0xD1
17.618371875000001,0,0x00,0xD1
17.685277625000001,0,0xFE,0x00
17.702126166666666,0,0xD0,0xD1
17.718791541666668,0,0xD0,0xD1
17.735517958333332,0,0x00,0xD1
17.802606833333332,0,0xFE,0x00
17.819272250000001,0,0xD0,0xD1
17.835998666666665,0,0xD0,0xD1
17.852786125000002,0,0x00,0xD1
17.919752916666667,0,0xFE,0x00
17.936479375000001,0,0xD0,0xD1
17.953205791666665,0,0xD0,0xD1
17.969993250000002,0,0x00,0xD1
18.036960041666667,0,0xFE,0x00
18.053686500000001,0,0xD0,0xD1
18.070473958333334,0,0xD0,0xD1
18.087200374999998,0,0x00,0xD1
18.154167166666667,0,0xFE,0x00
18.170893625000001,0,0xD0,0xD1
18.187620041666666,0,0xD0,0xD1
18.204407499999999,0,0x00,0xD1
18.271374291666667,0,0xFE,0x00
18.288100750000002,0,0xD0,0xD1
18.304888208333335,0,0xD0,0xD1
18.321675666666668,0,0x00,0xD1
18.388581416666668,0,0xFE,0x00
18.405307874999998,0,0xD0,0xD1
18.422095333333335,0,0xD0,0xD1
18.438821749999999,0,0x00,0xD1
18.556089916666668,0,0xFE,0x00
18.575197166666666,0,0xD0,0xD2
18.589542791666666,0,0xD0,0xD2
18.606269208333334,0,0x00,0xD2
18.673235999999999,0,0xFE,0x00
18.690023499999999,0,0xD0,0xD2
18.706749916666666,0,0xD0,0xD2
18.723537374999999,0,0x00,0xD2
18.840683458333334,0,0xFE,0x00
18.857470958333334,0,0xD0,0xD1
18.874197375000001,0,0xD0,0xD1
18.890923791666665,0,0x00,0xD1
18.957951625000000,0,0xFE,0x00
18.974739124999999,0,0xD0,0xD1
18.991526583333332,0,0xD0,0xD1
19.008314041666665,0,0x00,0xD1
19.075158750000000,0,0xFE,0x00
19.091885208333334,0,0xD0,0xD1
19.108672666666667,0,0xD0,0xD1
19.125399083333335,0,0x00,0xD1
19.192365875000000,0,0xFE,0x00
19.209153375000000,0,0xD0,0xD1
19.226001875000001,0,0xD0,0xD1
19.244315458333332,0,0x00,0xD1
19.309634041666666,0,0xFE,0x00
19.326360500000000,0,0xD0,0xD1
19.343086916666667,0,0xD0,0xD1
19.359935416666666,0,0x00,0xD1
19.426841166666666,0,0xFE,0x00
19.443567625000000,0,0xD0,0xD1
19.460477166666667,0,0xD0,0xD1
19.478729708333333,0,0x00,0xD1
19.544048291666666,0,0xFE,0x00
19.560835791666666,0,0xD0,0xD1
19.577562208333333,0,0xD0,0xD1
19.594288625000001,0,0x00,0xD1
19.661377500000000,0,0xFE,0x00
19.678042916666666,0,0xD0,0xD1
19.696417541666666,0,0xD0,0xD1
19.711495750000001,0,0x00,0xD1
19.778462541666666,0,0xFE,0x00
19.795250041666666,0,0xD0,0xD1
19.811976458333334,0,0xD0,0xD1
19.828702833333335,0,0x00,0xD1
19.895730708333332,0,0xFE,0x00
19.912457166666666,0,0xD0,0xD1
19.933090458333332,0,0xD0,0xD1
19.945909958333335,0,0x00,0xD1
20.012876750000000,0,0xFE,0x00
20.029664291666666,0,0xD0,0xD1
20.046390708333334,0,0xD0,0xD1
20.063117083333335,0,0x00,0xD1
20.130144916666666,0,0xFE,0x00
20.149374250000001,0,0xD0,0xD1
20.163597833333334,0,0xD0,0xD1
20.180385250000000,0,0x00,0xD1
20.247352041666666,0,0xFE,0x00
20.264078500000000,0,0xD0,0xD1
20.280804916666668,0,0xD0,0xD1
20.297592375000001,0,0x00,0xD1
20.364681250000000,0,0xFE,0x00
20.383849541666667,0,0xD0,0xD1
20.398073083333333,0,0xD0,0xD1
20.414799500000001,0,0x00,0xD1
20.481766291666666,0,0xFE,0x00
20.498492750000000,0,0xD0,0xD1
20.515280208333333,0,0xD0,0xD1
20.532067666666666,0,0x00,0xD1
20.601842541666667,0,0xFE,0x00
20.615760916666666,0,0xD0,0xD1
20.632487333333334,0,0xD0,0xD1
20.649213750000001,0,0x00,0xD1
20.716241583333332,0,0xFE,0x00
20.732968041666666,0,0xD0,0xD1
20.749694458333334,0,0xD0,0xD1
20.766542958333332,0,0x00,0xD1
20.834425416666665,0,0xFE,0x00
20.850236208333332,0,0xD0,0xD1
20.867084708333334,0,0xD0,0xD1
20.883689041666667,0,0x00,0xD1
20.950716875000001,0,0xFE,0x00
20.967565416666666,0,0xD0,0xD1
20.984169750000000,0,0xD0,0xD1
21.000957208333332,0,0x00,0xD1
21.067862958333333,0,0xFE,0x00
21.084589416666667,0,0xD0,0xD1
21.101376875000000,0,0xD0,0xD1
21.118103291666667,0,0x00,0xD1
21.185070083333333,0,0xFE,0x00
21.201857583333332,0,0xD0,0xD1
21.218645041666665,0,0xD0,0xD1
21.235371458333333,0,0x00,0xD1
21.302338249999998,0,0xFE,0x00
21.319125750000001,0,0xD0,0xD1
21.335852166666665,0,0xD0,0xD1
21.352578583333333,0,0x00,0xD1
21.419606416666667,0,0xFE,0x00
21.436271833333333,0,0xD0,0xD1
21.453059291666666,0,0xD0,0xD1
21.469785666666667,0,0x00,0xD1
21.536752499999999,0,0xFE,0x00
21.553478958333333,0,0xD0,0xD1
21.570205375000000,0,0xD0,0xD1
21.586992791666667,0,0x00,0xD1
21.653959583333332,0,0xFE,0x00
21.670808166666667,0,0xD0,0xD1
21.687473541666666,0,0xD0,0xD1
21.704260958333332,0,0x00,0xD1
21.771166708333332,0,0xFE,0x00
21.787893166666667,0,0xD0,0xD1
21.804680625000000,0,0xD0,0xD1
21.821407041666667,0,0x00,0xD1
21.888434875000002,0,0xFE,0x00
21.905161333333332,0,0xD0,0xD1
21.922009875000001,0,0xD0,0xD1
21.938675208333333,0,0x00,0xD1
22.005642000000002,0,0xFE,0x00
22.022368458333332,0,0xD0,0xD1
22.039094875000000,0,0xD0,0xD1
22.055821291666668,0,0x00,0xD1
22.122849124999998,0,0xFE,0x00
22.139697666666667,0,0xD0,0xD1
22.156363041666665,0,0xD0,0xD1
22.173211541666667,0,0x00,0xD1
22.240056249999999,0,0xFE,0x00
22.256843750000002,0,0xD0,0xD1
22.273631208333335,0,0xD0,0xD1
22.290296583333333,0,0x00,0xD1
22.357263374999999,0,0xFE,0x00
22.374172958333332,0,0xD0,0xD1
22.390838333333335,0,0xD0,0xD1
22.409212958333335,0,0x00,0xD1
22.475447208333332,0,0xFE,0x00
22.491990541666667,0,0xD0,0xD5
22.508716958333334,0,0xD0,0xD5
22.525504416666667,0,0x00,0xD5
22.558224750000001,0,0xFE,0x00
30.693802958333332,0,0xFE,0xFE
30.697404625000001,0,0xFE,0x60
30.714070000000000,0,0xFE,0x60
30.730857458333332,0,0xFE,0x60
30.749964666666667,0,0xFE,0x60
30.764310333333334,0,0xFE,0x60
30.781097833333334,0,0xFE,0x60
30.797824250000001,0,0xFE,0x60
30.814550666666666,0,0xFE,0x60
30.831338166666665,0,0xFE,0x60
30.849468625000000,0,0xFE,0x60
30.864791041666667,0,0xFE,0x60
30.881517458333335,0,0xFE,0x60
30.898304916666667,0,0xFE,0x60
30.915031375000002,0,0xFE,0x60
30.931757791666666,0,0xFE,0x60
30.948545291666665,0,0xFE,0x60
30.967652458333333,0,0xFE,0x60
30.981998125000000,0,0xFE,0x60
30.998785625000000,0,0xFE,0x60
31.015512041666668,0,0xFE,0x60
31.032238499999998,0,0xFE,0x60
31.049025958333335,0,0xFE,0x60
31.065752374999999,0,0xFE,0x60
31.083943916666666,0,0xFE,0x60
31.099205250000001,0,0xFE,0x60
31.115992750000000,0,0xFE,0x60
31.132719166666668,0,0xFE,0x60
31.149445583333332,0,0xFE,0x60
31.166233083333335,0,0xFE,0x60
31.182959499999999,0,0xFE,0x60
31.202249833333333,0,0xFE,0x60
31.216473416666666,0,0xFE,0x60
31.233199875000000,0,0xFE,0x60
31.249926291666668,0,0xFE,0x60
31.266713750000001,0,0xFE,0x60
31.283440208333332,0,0xFE,0x60
31.300166624999999,0,0xFE,0x60
31.316954124999999,0,0xFE,0x60
31.333680541666666,0,0xFE,0x60
31.350406958333334,0,0xFE,0x60
31.367194458333334,0,0xFE,0x60
31.383920875000001,0,0xFE,0x60
31.400647333333332,0,0xFE,0x60
31.420059750000000,0,0xFE,0x60
31.434161208333332,0,0xFE,0x60
31.450887666666667,0,0xFE,0x60
31.467614083333334,0,0xFE,0x60
31.484401583333334,0,0xFE,0x60
31.501128000000001,0,0xFE,0x60
31.517854416666665,0,0xFE,0x60
31.534641916666665,0,0xFE,0x60
31.551368333333333,0,0xFE,0x60
31.568094791666667,0,0xFE,0x60
31.584882250000000,0,0xFE,0x60
31.601608666666667,0,0xFE,0x60
31.618335125000002,0,0xFE,0x60
31.635122583333334,0,0xFE,0x60
31.654412916666665,0,0xFE,0x60
31.668575458333333,0,0xFE,0x60
31.685301875000000,0,0xFE,0x60
31.702089375000000,0,0xFE,0x60
31.718815791666668,0,0xFE,0x60
31.735542250000002,0,0xFE,0x60
31.752329708333335,0,0xFE,0x60
31.769056124999999,0,0xFE,0x60
31.785782583333333,0,0xFE,0x60
31.802570041666666,0,0xFE,0x60
31.819296500000000,0,0xFE,0x60
31.836022916666668,0,0xFE,0x60
31.852810416666667,0,0xFE,0x60
31.870452499999999,0,0xFE,0x60
31.886263249999999,0,0xFE,0x60
31.902989708333333,0,0xFE,0x60
31.919777166666666,0,0xFE,0x60
31.936503625000000,0,0xFE,0x60
31.953230041666668,0,0xFE,0x60
31.970017500000001,0,0xFE,0x60
31.986743958333335,0,0xFE,0x60
32.003470374999999,0,0xFE,0x60
32.020257874999999,0,0xFE,0x60
32.036984291666670,0,0xFE,0x60
32.053710708333334,0,0xFE,0x60
32.070498208333333,0,0xFE,0x60
32.087224624999998,0,0xFE,0x60
32.104927791666668,0,0xFE,0x60
32.120738541666668,0,0xFE,0x60
32.137464958333332,0,0xFE,0x60
32.154191416666670,0,0xFE,0x60
32.170978875000003,0,0xFE,0x60
32.187705333333334,0,0xFE,0x60
32.204431749999998,0,0xFE,0x60
32.221158166666669,0,0xFE,0x60
32.237945666666668,0,0xFE,0x60
32.254672083333332,0,0xFE,0x60
32.271459583333332,0,0xFE,0x60
32.288186000000003,0,0xFE,0x60
32.304912416666667,0,0xFE,0x60
32.322615583333331,0,0xFE,0x60
32.338426333333331,0,0xFE,0x60
32.355152791666669,0,0xFE,0x60
32.371879208333333,0,0xFE,0x60
32.388666666666666,0,0xFE,0x60
32.405393125000003,0,0xFE,0x60
32.422119541666667,0,0xFE,0x60
32.438907041666667,0,0xFE,0x60
32.455633458333331,0,0xFE,0x60
32.472359875000002,0,0xFE,0x60
32.489086333333333,0,0xFE,0x60
32.505873791666666,0,0xFE,0x60
32.522600250000004,0,0xFE,0x60
32.539326666666668,0,0xFE,0x60
32.558494916666668,0,0xFE,0x60
32.572840583333331,0,0xFE,0x60
32.589567000000002,0,0xFE,0x60
32.606354500000002,0,0xFE,0x60
32.623080916666666,0,0xFE,0x60
32.639807374999997,0,0xFE,0x60
32.656594833333337,0,0xFE,0x60
32.673321250000001,0,0xFE,0x60
32.690047708333331,0,0xFE,0x60
32.706774125000003,0,0xFE,0x60
32.723561625000002,0,0xFE,0x60
32.740288041666666,0,0xFE,0x60
32.757014458333330,0,0xFE,0x60
32.774717625000001,0,0xFE,0x60
32.790528375000001,0,0xFE,0x60
32.807254833333332,0,0xFE,0x60
32.824042291666665,0,0xFE,0x60
32.840768708333336,0,0xFE,0x60
32.857495166666666,0,0xFE,0x60
32.874282624999999,0,0xFE,0x60
32.891009083333330,0,0xFE,0x60
32.907735500000001,0,0xFE,0x60
32.924522958333334,0,0xFE,0x60
32.941249416666665,0,0xFE,0x60
32.957975833333336,0,0xFE,0x60
32.974763333333335,0,0xFE,0x60
32.991489750000000,0,0xFE,0x60
33.010657999999999,0,0xFE,0x60
33.024942625000001,0,0xFE,0x60
33.041730083333334,0,0xFE,0x60
33.058456541666665,0,0xFE,0x60
33.075182958333336,0,0xFE,0x60
33.091970416666669,0,0xFE,0x60
33.108696875000000,0,0xFE,0x60
33.125423291666664,0,0xFE,0x60
33.142210791666663,0,0xFE,0x60
33.158937208333334,0,0xFE,0x60
33.175663624999999,0,0xFE,0x60
33.192451124999998,0,0xFE,0x60
33.209177541666669,0,0xFE,0x60
33.226880708333333,0,0xFE,0x60
33.242691458333333,0,0xFE,0x60
33.259417874999997,0,0xFE,0x60
33.276144333333335,0,0xFE,0x60
33.292870749999999,0,0xFE,0x60
33.309658249999998,0,0xFE,0x60
33.326384666666669,0,0xFE,0x60
33.343111083333334,0,0xFE,0x60
33.359898583333333,0,0xFE,0x60
33.376624999999997,0,0xFE,0x60
33.393351458333335,0,0xFE,0x60
33.410138916666668,0,0xFE,0x60
33.426865333333332,0,0xFE,0x60
33.443591791666670,0,0xFE,0x60
33.462760041666670,0,0xFE,0x60
33.477105708333333,0,0xFE,0x60
33.493832124999997,0,0xFE,0x60
33.510558541666668,0,0xFE,0x60
33.527346041666668,0,0xFE,0x60
33.544072458333332,0,0xFE,0x60
33.560798916666670,0,0xFE,0x60
33.577586375000003,0,0xFE,0x60
33.594312791666667,0,0xFE,0x60
33.611039249999997,0,0xFE,0x60
33.627826708333330,0,0xFE,0x60
33.644553166666668,0,0xFE,0x60
33.661279583333332,0,0xFE,0x60
33.680508875000001,0,0xFE,0x60
33.694793500000003,0,0xFE,0x60
33.711519916666667,0,0xFE,0x60
33.728307416666667,0,0xFE,0x60
33.745033833333331,0,0xFE,0x60
33.761760291666668,0,0xFE,0x60
33.778547750000001,0,0xFE,0x60
33.795274166666665,0,0xFE,0x60
33.812000625000003,0,0xFE,0x60
33.828727041666667,0,0xFE,0x60
33.845514541666667,0,0xFE,0x60
33.862240958333331,0,0xFE,0x60
33.878967375000002,0,0xFE,0x60
33.895754875000002,0,0xFE,0x60
33.913396958333337,0,0xFE,0x60
33.929207750000003,0,0xFE,0x60
33.945995208333336,0,0xFE,0x60
33.962721625000000,0,0xFE,0x60
33.979448083333331,0,0xFE,0x60
33.996235541666664,0,0xFE,0x60
34.012962000000002,0,0xFE,0x60
34.029688416666666,0,0xFE,0x60
34.046475874999999,0,0xFE,0x60
34.063202333333336,0,0xFE,0x60
34.079928750000001,0,0xFE,0x60
34.096655208333331,0,0xFE,0x60
34.113442666666664,0,0xFE,0x60
34.131084791666666,0,0xFE,0x60
34.146895541666666,0,0xFE,0x60
34.163682999999999,0,0xFE,0x60
34.180409458333337,0,0xFE,0x60
34.197135875000001,0,0xFE,0x60
34.213923333333334,0,0xFE,0x60
34.230649791666664,0,0xFE,0x60
34.247376208333336,0,0xFE,0x60
34.264163708333335,0,0xFE,0x60
34.280890124999999,0,0xFE,0x60
34.297616541666663,0,0xFE,0x60
34.314343000000001,0,0xFE,0x60
34.331130458333334,0,0xFE,0x60
34.347856916666665,0,0xFE,0x60
34.366964125000003,0,0xFE,0x60
34.381370791666669,0,0xFE,0x60
34.398097249999999,0,0xFE,0x60
34.414823666666663,0,0xFE,0x60
34.431611166666670,0,0xFE,0x60
34.448337583333334,0,0xFE,0x60
34.466529125000001,0,0xFE,0x60
34.481851499999998,0,0xFE,0x60
34.498577916666669,0,0xFE,0x60
34.515304374999999,0,0xFE,0x60
34.532091833333332,0,0xFE,0x60
34.548818249999997,0,0xFE,0x60
34.565544708333334,0,0xFE,0x60
34.584835041666665,0,0xFE,0x60
34.599058624999998,0,0xFE,0x60
34.615785041666669,0,0xFE,0x60
34.632511458333333,0,0xFE,0x60
34.649298958333333,0,0xFE,0x60
34.666025374999997,0,0xFE,0x60
34.682751833333334,0,0xFE,0x60
34.701065416666665,0,0xFE,0x60
34.716265708333331,0,0xFE,0x60
34.732992166666669,0,0xFE,0x60
34.749779625000002,0,0xFE,0x60
34.766506083333333,0,0xFE,0x60
34.783232499999997,0,0xFE,0x60
34.800019958333330,0,0xFE,0x60
34.819127166666668,0,0xFE,0x60
34.833472833333332,0,0xFE,0x60
34.850260333333331,0,0xFE,0x60
34.866986750000002,0,0xFE,0x60
34.883713166666666,0,0xFE,0x60
34.900439624999997,0,0xFE,0x60
34.917227083333330,0,0xFE,0x60
34.933953541666668,0,0xFE,0x60
34.950679958333332,0,0xFE,0x60
34.967467416666665,0,0xFE,0x60
34.984193875000003,0,0xFE,0x60
35.000920291666667,0,0xFE,0x60
35.017707791666666,0,0xFE,0x60
35.036814999999997,0,0xFE,0x60
35.051160625000001,0,0xFE,0x60
35.067948125000001,0,0xFE,0x60
35.084674541666665,0,0xFE,0x60
35.101401000000003,0,0xFE,0x60
35.118127416666667,0,0xFE,0x60
35.134914875000000,0,0xFE,0x60
35.151641333333330,0,0xFE,0x60
35.168367750000002,0,0xFE,0x60
35.185155250000001,0,0xFE,0x60
35.201881666666665,0,0xFE,0x60
35.218608083333336,0,0xFE,0x60
35.235395583333336,0,0xFE,0x60
35.252122000000000,0,0xFE,0x60
35.271290250000000,0,0xFE,0x60
35.285635916666664,0,0xFE,0x60
35.302362333333335,0,0xFE,0x60
35.319088791666665,0,0xFE,0x60
35.335876249999998,0,0xFE,0x60
35.352602666666670,0,0x60,0x60
35.369390125000002,0,0x60,0x60
35.402842999999997,0,0x60,0x60
35.419569458333335,0,0x60,0x60
35.436295874999999,0,0x60,0x60
35.453022291666670,0,0x60,0x60
35.469809791666670,0,0x60,0x60
35.487451874999998,0,0x60,0x60
35.503262624999998,0,0x60,0x60
35.520050124999997,0,0x60,0x60
35.536776541666669,0,0x00,0x60
35.553502999999999,0,0x00,0x60
35.570229416666663,0,0x00,0x60
35.586955833333334,0,0x00,0x00
35.603743333333334,0,0x00,0x00
35.620469749999998,0,0x00,0x00
35.637196208333336,0,0x00,0x00
35.653983666666669,0,0x00,0x00
35.670710083333333,0,0x00,0x00
35.687436541666663,0,0x00,0x00
35.704224041666670,0,0xFE,0x00
35.723514375000001,0,0xFE,0x00
35.771190833333335,0,0xFD,0x00
35.787917208333333,0,0xFD,0x00
35.838218625000003,0,0xFD,0x00
35.839561625000002,0,0xFD,0xFD
35.840843541666665,0,0xFD,0xFD
35.842125500000002,0,0xFD,0xFD
35.843407458333331,0,0xFD,0xFD
35.844689416666668,0,0xFD,0xFD
35.845971374999998,0,0xFD,0xFD
35.847253333333335,0,0xFD,0xFD
35.848535291666664,0,0xFD,0xFD
35.849878291666670,0,0xFD,0xDC
35.851221291666668,0,0xAB,0xEB
35.852503208333331,0,0x55,0xFC
35.853785166666668,0,0x01,0x0F
35.855067124999998,0,0xAF,0x24
35.856349083333335,0,0x5F,0x3A
35.857631041666664,0,0x11,0x52
35.858913000000001,0,0xC5,0x6C
35.860194958333331,0,0x7A,0x88
35.861537958333336,0,0x31,0xA6
35.862819916666666,0,0xEA,0xFD
35.864101875000003,0,0xFD,0xFD
35.865383791666666,0,0xFD,0xFD
35.866665750000003,0,0xFD,0xFD
35.867947708333332,0,0xFD,0xFD
35.869229666666669,0,0xFD,0xFD
35.870511624999999,0,0xFD,0xFD
35.871854624999997,0,0xFD,0xFD
35.873197625000003,0,0x91,0xFD
35.874479541666666,0,0x84,0x81
35.875761541666670,0,0x83,0x8B
35.877043458333333,0,0x50,0x94
35.878325458333336,0,0x80,0x84
35.879607416666666,0,0x92,0x50
35.880889375000002,0,0x87,0x86
35.882171291666666,0,0x50,0x80
35.883453291666669,0,0x89,0x91
35.884735166666665,0,0x80,0x98
35.886017166666669,0,0x82,0x50
35.887360125000001,0,0x01,0x89
35.888703124999999,0,0xB0,0x01
35.889985125000003,0,0xFF,0xB1
35.891267041666666,0,0x00,0xFF
35.892549000000002,0,0x00,0x00
35.893830958333332,0,0x00,0x00
35.895112875000002,0,0x00,0x00
35.896394833333332,0,0x00,0x00
35.897676833333335,0,0xB0,0x00
35.898958749999998,0,0x00,0xB1
35.900240708333335,0,0x16,0x00
35.901583708333334,0,0x00,0x15
35.902926708333332,0,0x00,0x00
35.904208666666669,0,0x14,0x00
35.905490624999999,0,0x14,0x15
35.906772541666669,0,0x2D,0x15
35.908054499999999,0,0x0A,0x2D
35.909336458333335,0,0x2D,0x21
35.910618416666665,0,0x00,0x27
35.911900375000002,0,0x00,0x00
35.913182333333332,0,0x21,0x00
35.914464291666668,0,0xAF,0x08
35.915746208333331,0,0x00,0x28
35.917089249999997,0,0x00,0x00
35.918432250000002,0,0xCD,0x00
35.919714166666665,0,0x00,0xCA
35.920996125000002,0,0x2C,0x00
35.922278083333332,0,0x00,0x2D
35.923560041666668,0,0x30,0x00
35.924841999999998,0,0x00,0x31
35.926123916666668,0,0x41,0x00
35.927405874999998,0,0x00,0x31
35.928687833333335,0,0x2B,0x00
35.929969791666664,0,0x00,0x2D
35.931312791666670,0,0x32,0x00
35.932655833333335,0,0x90,0x41
35.933937791666665,0,0xD5,0xA9
35.935219708333335,0,0x23,0x45
35.936501624999998,0,0x28,0x23
35.937783583333335,0,0x00,0x1E
35.939065583333331,0,0x00,0x00
35.940347500000001,0,0x06,0x00
35.941629458333331,0,0x00,0x06
35.942911416666668,0,0x16,0x00
35.944193374999998,0,0x00,0x15
35.945475333333334,0,0x0C,0x00
35.946818333333333,0,0x00,0x0C
35.948161333333331,0,0x0A,0x00
35.949443291666668,0,0x00,0x0D
35.950725208333331,0,0x0E,0x00
35.952007166666668,0,0x00,0x0A
35.953289124999998,0,0x0B,0x00
35.954571083333335,0,0x00,0x0B
35.955853041666664,0,0x00,0x00
35.957135000000001,0,0x00,0x00
35.958416958333331,0,0x00,0x00
35.959698916666667,0,0x00,0x00
35.961041916666666,0,0x00,0x00
35.962384916666664,0,0x00,0x00
35.963666833333335,0,0x00,0x00
35.964948791666664,0,0x00,0x00
35.966230750000001,0,0x00,0x00
35.967512708333331,0,0x00,0x00
35.968794666666668,0,0x00,0x00
35.970076624999997,0,0x00,0x00
35.971358583333334,0,0x00,0x00
35.972640499999997,0,0x00,0x00
35.973922458333334,0,0x00,0x00
35.975204416666664,0,0x00,0x00
35.976547416666669,0,0x00,0x00
35.977890416666668,0,0x00,0x00
35.979172374999997,0,0x00,0x00
35.980454333333334,0,0x00,0x00
35.981736291666664,0,0x00,0x00
35.983018250000001,0,0x00,0x00
35.984300166666664,0,0x00,0x00
35.985582125000001,0,0x00,0x00
35.986864083333330,0,0x00,0x00
35.988146041666667,0,0x00,0x00
35.989427999999997,0,0x00,0x00
35.990771000000002,0,0x00,0x00
35.992114000000001,0,0x00,0x00
35.993395958333330,0,0x00,0x00
35.994677916666667,0,0x00,0x00
35.995959833333330,0,0x00,0x00
35.997241791666667,0,0x00,0x00
35.998523749999997,0,0x00,0x00
35.999805708333334,0,0x00,0x00
36.001087666666663,0,0x00,0x00
36.002369625000000,0,0x00,0x00
36.003651583333337,0,0x00,0x00
36.004933541666666,0,0x00,0x00
36.006276499999998,0,0x00,0x00
36.007619499999997,0,0x00,0x00
36.008901458333334,0,0x00,0x00
36.010183416666663,0,0x00,0x00
36.011465375000000,0,0x00,0x00
36.012747333333330,0,0x00,0x00
36.014029291666667,0,0x00,0x00
36.015311250000003,0,0x00,0x00
36.016593208333333,0,0x00,0x00
36.017875125000003,0,0x00,0x00
36.019157083333333,0,0x00,0x00
36.020500083333332,0,0x00,0x00
36.021843083333330,0,0x00,0x00
36.023125041666667,0,0x00,0x00
36.024406999999997,0,0x00,0x00
36.025688958333333,0,0x00,0x00
36.026970916666670,0,0x00,0x00
36.028252875000000,0,0x00,0x00
36.029534791666670,0,0x00,0x00
36.030816750000000,0,0x00,0x00
36.032098708333336,0,0x00,0x00
36.033380666666666,0,0x00,0x00
36.034662625000003,0,0x00,0x00
36.036005625000001,0,0x00,0x00
36.037348625000000,0,0x00,0x00
36.038630583333337,0,0x00,0x00
36.039912541666666,0,0x00,0x00
36.041194458333337,0,0x00,0x00
36.042476416666666,0,0x00,0x00
36.043758375000003,0,0x00,0x00
36.045040333333333,0,0x00,0x00
36.046322291666669,0,0x00,0x00
36.047604249999999,0,0x00,0x00
36.048886208333336,0,0x00,0x00
36.050229208333334,0,0x00,0x00
36.051572208333333,0,0x00,0x00
36.052854125000003,0,0x00,0x00
36.054136083333333,0,0x00,0x00
36.055418041666670,0,0x00,0x00
36.056699999999999,0,0x00,0x00
36.057981958333336,0,0x00,0x00
36.059263916666666,0,0x00,0x00
36.060545875000003,0,0x00,0x00
36.061827791666666,0,0x00,0x00
36.063109750000002,0,0x00,0x00
36.064391708333332,0,0x00,0x00
36.065734708333331,0,0x00,0x00
36.067077708333336,0,0x00,0x00
36.068359666666666,0,0x00,0x00
36.069641625000003,0,0x00,0x00
36.070923583333332,0,0x00,0x00
36.072205541666669,0,0x00,0x00
36.073487458333332,0,0x00,0x00
36.074769416666669,0,0x00,0x00
36.076051374999999,0,0x00,0x00
36.077333333333335,0,0x00,0x00
36.078615291666665,0,0x00,0x00
36.079958291666664,0,0x00,0x00
36.081301291666669,0,0x00,0x00
36.082583249999999,0,0x00,0x00
36.083865208333336,0,0x00,0x00
36.085147124999999,0,0x00,0x00
36.086429083333336,0,0x00,0x00
36.087711041666665,0,0x00,0x00
36.088993000000002,0,0x00,0x00
36.090274958333332,0,0x00,0x00
36.091556916666669,0,0x00,0x00
36.092838874999998,0,0x00,0x00
36.094120833333335,0,0x00,0x00
36.095463791666667,0,0x00,0x00
36.096806791666666,0,0x00,0x00
36.098088750000002,0,0x00,0x00
36.099370708333332,0,0x00,0x00
36.100652666666669,0,0x00,0x00
36.101934624999998,0,0x00,0x00
36.103216583333335,0,0x00,0x00
36.104498541666665,0,0x00,0x00
36.105780500000002,0,0x00,0x00
36.107062416666665,0,0x00,0x00
36.108344375000001,0,0x00,0x00
36.109687375000000,0,0x00,0x00
36.111030374999999,0,0x00,0x00
36.112312333333335,0,0x00,0x00
36.113594291666665,0,0x00,0x00
36.114876250000002,0,0x00,0x00
36.116158208333331,0,0x00,0x00
36.117440166666668,0,0x00,0x00
36.118722083333331,0,0x00,0x00
36.120004041666668,0,0x00,0x00
36.121285999999998,0,0x00,0x00
36.122567958333335,0,0x00,0x00
36.123849916666664,0,0x00,0x00
36.125192916666670,0,0x00,0x00
36.126535916666668,0,0x00,0x00
36.127817874999998,0,0x00,0x00
36.129099833333335,0,0x00,0x00
36.130381749999998,0,0x00,0x00
36.131663708333335,0,0x00,0x00
36.132945666666664,0,0x00,0x00
36.134227625000001,0,0x00,0x00
36.135509583333331,0,0x00,0x00
36.136791541666668,0,0x00,0x00
36.138073499999997,0,0x00,0x00
36.139416500000003,0,0x00,0x00
36.140759458333335,0,0x00,0x00
36.142041416666665,0,0x00,0x00
36.143323375000001,0,0x00,0x00
36.144605333333331,0,0x00,0x00
36.145887291666668,0,0x00,0x00
36.147169249999997,0,0x00,0x00
36.148451208333334,0,0x00,0x00
36.149733166666664,0,0x00,0x00
36.151015083333334,0,0x00,0x00
36.152297041666664,0,0x00,0x00
36.153579000000001,0,0x00,0x00
36.154921999999999,0,0x00,0x00
36.156264999999998,0,0x00,0x00
36.157546958333334,0,0x00,0x00
36.158828916666664,0,0x00,0x00
36.160110875000001,0,0x00,0x00
36.161392833333331,0,0x00,0x00
36.162674750000001,0,0x00,0x00
36.163956708333330,0,0x00,0x00
36.165238666666667,0,0x00,0x00
36.166520624999997,0,0x00,0x00
36.167802583333334,0,0x00,0x00
36.169145583333332,0,0x00,0x00
36.170488583333331,0,0x00,0x00
36.171770541666667,0,0x00,0x00
36.173052499999997,0,0x00,0x00
36.174334416666667,0,0x00,0x00
36.175616374999997,0,0x00,0x00
36.176898333333334,0,0x00,0x00
36.178180291666663,0,0x00,0x00
36.179462250000000,0,0x00,0x00
36.180744208333330,0,0x00,0x00
36.182026166666667,0,0x00,0x00
36.183308083333330,0,0x00,0x00
36.184651083333335,0,0x00,0x00
36.185994083333334,0,0x00,0x00
36.187276041666664,0,0x00,0x00
36.188558000000000,0,0x00,0x00
36.189839958333330,0,0x00,0x00
36.191121916666667,0,0x00,0x00
36.192403874999997,0,0x00,0x00
36.193685833333333,0,0x00,0x00
36.194967750000004,0,0x00,0x00
36.196249708333333,0,0x00,0x00
36.197531666666670,0,0x00,0x00
36.198874666666669,0,0x00,0x00
36.200217666666667,0,0x00,0x00
36.201499624999997,0,0x00,0x00
36.202781583333334,0,0x00,0x00
36.204063541666663,0,0x00,0x00
36.205345500000000,0,0x00,0x00
36.206627416666670,0,0x00,0x00
36.207909375000000,0,0x00,0x00
36.209191333333337,0,0x00,0x00
36.210473291666666,0,0x00,0x00
36.211755250000003,0,0x00,0x00
36.213037208333333,0,0x00,0x00
36.214380208333331,0,0x00,0x00
36.215723208333330,0,0x00,0x00
36.217005166666667,0,0x00,0x00
36.218287083333337,0,0x00,0x00
36.219569041666666,0,0x00,0x00
36.220851000000003,0,0x00,0x00
36.222132958333333,0,0x00,0x00
36.223414916666670,0,0x00,0x00
36.224696874999999,0,0x00,0x00
36.225978833333336,0,0x00,0x00
36.227260791666666,0,0x00,0x00
36.228603791666664,0,0x00,0x00
36.229946750000003,0,0x00,0x00
36.231228708333333,0,0x00,0x00
36.232510666666670,0,0x00,0x00
36.233792625000000,0,0x00,0x00
36.235074583333336,0,0x00,0x00
36.236356541666666,0,0x00,0x00
36.237638500000003,0,0x00,0x00
36.238920458333332,0,0x91,0x00
36.240202416666669,0,0x84,0x81
36.241484374999999,0,0x83,0x8B
36.242766291666669,0,0x50,0x94
36.244109333333334,0,0x80,0x84
36.245452333333333,0,0x92,0x50
36.246734291666669,0,0x87,0x86
36.248016208333333,0,0x50,0x80
36.249298208333336,0,0x89,0x91
36.250580124999999,0,0x80,0x98
36.251862083333336,0,0x82,0x50
36.253144041666665,0,0x00,0x89
36.254425958333336,0,0x00,0x00
36.255707916666665,0,0x00,0x00
36.256989875000002,0,0x00,0x00
36.258332875000001,0,0x00,0x00
36.259675874999999,0,0x00,0x00
36.260957833333336,0,0x00,0x00
36.262239791666666,0,0x00,0x00
36.263521708333336,0,0x00,0x00
36.264803666666666,0,0x00,0x00
36.266085625000002,0,0x00,0x00
36.267367583333332,0,0x00,0x00
36.268649541666669,0,0x00,0x00
36.269931499999998,0,0x00,0x00
36.271213458333335,0,0x00,0x00
36.272495416666665,0,0x00,0x00
36.273838374999997,0,0x00,0x00
36.275181375000003,0,0x00,0x00
36.276463333333332,0,0x00,0x00
36.277745291666669,0,0x00,0x00
36.279027249999999,0,0x00,0x00
36.280309208333335,0,0x00,0x00
36.281591166666665,0,0x00,0x00
36.282873125000002,0,0x00,0x00
36.284155041666665,0,0x00,0x00
36.285437000000002,0,0x00,0x00
36.286718958333331,0,0x00,0x00
36.288061958333330,0,0x00,0x00
36.289404958333336,0,0x00,0x00
36.290686916666665,0,0x00,0x00
36.291968875000002,0,0x00,0x00
36.293250833333332,0,0x00,0x00
36.294532791666668,0,0x00,0x00
36.295814708333332,0,0x00,0x00
36.297096666666668,0,0x00,0x00
36.298378624999998,0,0x00,0x00
36.299660583333335,0,0x00,0x00
36.300942541666664,0,0x00,0x00
36.302224500000001,0,0x00,0x00
36.303567500000000,0,0x00,0x00
36.304910499999998,0,0x00,0x00
36.306192458333335,0,0x00,0x00
36.307474374999998,0,0x00,0x00
36.308756333333335,0,0x00,0x00
36.310038291666665,0,0x00,0x00
36.311320250000001,0,0x00,0x00
36.312602208333331,0,0x00,0x00
36.313884166666668,0,0x00,0x00
36.315166124999998,0,0x00,0x00
36.316448083333334,0,0x00,0x00
36.317791083333333,0,0x00,0x00
36.319134041666665,0,0x00,0x00
36.320416000000002,0,0x00,0x00
36.321697958333331,0,0x00,0x00
36.322979916666668,0,0x00,0x00
36.324261916666664,0,0x82,0x00
36.325543875000001,0,0x87,0x92
36.326825791666664,0,0x80,0x90
36.328107791666667,0,0x91,0x94
36.329389708333331,0,0x8C,0x88
36.330671666666667,0,0x80,0x91
36.331953624999997,0,0x8D,0x93
36.333296583333336,0,0x83,0x8B
36.334639583333335,0,0x84,0x84
36.335921583333331,0,0x91,0x50
36.337203500000001,0,0x50,0x50
36.338485458333331,0,0x00,0x50
36.339767416666668,0,0x00,0x00
36.341049333333331,0,0x00,0x00
36.342331291666667,0,0x00,0x00
36.343613249999997,0,0x00,0x00
36.344895208333334,0,0x00,0x00
36.346177166666664,0,0x00,0x00
36.347520166666669,0,0x00,0x00
36.348863166666668,0,0x00,0x00
36.350145124999997,0,0x00,0x00
36.351427083333334,0,0x00,0x00
36.352708999999997,0,0x00,0x00
36.353990958333334,0,0x00,0x00
36.355272916666664,0,0x00,0x00
36.356554875000000,0,0x00,0x00
36.357836833333330,0,0x00,0x00
36.359118791666667,0,0x00,0x00
36.360400749999997,0,0x00,0x00
36.361682666666667,0,0x00,0x00
36.363025666666665,0,0x00,0x00
36.364368666666664,0,0x00,0x00
36.365650625000001,0,0x00,0x00
36.366932583333330,0,0x00,0x00
36.368214541666667,0,0x00,0x00
36.369496499999997,0,0x00,0x00
36.370778458333334,0,0x00,0x00
36.372060416666663,0,0x00,0x00
36.373342333333333,0,0x00,0x00
36.374624291666670,0,0x00,0x00
36.375906250000000,0,0x00,0x00
36.377249249999998,0,0x00,0x00
36.378592249999997,0,0x00,0x00
36.379874208333334,0,0x00,0x00
36.381156166666663,0,0x00,0x00
36.382438125000000,0,0x00,0x00
36.383720083333330,0,0x00,0x00
36.385002000000000,0,0x00,0x00
36.386283958333337,0,0x00,0x00
36.387565916666667,0,0x00,0x00
36.388847875000003,0,0x00,0x00
36.390129833333333,0,0x00,0x00
36.391411791666670,0,0x00,0x00
36.392754791666668,0,0x00,0x00
36.394097791666667,0,0x00,0x00
36.395379749999996,0,0x00,0x00
36.396661666666667,0,0x00,0x00
36.397943625000003,0,0x00,0x00
36.399225583333333,0,0x00,0x00
36.400507541666670,0,0x00,0x00
36.401789500000000,0,0x00,0x00
36.403071458333336,0,0x00,0x00
36.404353416666666,0,0x00,0x00
36.405635375000003,0,0x00,0x00
36.406978375000001,0,0x00,0x00
36.408321333333333,0,0x00,0x00
36.409603291666670,0,0x48,0x00
36.410885250000000,0,0x00,0x48
36.412167208333337,0,0x00,0x00
36.413510250000002,0,0xFD,0x00
36.414792166666665,0,0xFD,0xFD
36.416074125000002,0,0xFD,0xFD
36.417356083333331,0,0xFD,0xFD
36.418638041666668,0,0xFD,0xFD
36.419919958333331,0,0xFD,0x00
36.421201916666668,0,0x00,0x00
36.422544916666666,0,0x00,0x00
36.423887916666665,0,0x00,0x00
36.425169875000002,0,0x00,0x00
36.426451833333331,0,0x00,0x00
36.427733791666668,0,0x00,0x00
36.429015749999998,0,0x00,0xFF
36.430297708333335,0,0xFF,0xFF
36.431579624999998,0,0xFF,0x00
36.432861583333334,0,0x00,0x00
36.434143541666664,0,0x00,0x00
36.435425500000001,0,0x00,0x00
36.436707458333331,0,0x00,0x00
36.438050458333336,0,0x00,0x00
36.439393458333335,0,0x00,0x00
36.440675416666664,0,0x00,0x00
36.441957333333335,0,0x00,0x00
36.443239291666664,0,0x00,0x00
36.444521250000001,0,0x00,0x00
36.445803208333331,0,0x00,0x00
36.447085166666668,0,0x00,0x00
36.448367124999997,0,0x00,0x00
36.449649083333334,0,0x00,0x00
36.450931041666664,0,0x00,0x00
36.452274041666669,0,0x00,0x00
36.453617000000001,0,0x00,0x00
36.454898958333331,0,0x00,0x00
36.456180916666668,0,0x00,0x00
36.457462874999997,0,0x00,0x00
36.458744833333334,0,0x00,0x00
36.460026791666664,0,0x00,0x00
36.461308750000001,0,0x00,0x00
36.462590708333330,0,0x00,0x00
36.463872625000000,0,0x00,0x00
36.465154583333330,0,0x00,0x00
36.466436541666667,0,0x00,0x00
36.467779541666665,0,0x00,0x00
36.469122541666664,0,0x00,0x00
36.470404500000001,0,0x00,0x00
36.471686458333330,0,0x00,0x00
36.472968416666667,0,0x00,0x00
36.474250374999997,0,0x00,0x00
36.475532291666667,0,0x00,0x00
36.476814249999997,0,0x00,0x00
36.478096208333334,0,0x00,0x00
36.479378166666663,0,0x00,0x00
36.480660125000000,0,0x00,0x00
36.482003124999999,0,0x00,0x00
36.483346124999997,0,0x00,0x00
36.484628083333334,0,0x00,0x00
36.485910041666664,0,0x00,0x00
36.487191958333334,0,0x00,0x00
36.488473916666663,0,0x00,0x00
36.489755875000000,0,0x00,0x00
36.491037833333330,0,0x00,0x00
36.492319791666667,0,0x00,0x00
36.493601750000003,0,0x00,0x00
36.494883708333333,0,0x00,0x00
36.496165666666670,0,0x00,0x00
36.497508625000002,0,0x00,0x00
36.498851625000000,0,0x00,0x00
36.500133583333330,0,0x00,0x00
36.501415541666667,0,0x00,0x00
36.502697499999996,0,0x00,0x00
36.503979458333333,0,0x00,0x00
36.505261416666670,0,0x00,0x00
36.506543375000000,0,0x00,0x00
36.507825291666670,0,0x00,0x00
36.509107250000000,0,0x00,0x00
36.510389208333336,0,0x00,0x00
36.511732208333335,0,0x00,0x00
36.513075208333333,0,0x00,0x00
36.514357166666670,0,0x00,0x00
36.515639125000000,0,0x00,0x00
36.516921083333337,0,0x00,0x00
36.518203041666666,0,0x00,0x00
36.519484958333337,0,0x00,0x00
36.520766916666666,0,0x00,0x00
36.522048875000003,0,0x00,0x00
36.523330833333333,0,0x00,0x00
36.524612791666669,0,0x00,0x00
36.525894749999999,0,0x00,0x00
36.527237749999998,0,0x00,0x00
36.528580750000003,0,0x00,0x00
36.529862708333333,0,0x00,0x00
36.531144625000003,0,0x00,0x00
36.532426583333333,0,0x00,0x00
36.533708541666670,0,0x00,0x00
36.534990499999999,0,0x00,0x00
36.536272458333336,0,0x00,0x00
36.537554416666666,0,0x00,0x00
36.538836375000002,0,0x00,0x00
36.540118333333332,0,0x00,0x00
36.541461333333331,0,0x00,0x00
36.542804291666670,0,0x00,0x00
36.544086249999999,0,0x00,0x00
36.545368208333336,0,0x00,0x00
36.546650166666666,0,0x00,0x00
36.547932125000003,0,0x00,0x00
36.549214083333332,0,0x00,0x00
36.550496041666669,0,0x00,0x00
36.551777999999999,0,0x00,0x00
36.553059916666669,0,0x00,0x00
36.554341874999999,0,0x00,0x00
36.555623833333335,0,0x00,0x00
36.556966833333334,0,0x00,0x00
36.558309833333333,0,0x00,0x00
36.559591791666669,0,0x00,0x00
36.560873749999999,0,0x00,0x00
36.562155708333336,0,0x00,0x00
36.563437666666665,0,0x00,0x00
36.564719583333336,0,0x00,0x00
36.566001541666665,0,0x00,0x00
36.567283500000002,0,0x00,0x00
36.568565458333332,0,0x00,0x00
36.569847416666668,0,0x00,0x00
36.571190416666667,0,0x00,0x00
36.572533416666666,0,0x00,0x00
36.573815375000002,0,0x00,0x00
36.575097333333332,0,0x00,0x00
36.576379250000002,0,0x00,0x00
36.577661208333332,0,0x00,0x00
36.578943166666669,0,0x00,0x00
36.580225124999998,0,0x00,0x00
36.581507083333335,0,0x00,0x00
36.582789041666665,0,0x00,0x00
36.584071000000002,0,0x00,0x00
36.585352916666665,0,0x00,0x00
36.586695916666663,0,0x00,0x00
36.588038916666669,0,0x00,0x00
36.589320874999999,0,0x00,0x00
36.590602833333335,0,0x00,0x00
36.591884791666665,0,0x00,0x00
36.593166750000002,0,0x00,0x00
36.594448708333331,0,0x00,0x00
36.595730666666668,0,0x00,0x00
36.597012583333331,0,0x00,0x00
36.598294541666668,0,0x00,0x00
36.599576499999998,0,0x00,0x00
36.600919500000003,0,0x00,0x00
36.602262500000002,0,0x00,0x00
