name,type,start_time,duration,"mosi","miso"
"SPI SO","result",2.04895017,0.000915625,0x00,0x01
"SPI SI","result",2.04895017,0.000915625,0x02,0x00
"SPI SO","result",2.06555446,0.000915666667,0x00,0x80
"SPI SI","result",2.06555446,0.000915666667,0x02,0x00
"SPI SO","result",2.08380708,0.000915583333,0x00,0x00
"SPI SI","result",2.08380708,0.000915583333,0xFE,0x00
"SPI SO","result",6.50306363,0.000915625,0x00,0x00
"SPI SI","result",6.50306363,0.000915625,0x02,0x00
"SPI SO","result",6.51979004,0.000915625,0x00,0x70
"SPI SI","result",6.51979004,0.000915625,0x02,0x00
"SPI SO","result",6.5365165,0.000915625,0x00,0x70
"SPI SI","result",6.5365165,0.000915625,0xFE,0x00
"SPI SO","result",6.55324292,0.000915625,0x00,0x70
"SPI SI","result",6.55324292,0.000915625,0x02,0x00
"SPI SO","result",6.57003042,0.000915583333,0x00,0x70
"SPI SI","result",6.57003042,0.000915583333,0xFE,0x00
"SPI SO","result",6.58681783,0.000915666667,0x00,0x70
"SPI SI","result",6.58681783,0.000915666667,0x02,0x00
"SPI SO","result",6.60635242,0.000915583333,0x00,0x70
"SPI SI","result",6.60635242,0.000915583333,0xFE,0x00
"SPI SO","result",6.62027071,0.000915625,0x00,0x70
"SPI SI","result",6.62027071,0.000915625,0x02,0x00
"SPI SO","result",6.63699717,0.000915583333,0x00,0x70
"SPI SI","result",6.63699717,0.000915583333,0xFE,0x00
"SPI SO","result",6.65372358,0.000915625,0x00,0x70
"SPI SI","result",6.65372358,0.000915625,0x02,0x00
"SPI SO","result",6.67051108,0.000915583333,0x00,0x70
"SPI SI","result",6.67051108,0.000915583333,0xFE,0x00
"SPI SO","result",6.68723746,0.000915625,0x00,0x70
"SPI SI","result",6.68723746,0.000915625,0x02,0x00
"SPI SO","result",6.70396392,0.000915625,0x00,0x70
"SPI SI","result",6.70396392,0.000915625,0xFE,0x00
"SPI SO","result",6.72069033,0.000915625,0x00,0x70
"SPI SI","result",6.72069033,0.000915625,0x02,0x00
"SPI SO","result",6.73747783,0.000915583333,0x00,0x70
"SPI SI","result",6.73747783,0.000915583333,0xFE,0x00
"SPI SO","result",6.75426525,0.000915666667,0x00,0x70
"SPI SI","result",6.75426525,0.000915666667,0x02,0x00
"SPI SO","result",6.77105275,0.000915625,0x00,0x70
"SPI SI","result",6.77105275,0.000915625,0xFE,0x00
"SPI SO","result",6.78784021,0.000915625,0x00,0x70
"SPI SI","result",6.78784021,0.000915625,0x02,0x00
"SPI SO","result",6.80450563,0.000915583333,0x00,0x70
"SPI SI","result",6.80450563,0.000915583333,0xFE,0x00
"SPI SO","result",6.82123204,0.000915625,0x00,0x70
"SPI SI","result",6.82123204,0.000915625,0x02,0x00
"SPI SO","result",6.83899625,0.000915625,0x00,0x70
"SPI SI","result",6.83899625,0.000915625,0xFE,0x00
"SPI SO","result",6.85474592,0.000915625,0x00,0x70
"SPI SI","result",6.85474592,0.000915625,0x02,0x00
"SPI SO","result",6.87153342,0.000915625,0x00,0x70
"SPI SI","result",6.87153342,0.000915625,0xFE,0x00
"SPI SO","result",6.88832087,0.000915625,0x00,0x70
"SPI SI","result",6.88832087,0.000915625,0x02,0x00
"SPI SO","result",6.90498629,0.000915583333,0x00,0x70
"SPI SI","result",6.90498629,0.000915583333,0xFE,0x00
"SPI SO","result",6.92171267,0.000915666667,0x00,0x70
"SPI SI","result",6.92171267,0.000915666667,0x02,0x00
"SPI SO","result",6.93850017,0.000915625,0x00,0x70
"SPI SI","result",6.93850017,0.000915625,0xFE,0x00
"SPI SO","result",6.95522658,0.000915625,0x00,0x70
"SPI SI","result",6.95522658,0.000915625,0x02,0x00
"SPI SO","result",6.97201408,0.000915625,0x00,0x70
"SPI SI","result",6.97201408,0.000915625,0xFE,0x00
"SPI SO","result",6.9887405,0.000915625,0x00,0x70
"SPI SI","result",6.9887405,0.000915625,0x02,0x00
"SPI SO","result",7.00546696,0.000915583333,0x00,0x70
"SPI SI","result",7.00546696,0.000915583333,0xFE,0x00
"SPI SO","result",7.02219333,0.000915625,0x00,0x70
"SPI SI","result",7.02219333,0.000915625,0x02,0x00
"SPI SO","result",7.03898083,0.000915625,0x00,0x70
"SPI SI","result",7.03898083,0.000915625,0xFE,0x00
"SPI SO","result",7.058088,0.000915625,0x00,0x70
"SPI SI","result",7.058088,0.000915625,0x02,0x00
"SPI SO","result",7.07237267,0.000915583333,0x00,0x70
"SPI SI","result",7.07237267,0.000915583333,0xFE,0x00
"SPI SO","result",7.08909904,0.000915625,0x00,0x70
"SPI SI","result",7.08909904,0.000915625,0x02,0x00
"SPI SO","result",7.10588654,0.000915625,0x00,0x70
"SPI SI","result",7.10588654,0.000915625,0xFE,0x00
"SPI SO","result",7.12261296,0.000915625,0x00,0x70
"SPI SI","result",7.12261296,0.000915625,0x02,0x00
"SPI SO","result",7.13933942,0.000915583333,0x00,0x70
"SPI SI","result",7.13933942,0.000915583333,0xFE,0x00
"SPI SO","result",7.15612683,0.000915666667,0x00,0x70
"SPI SI","result",7.15612683,0.000915666667,0x02,0x00
"SPI SO","result",7.17285329,0.000915625,0x00,0x70
"SPI SI","result",7.17285329,0.000915625,0xFE,0x00
"SPI SO","result",7.18957971,0.000915625,0x00,0x70
"SPI SI","result",7.18957971,0.000915625,0x02,0x00
"SPI SO","result",7.20636721,0.000915583333,0x00,0x70
"SPI SI","result",7.20636721,0.000915583333,0xFE,0x00
"SPI SO","result",7.22315467,0.000915625,0x00,0x70
"SPI SI","result",7.22315467,0.000915625,0x02,0x00
"SPI SO","result",7.23988113,0.000915583333,0x00,0x70
"SPI SI","result",7.23988113,0.000915583333,0xFE,0x00
"SPI SO","result",7.2566075,0.000915625,0x00,0x70
"SPI SI","result",7.2566075,0.000915625,0x02,0x00
"SPI SO","result",7.27345604,0.000915625,0x00,0x70
"SPI SI","result",7.27345604,0.000915625,0xFE,0x00
"SPI SO","result",7.29189171,0.000915666667,0x00,0x70
"SPI SI","result",7.29189171,0.000915666667,0x02,0x00
"SPI SO","result",7.30684787,0.000915583333,0x00,0x70
"SPI SI","result",7.30684787,0.000915583333,0xFE,0x00
"SPI SO","result",7.32363529,0.000915666667,0x00,0x70
"SPI SI","result",7.32363529,0.000915666667,0x02,0x00
"SPI SO","result",7.34030071,0.000915625,0x00,0x70
"SPI SI","result",7.34030071,0.000915625,0xFE,0x00
"SPI SO","result",7.35708817,0.000915625,0x00,0x70
"SPI SI","result",7.35708817,0.000915625,0x02,0x00
"SPI SO","result",7.37381462,0.000915583333,0x00,0x70
"SPI SI","result",7.37381462,0.000915583333,0xFE,0x00
"SPI SO","result",7.390541,0.000915666667,0x00,0x70
"SPI SI","result",7.390541,0.000915666667,0x02,0x00
"SPI SO","result",7.4073285,0.000915625,0x00,0x70
"SPI SI","result",7.4073285,0.000915625,0xFE,0x00
"SPI SO","result",7.42411596,0.000915625,0x00,0x70
"SPI SI","result",7.42411596,0.000915625,0x02,0x00
"SPI SO","result",7.44078138,0.000915625,0x00,0x70
"SPI SI","result",7.44078138,0.000915625,0xFE,0x00
"SPI SO","result",7.45756883,0.000915625,0x00,0x70
"SPI SI","result",7.45756883,0.000915625,0x02,0x00
"SPI SO","result",7.47429529,0.000915583333,0x00,0x70
"SPI SI","result",7.47429529,0.000915583333,0xFE,0x00
"SPI SO","result",7.49108271,0.000915666667,0x00,0x70
"SPI SI","result",7.49108271,0.000915666667,0x02,0x00
"SPI SO","result",7.51018996,0.000915583333,0x00,0x70
"SPI SI","result",7.51018996,0.000915583333,0xFE,0x00
"SPI SO","result",7.52447458,0.000915583333,0x00,0x70
"SPI SI","result",7.52447458,0.000915583333,0xFE,0x00
"SPI SO","result",7.54126204,0.000915583333,0x00,0x70
"SPI SI","result",7.54126204,0.000915583333,0xFE,0x00
"SPI SO","result",7.55798846,0.000915625,0x00,0x70
"SPI SI","result",7.55798846,0.000915625,0xFE,0x00
"SPI SO","result",7.57471487,0.000915625,0x00,0x70
"SPI SI","result",7.57471487,0.000915625,0xFE,0x00
"SPI SO","result",7.59150238,0.000915583333,0x00,0x70
"SPI SI","result",7.59150238,0.000915583333,0xFE,0x00
"SPI SO","result",7.60822879,0.000915625,0x00,0x70
"SPI SI","result",7.60822879,0.000915625,0xFE,0x00
"SPI SO","result",7.62495521,0.000915625,0x00,0x70
"SPI SI","result",7.62495521,0.000915625,0xFE,0x00
"SPI SO","result",7.64174271,0.000915583333,0x00,0x70
"SPI SI","result",7.64174271,0.000915583333,0xFE,0x00
"SPI SO","result",7.65846912,0.000915583333,0x00,0x70
"SPI SI","result",7.65846912,0.000915583333,0xFE,0x00
"SPI SO","result",7.67531762,0.000915625,0x00,0x70
"SPI SI","result",7.67531762,0.000915625,0xFE,0x00
"SPI SO","result",7.69210513,0.000915583333,0x00,0x70
"SPI SI","result",7.69210513,0.000915583333,0xFE,0x00
"SPI SO","result",7.7087705,0.000915583333,0x00,0x70
"SPI SI","result",7.7087705,0.000915583333,0xFE,0x00
"SPI SO","result",7.72549692,0.000915625,0x00,0x70
"SPI SI","result",7.72549692,0.000915625,0xFE,0x00
"SPI SO","result",7.74478725,0.000915625,0x00,0x70
"SPI SI","result",7.74478725,0.000915625,0xFE,0x00
"SPI SO","result",7.75894979,0.000915583333,0x00,0x70
"SPI SI","result",7.75894979,0.000915583333,0xFE,0x00
"SPI SO","result",7.77567621,0.000915583333,0x00,0x70
"SPI SI","result",7.77567621,0.000915583333,0xFE,0x00
"SPI SO","result",7.79246367,0.000915625,0x00,0x70
"SPI SI","result",7.79246367,0.000915625,0xFE,0x00
"SPI SO","result",7.80919012,0.000915583333,0x00,0x70
"SPI SI","result",7.80919012,0.000915583333,0xFE,0x00
"SPI SO","result",7.82591654,0.000915583333,0x00,0x70
"SPI SI","result",7.82591654,0.000915583333,0xFE,0x00
"SPI SO","result",7.84264296,0.000915625,0x00,0x70
"SPI SI","result",7.84264296,0.000915625,0xFE,0x00
"SPI SO","result",7.85943042,0.000915625,0x00,0x70
"SPI SI","result",7.85943042,0.000915625,0xFE,0x00
"SPI SO","result",7.87615688,0.000915583333,0x00,0x70
"SPI SI","result",7.87615688,0.000915583333,0xFE,0x00
"SPI SO","result",7.89294433,0.000915625,0x00,0x70
"SPI SI","result",7.89294433,0.000915625,0xFE,0x00
"SPI SO","result",7.90967075,0.000915625,0x00,0x70
"SPI SI","result",7.90967075,0.000915625,0xFE,0x00
"SPI SO","result",7.92658033,0.000915583333,0x00,0x70
"SPI SI","result",7.92658033,0.000915583333,0xFE,0x00
"SPI SO","result",7.94318467,0.000915583333,0x00,0x70
"SPI SI","result",7.94318467,0.000915583333,0xFE,0x00
"SPI SO","result",7.96235292,0.000915583333,0x00,0x70
"SPI SI","result",7.96235292,0.000915583333,0xFE,0x00
"SPI SO","result",7.97663754,0.000915583333,0x00,0x70
"SPI SI","result",7.97663754,0.000915583333,0xFE,0x00
"SPI SO","result",7.99336396,0.000915583333,0x00,0x70
"SPI SI","result",7.99336396,0.000915583333,0xFE,0x00
"SPI SO","result",8.01015142,0.000915625,0x00,0x70
"SPI SI","result",8.01015142,0.000915625,0xFE,0x00
"SPI SO","result",8.02687783,0.000915625,0x00,0x70
"SPI SI","result",8.02687783,0.000915625,0xFE,0x00
"SPI SO","result",8.04360429,0.000915583333,0x00,0x70
"SPI SI","result",8.04360429,0.000915583333,0xFE,0x00
"SPI SO","result",8.06039175,0.000915583333,0x00,0x70
"SPI SI","result",8.06039175,0.000915583333,0xFE,0x00
"SPI SO","result",8.07711817,0.000915625,0x00,0x70
"SPI SI","result",8.07711817,0.000915625,0xFE,0x00
"SPI SO","result",8.09384462,0.000915583333,0x00,0x70
"SPI SI","result",8.09384462,0.000915583333,0xFE,0x00
"SPI SO","result",8.11063208,0.000915583333,0x00,0x70
"SPI SI","result",8.11063208,0.000915583333,0xFE,0x00
"SPI SO","result",8.1273585,0.000915625,0x00,0x70
"SPI SI","result",8.1273585,0.000915625,0xFE,0x00
"SPI SO","result",8.14414596,0.000915625,0x00,0x70
"SPI SI","result",8.14414596,0.000915625,0xFE,0x00
"SPI SO","result",8.16093346,0.000915583333,0x00,0x70
"SPI SI","result",8.16093346,0.000915583333,0xFE,0x00
"SPI SO","result",8.17765987,0.000915625,0x00,0x70
"SPI SI","result",8.17765987,0.000915625,0xFE,0x00
"SPI SO","result",8.19603454,0.000915583333,0x00,0x70
"SPI SI","result",8.19603454,0.000915583333,0xFE,0x00
"SPI SO","result",8.21111275,0.000915583333,0x00,0x70
"SPI SI","result",8.21111275,0.000915583333,0xFE,0x00
"SPI SO","result",8.22783917,0.000915583333,0x00,0x70
"SPI SI","result",8.22783917,0.000915583333,0xFE,0x00
"SPI SO","result",8.24456558,0.000915625,0x00,0x70
"SPI SI","result",8.24456558,0.000915625,0xFE,0x00
"SPI SO","result",8.26135308,0.000915583333,0x00,0x70
"SPI SI","result",8.26135308,0.000915583333,0xFE,0x00
"SPI SO","result",8.27814054,0.000915583333,0x00,0x70
"SPI SI","result",8.27814054,0.000915583333,0xFE,0x00
"SPI SO","result",8.29480592,0.000915625,0x00,0x70
"SPI SI","result",8.29480592,0.000915625,0xFE,0x00
"SPI SO","result",8.31159337,0.000915625,0x00,0x70
"SPI SI","result",8.31159337,0.000915625,0xFE,0x00
"SPI SO","result",8.32831983,0.000915583333,0x00,0x70
"SPI SI","result",8.32831983,0.000915583333,0xFE,0x00
"SPI SO","result",8.34504621,0.000915625,0x00,0x70
"SPI SI","result",8.34504621,0.000915625,0x00,0x00
"SPI SO","result",8.36183371,0.000915625,0x00,0x70
"SPI SI","result",8.36183371,0.000915625,0x00,0x00
"SPI SO","result",8.37862121,0.000915583333,0x00,0x70
"SPI SI","result",8.37862121,0.000915583333,0xFE,0x00
"SPI SO","result",8.39540867,0.000915625,0x00,0x70
"SPI SI","result",8.39540867,0.000915625,0xFE,0x00
"SPI SO","result",8.41372229,0.000915583333,0x00,0x70
"SPI SI","result",8.41372229,0.000915583333,0xFE,0x00
"SPI SO","result",8.42880046,0.000915625,0x00,0x70
"SPI SI","result",8.42880046,0.000915625,0xFE,0x00
"SPI SO","result",8.44552692,0.000915583333,0x00,0x70
"SPI SI","result",8.44552692,0.000915583333,0xFE,0x00
"SPI SO","result",8.46225333,0.000915583333,0x00,0x70
"SPI SI","result",8.46225333,0.000915583333,0xFE,0x00
"SPI SO","result",8.47910183,0.000915625,0x00,0x70
"SPI SI","result",8.47910183,0.000915625,0xFE,0x00
"SPI SO","result",8.49576725,0.000915583333,0x00,0x70
"SPI SI","result",8.49576725,0.000915583333,0xFE,0x00
"SPI SO","result",8.51249367,0.000915583333,0x00,0x70
"SPI SI","result",8.51249367,0.000915583333,0xFE,0x00
"SPI SO","result",8.52928113,0.000915625,0x00,0x70
"SPI SI","result",8.52928113,0.000915625,0xFE,0x00
"SPI SO","result",8.54600754,0.000915625,0x00,0x70
"SPI SI","result",8.54600754,0.000915625,0xFE,0x00
"SPI SO","result",8.562734,0.000915583333,0x00,0x70
"SPI SI","result",8.562734,0.000915583333,0xFE,0x00
"SPI SO","result",8.5795825,0.000915625,0x00,0x70
"SPI SI","result",8.5795825,0.000915625,0xFE,0x00
"SPI SO","result",8.59624787,0.000915625,0x00,0x70
"SPI SI","result",8.59624787,0.000915625,0xFE,0x00
"SPI SO","result",8.61303538,0.000915583333,0x00,0x70
"SPI SI","result",8.61303538,0.000915583333,0xFE,0x00
"SPI SO","result",8.62982283,0.000915625,0x00,0x70
"SPI SI","result",8.62982283,0.000915625,0xFE,0x00
"SPI SO","result",8.64935733,0.000915625,0x00,0x70
"SPI SI","result",8.64935733,0.000915625,0xFE,0x00
"SPI SO","result",8.66321467,0.000915583333,0x00,0x70
"SPI SI","result",8.66321467,0.000915583333,0xFE,0x00
"SPI SO","result",8.67994108,0.000915583333,0x00,0x70
"SPI SI","result",8.67994108,0.000915583333,0xFE,0x00
"SPI SO","result",8.6966675,0.000915625,0x00,0x70
"SPI SI","result",8.6966675,0.000915625,0xFE,0x00
"SPI SO","result",8.71345496,0.000915625,0x00,0x70
"SPI SI","result",8.71345496,0.000915625,0xFE,0x00
"SPI SO","result",8.73018142,0.000915583333,0x00,0x70
"SPI SI","result",8.73018142,0.000915583333,0xFE,0x00
"SPI SO","result",8.74690783,0.000915583333,0x00,0x70
"SPI SI","result",8.74690783,0.000915583333,0xFE,0x00
"SPI SO","result",8.76369529,0.000915625,0x00,0x70
"SPI SI","result",8.76369529,0.000915625,0xFE,0x00
"SPI SO","result",8.78042175,0.000915583333,0x00,0x70
"SPI SI","result",8.78042175,0.000915583333,0xFE,0x00
"SPI SO","result",8.79720921,0.000915583333,0x00,0x70
"SPI SI","result",8.79720921,0.000915583333,0xFE,0x00
"SPI SO","result",8.81393562,0.000915625,0x00,0x70
"SPI SI","result",8.81393562,0.000915625,0xFE,0x00
"SPI SO","result",8.83078417,0.000915583333,0x00,0x70
"SPI SI","result",8.83078417,0.000915583333,0xFE,0x00
"SPI SO","result",8.84744954,0.000915583333,0x00,0x70
"SPI SI","result",8.84744954,0.000915583333,0xFE,0x00
"SPI SO","result",8.86582421,0.000915583333,0x00,0x70
"SPI SI","result",8.86582421,0.000915583333,0xFE,0x00
"SPI SO","result",8.88090237,0.000915625,0x00,0x70
"SPI SI","result",8.88090237,0.000915625,0xFE,0x00
"SPI SO","result",8.89768987,0.000915583333,0x00,0x70
"SPI SI","result",8.89768987,0.000915583333,0xFE,0x00
"SPI SO","result",8.91441629,0.000915583333,0x00,0x70
"SPI SI","result",8.91441629,0.000915583333,0xFE,0x00
"SPI SO","result",8.93120375,0.000915625,0x00,0x70
"SPI SI","result",8.93120375,0.000915625,0xFE,0x00
"SPI SO","result",8.94786913,0.000915625,0x00,0x70
"SPI SI","result",8.94786913,0.000915625,0xFE,0x00
"SPI SO","result",8.96465662,0.000915583333,0x00,0x70
"SPI SI","result",8.96465662,0.000915583333,0xFE,0x00
"SPI SO","result",8.98138304,0.000915625,0x00,0x70
"SPI SI","result",8.98138304,0.000915625,0xFE,0x00
"SPI SO","result",8.99810946,0.000915625,0x00,0x70
"SPI SI","result",8.99810946,0.000915625,0xFE,0x00
"SPI SO","result",9.01489696,0.000915583333,0x00,0x70
"SPI SI","result",9.01489696,0.000915583333,0xFE,0x00
"SPI SO","result",9.03168442,0.000915625,0x00,0x70
"SPI SI","result",9.03168442,0.000915625,0xFE,0x00
"SPI SO","result",9.04847188,0.000915625,0x00,0x70
"SPI SI","result",9.04847188,0.000915625,0xFE,0x00
"SPI SO","result",9.06513729,0.000915583333,0x00,0x70
"SPI SI","result",9.06513729,0.000915583333,0xFE,0x00
"SPI SO","result",9.08186371,0.000915583333,0x00,0x70
"SPI SI","result",9.08186371,0.000915583333,0xFE,0x00
"SPI SO","result",9.10097092,0.000915583333,0x00,0x70
"SPI SI","result",9.10097092,0.000915583333,0xFE,0x00
"SPI SO","result",9.11531654,0.000915625,0x00,0x70
"SPI SI","result",9.11531654,0.000915625,0xFE,0x00
"SPI SO","result",9.132043,0.000915583333,0x00,0x70
"SPI SI","result",9.132043,0.000915583333,0xFE,0x00
"SPI SO","result",9.14883046,0.000915625,0x00,0x70
"SPI SI","result",9.14883046,0.000915625,0xFE,0x00
"SPI SO","result",9.16555688,0.000915625,0x00,0x70
"SPI SI","result",9.16555688,0.000915625,0xFE,0x00
"SPI SO","result",9.18228333,0.000915583333,0x00,0x70
"SPI SI","result",9.18228333,0.000915583333,0xFE,0x00
"SPI SO","result",9.19907079,0.000915583333,0x00,0x70
"SPI SI","result",9.19907079,0.000915583333,0xFE,0x00
"SPI SO","result",9.21579721,0.000915625,0x00,0x70
"SPI SI","result",9.21579721,0.000915625,0xFE,0x00
"SPI SO","result",9.23252363,0.000915625,0x00,0x70
"SPI SI","result",9.23252363,0.000915625,0xFE,0x00
"SPI SO","result",9.24931113,0.000915583333,0x00,0x70
"SPI SI","result",9.24931113,0.000915583333,0xFE,0x00
"SPI SO","result",9.26603754,0.000915625,0x00,0x70
"SPI SI","result",9.26603754,0.000915625,0xFE,0x00
"SPI SO","result",9.28294712,0.000915583333,0x00,0x70
"SPI SI","result",9.28294712,0.000915583333,0xFE,0x00
"SPI SO","result",9.29955146,0.000915583333,0x00,0x70
"SPI SI","result",9.29955146,0.000915583333,0xFE,0x00
"SPI SO","result",9.31798713,0.000915625,0x00,0x70
"SPI SI","result",9.31798713,0.000915625,0xFE,0x00
"SPI SO","result",9.33306533,0.000915625,0x00,0x70
"SPI SI","result",9.33306533,0.000915625,0xFE,0x00
"SPI SO","result",9.34979179,0.000915583333,0x00,0x70
"SPI SI","result",9.34979179,0.000915583333,0xFE,0x00
"SPI SO","result",9.36651821,0.000915583333,0x00,0x70
"SPI SI","result",9.36651821,0.000915583333,0xFE,0x00
"SPI SO","result",9.38336671,0.000915625,0x00,0x70
"SPI SI","result",9.38336671,0.000915625,0xFE,0x00
"SPI SO","result",9.40003208,0.000915625,0x00,0x70
"SPI SI","result",9.40003208,0.000915625,0xFE,0x00
"SPI SO","result",9.41675854,0.000915583333,0x00,0x70
"SPI SI","result",9.41675854,0.000915583333,0xFE,0x00
"SPI SO","result",9.43348496,0.000915583333,0x00,0x70
"SPI SI","result",9.43348496,0.000915583333,0xFE,0x00
"SPI SO","result",9.45027242,0.000915625,0x00,0x70
"SPI SI","result",9.45027242,0.000915625,0xFE,0x00
"SPI SO","result",9.46699887,0.000915583333,0x00,0x70
"SPI SI","result",9.46699887,0.000915583333,0xFE,0x00
"SPI SO","result",9.48378633,0.000915583333,0x00,0x70
"SPI SI","result",9.48378633,0.000915583333,0xFE,0x00
"SPI SO","result",9.50051275,0.000915625,0x00,0x70
"SPI SI","result",9.50051275,0.000915625,0xFE,0x00
"SPI SO","result",9.51736129,0.000915583333,0x00,0x70
"SPI SI","result",9.51736129,0.000915583333,0xFE,0x00
"SPI SO","result",9.53402667,0.000915583333,0x00,0x70
"SPI SI","result",9.53402667,0.000915583333,0xFE,0x00
"SPI SO","result",9.55411058,0.000915583333,0x00,0x70
"SPI SI","result",9.55411058,0.000915583333,0xFE,0x00
"SPI SO","result",9.5674795,0.000915625,0x00,0x70
"SPI SI","result",9.5674795,0.000915625,0xFE,0x00
"SPI SO","result",9.58420596,0.000915583333,0x00,0x70
"SPI SI","result",9.58420596,0.000915583333,0xFE,0x00
"SPI SO","result",9.60093237,0.000915583333,0x00,0x70
"SPI SI","result",9.60093237,0.000915583333,0xFE,0x00
"SPI SO","result",9.61771983,0.000915625,0x00,0x70
"SPI SI","result",9.61771983,0.000915625,0xFE,0x00
"SPI SO","result",9.63444625,0.000915625,0x00,0x70
"SPI SI","result",9.63444625,0.000915625,0xFE,0x00
"SPI SO","result",9.65117271,0.000915583333,0x00,0x70
"SPI SI","result",9.65117271,0.000915583333,0xFE,0x00
"SPI SO","result",9.66796017,0.000915625,0x00,0x70
"SPI SI","result",9.66796017,0.000915625,0xFE,0x00
"SPI SO","result",9.68468658,0.000915625,0x00,0x70
"SPI SI","result",9.68468658,0.000915625,0xFE,0x00
"SPI SO","result",9.70147408,0.000915583333,0x00,0x70
"SPI SI","result",9.70147408,0.000915583333,0xFE,0x00
"SPI SO","result",9.7182005,0.000915583333,0x00,0x70
"SPI SI","result",9.7182005,0.000915583333,0xFE,0x00
"SPI SO","result",9.735049,0.000915625,0x00,0x70
"SPI SI","result",9.735049,0.000915625,0xFE,0x00
"SPI SO","result",9.75177546,0.000915583333,0x00,0x70
"SPI SI","result",9.75177546,0.000915583333,0xFE,0x00
"SPI SO","result",9.77094371,0.000915583333,0x00,0x70
"SPI SI","result",9.77094371,0.000915583333,0xFE,0x00
"SPI SO","result",9.78516725,0.000915625,0x00,0x70
"SPI SI","result",9.78516725,0.000915625,0xFE,0x00
"SPI SO","result",9.80189367,0.000915625,0x00,0x70
"SPI SI","result",9.80189367,0.000915625,0xFE,0x00
"SPI SO","result",9.81862013,0.000915583333,0x00,0x70
"SPI SI","result",9.81862013,0.000915583333,0xFE,0x00
"SPI SO","result",9.83540758,0.000915625,0x00,0x70
"SPI SI","result",9.83540758,0.000915625,0xFE,0x00
"SPI SO","result",9.852134,0.000915625,0x00,0x70
"SPI SI","result",9.852134,0.000915625,0xFE,0x00
"SPI SO","result",9.86886046,0.000915583333,0x00,0x70
"SPI SI","result",9.86886046,0.000915583333,0xFE,0x00
"SPI SO","result",9.88564792,0.000915583333,0x00,0x70
"SPI SI","result",9.88564792,0.000915583333,0xFE,0x00
"SPI SO","result",9.90237433,0.000915625,0x00,0x70
"SPI SI","result",9.90237433,0.000915625,0xFE,0x00
"SPI SO","result",9.91916183,0.000915583333,0x00,0x70
"SPI SI","result",9.91916183,0.000915583333,0xFE,0x00
"SPI SO","result",9.93588825,0.000915583333,0x00,0x70
"SPI SI","result",9.93588825,0.000915583333,0xFE,0x00
"SPI SO","result",9.95267571,0.000915625,0x00,0x70
"SPI SI","result",9.95267571,0.000915625,0xFE,0x00
"SPI SO","result",9.96940213,0.000915625,0x00,0x70
"SPI SI","result",9.96940213,0.000915625,0xFE,0x00
"SPI SO","result",9.98625067,0.000915583333,0x00,0x70
"SPI SI","result",9.98625067,0.000915583333,0xFE,0x00
"SPI SO","result",10.0053579,0.000915583333,0x00,0x70
"SPI SI","result",10.0053579,0.000915583333,0xFE,0x00
"SPI SO","result",10.0195814,0.000915625,0x00,0x70
"SPI SI","result",10.0195814,0.000915625,0xFE,0x00
"SPI SO","result",10.0363078,0.000915625,0x00,0x70
"SPI SI","result",10.0363078,0.000915625,0xFE,0x00
"SPI SO","result",10.0530953,0.000915583333,0x00,0x70
"SPI SI","result",10.0530953,0.000915583333,0xFE,0x00
"SPI SO","result",10.0698217,0.000915625,0x00,0x70
"SPI SI","result",10.0698217,0.000915625,0xFE,0x00
"SPI SO","result",10.0865482,0.000915625,0x00,0x70
"SPI SI","result",10.0865482,0.000915625,0xFE,0x00
"SPI SO","result",10.1033357,0.000915583333,0x00,0x70
"SPI SI","result",10.1033357,0.000915583333,0xFE,0x00
"SPI SO","result",10.1200621,0.000915583333,0x00,0x70
"SPI SI","result",10.1200621,0.000915583333,0xFE,0x00
"SPI SO","result",10.1367885,0.000915625,0x00,0x70
"SPI SI","result",10.1367885,0.000915625,0xFE,0x00
"SPI SO","result",10.153576,0.000915583333,0x00,0x70
"SPI SI","result",10.153576,0.000915583333,0xFE,0x00
"SPI SO","result",10.1703024,0.000915583333,0x00,0x70
"SPI SI","result",10.1703024,0.000915583333,0xFE,0x00
"SPI SO","result",10.1870899,0.000915625,0x00,0x70
"SPI SI","result",10.1870899,0.000915625,0xFE,0x00
"SPI SO","result",10.2038163,0.000915625,0x00,0x70
"SPI SI","result",10.2038163,0.000915625,0xFE,0x00
"SPI SO","result",10.2233508,0.000915583333,0x00,0x70
"SPI SI","result",10.2233508,0.000915583333,0xFE,0x00
"SPI SO","result",10.2372692,0.000915625,0x00,0x70
"SPI SI","result",10.2372692,0.000915625,0xFE,0x00
"SPI SO","result",10.2539956,0.000915625,0x00,0x70
"SPI SI","result",10.2539956,0.000915625,0xFE,0x00
"SPI SO","result",10.2707831,0.000915583333,0x00,0x70
"SPI SI","result",10.2707831,0.000915583333,0xFE,0x00
"SPI SO","result",10.2875095,0.000915583333,0x00,0x70
"SPI SI","result",10.2875095,0.000915583333,0xFE,0x00
"SPI SO","result",10.3042359,0.000915625,0x00,0x70
"SPI SI","result",10.3042359,0.000915625,0xFE,0x00
"SPI SO","result",10.3210234,0.000915625,0x00,0x70
"SPI SI","result",10.3210234,0.000915625,0xFE,0x00
"SPI SO","result",10.3377498,0.000915583333,0x00,0x70
"SPI SI","result",10.3377498,0.000915583333,0xFE,0x00
"SPI SO","result",10.3544762,0.000915625,0x00,0x70
"SPI SI","result",10.3544762,0.000915625,0xFE,0x00
"SPI SO","result",10.3712637,0.000915625,0x00,0x70
"SPI SI","result",10.3712637,0.000915625,0xFE,0x00
"SPI SO","result",10.3880512,0.000915583333,0x00,0x70
"SPI SI","result",10.3880512,0.000915583333,0xFE,0x00
"SPI SO","result",10.4048387,0.000915625,0x00,0x70
"SPI SI","result",10.4048387,0.000915625,0xFE,0x00
"SPI SO","result",10.421504,0.000915625,0x00,0x70
"SPI SI","result",10.421504,0.000915625,0xFE,0x00
