Time [s],Packet ID,MOSI,MISO
2.048950166666667,0,0x02,0x01
2.065554458333333,0,0x02,0x00
2.083807083333333,0,0xFE,0x00
6.503063625000000,0,0x02,0x00
6.519790041666667,0,0x02,0x60
6.536516500000000,0,0xFE,0x60
6.553242916666667,0,0x02,0x60
6.570030416666667,0,0xFE,0x60
6.586817833333333,0,0x02,0x60
6.606352416666667,0,0xFE,0x60
6.620270708333333,0,0x02,0x60
6.636997166666666,0,0xFE,0x60
6.653723583333333,0,0x02,0x60
6.670511083333333,0,0xFE,0x60
6.687237458333334,0,0x02,0x60
6.703963916666667,0,0xFE,0x60
6.720690333333334,0,0x02,0x60
6.737477833333333,0,0xFE,0x60
6.754265250000000,0,0x02,0x60
6.771052750000000,0,0xFE,0x60
6.787840208333333,0,0x02,0x60
6.804505625000000,0,0xFE,0x60
6.821232041666667,0,0x02,0x60
6.838996250000000,0,0xFE,0x60
6.854745916666666,0,0x02,0x60
6.871533416666667,0,0xFE,0x60
6.888320875000000,0,0x02,0x60
6.904986291666667,0,0xFE,0x60
6.921712666666667,0,0x02,0x60
6.938500166666667,0,0xFE,0x60
6.955226583333333,0,0x02,0x60
6.972014083333334,0,0xFE,0x60
6.988740500000000,0,0x02,0x60
7.005466958333334,0,0xFE,0x60
7.022193333333333,0,0x02,0x60
7.038980833333333,0,0xFE,0x60
7.058088000000000,0,0x02,0x60
7.072372666666666,0,0xFE,0x60
7.089099041666667,0,0x02,0x60
7.105886541666667,0,0xFE,0x60
7.122612958333334,0,0x02,0x60
7.139339416666667,0,0xFE,0x60
7.156126833333333,0,0x02,0x60
7.172853291666667,0,0xFE,0x60
7.189579708333333,0,0x02,0x60
7.206367208333333,0,0xFE,0x60
7.223154666666667,0,0x02,0x60
7.239881125000000,0,0xFE,0x60
7.256607500000000,0,0x02,0x60
7.273456041666667,0,0xFE,0x60
7.291891708333333,0,0x02,0x60
7.306847875000000,0,0xFE,0x60
7.323635291666666,0,0x02,0x60
7.340300708333333,0,0xFE,0x60
7.357088166666666,0,0x02,0x60
7.373814625000000,0,0xFE,0x60
7.390541000000000,0,0x02,0x60
7.407328500000000,0,0xFE,0x60
7.424115958333333,0,0x02,0x60
7.440781375000000,0,0xFE,0x60
7.457568833333333,0,0x02,0x60
7.474295291666667,0,0xFE,0x60
7.491082708333333,0,0x02,0x60
7.510189958333333,0,0xFE,0x60
7.524474583333333,0,0xFE,0x60
7.541262041666666,0,0xFE,0x60
7.557988458333333,0,0xFE,0x60
7.574714875000000,0,0xFE,0x60
7.591502375000000,0,0xFE,0x60
7.608228791666667,0,0xFE,0x60
7.624955208333334,0,0xFE,0x60
7.641742708333333,0,0xFE,0x60
7.658469125000000,0,0xFE,0x60
7.675317625000000,0,0xFE,0x60
7.692105125000000,0,0xFE,0x60
7.708770500000000,0,0xFE,0x60
7.725496916666667,0,0xFE,0x60
7.744787250000000,0,0xFE,0x60
7.758949791666667,0,0xFE,0x60
7.775676208333334,0,0xFE,0x60
7.792463666666666,0,0xFE,0x60
7.809190125000000,0,0xFE,0x60
7.825916541666667,0,0xFE,0x60
7.842642958333333,0,0xFE,0x60
7.859430416666667,0,0xFE,0x60
7.876156875000000,0,0xFE,0x60
7.892944333333333,0,0xFE,0x60
7.909670750000000,0,0xFE,0x60
7.926580333333333,0,0xFE,0x60
7.943184666666666,0,0xFE,0x60
7.962352916666666,0,0xFE,0x60
7.976637541666666,0,0xFE,0x60
7.993363958333333,0,0xFE,0x60
8.010151416666666,0,0xFE,0x60
8.026877833333334,0,0xFE,0x60
8.043604291666666,0,0xFE,0x60
8.060391750000001,0,0xFE,0x60
8.077118166666667,0,0xFE,0x60
8.093844624999999,0,0xFE,0x60
8.110632083333334,0,0xFE,0x60
8.127358500000000,0,0xFE,0x60
8.144145958333333,0,0xFE,0x60
8.160933458333334,0,0xFE,0x60
8.177659875000000,0,0xFE,0x60
8.196034541666666,0,0xFE,0x60
8.211112750000000,0,0xFE,0x60
8.227839166666667,0,0xFE,0x60
8.244565583333333,0,0xFE,0x60
8.261353083333333,0,0xFE,0x60
8.278140541666666,0,0xFE,0x60
8.294805916666666,0,0xFE,0x60
8.311593374999999,0,0xFE,0x60
8.328319833333333,0,0xFE,0x60
8.345046208333333,0,0x00,0x60
8.361833708333334,0,0x00,0x60
8.378621208333334,0,0xFE,0x60
8.395408666666667,0,0xFE,0x60
8.413722291666666,0,0xFE,0x60
8.428800458333333,0,0xFE,0x60
8.445526916666667,0,0xFE,0x60
8.462253333333333,0,0xFE,0x60
8.479101833333333,0,0xFE,0x60
8.495767250000000,0,0xFE,0x60
8.512493666666666,0,0xFE,0x60
8.529281125000001,0,0xFE,0x60
8.546007541666667,0,0xFE,0x60
8.562734000000001,0,0xFE,0x60
8.579582500000001,0,0xFE,0x60
8.596247875000000,0,0xFE,0x60
8.613035375000001,0,0xFE,0x60
8.629822833333334,0,0xFE,0x60
8.649357333333333,0,0xFE,0x60
8.663214666666667,0,0xFE,0x60
8.679941083333333,0,0xFE,0x60
8.696667500000000,0,0xFE,0x60
8.713454958333333,0,0xFE,0x60
8.730181416666667,0,0xFE,0x60
8.746907833333333,0,0xFE,0x60
8.763695291666666,0,0xFE,0x60
8.780421750000000,0,0xFE,0x60
8.797209208333333,0,0xFE,0x60
8.813935624999999,0,0xFE,0x60
8.830784166666668,0,0xFE,0x60
8.847449541666666,0,0xFE,0x60
8.865824208333333,0,0xFE,0x60
8.880902375000000,0,0xFE,0x60
8.897689874999999,0,0xFE,0x60
8.914416291666667,0,0xFE,0x60
8.931203750000000,0,0xFE,0x60
8.947869125000000,0,0xFE,0x60
8.964656625000000,0,0xFE,0x60
8.981383041666666,0,0xFE,0x60
8.998109458333333,0,0xFE,0x60
9.014896958333333,0,0xFE,0x60
9.031684416666666,0,0xFE,0x60
9.048471875000001,0,0xFE,0x60
9.065137291666666,0,0xFE,0x60
9.081863708333334,0,0xFE,0x60
9.100970916666666,0,0xFE,0x60
9.115316541666667,0,0xFE,0x60
9.132042999999999,0,0xFE,0x60
9.148830458333334,0,0xFE,0x60
9.165556875000000,0,0xFE,0x60
9.182283333333332,0,0xFE,0x60
9.199070791666667,0,0xFE,0x60
9.215797208333333,0,0xFE,0x60
9.232523625000001,0,0xFE,0x60
9.249311125000000,0,0xFE,0x60
9.266037541666666,0,0xFE,0x60
9.282947125000000,0,0xFE,0x60
9.299551458333333,0,0xFE,0x60
9.317987125000000,0,0xFE,0x60
9.333065333333334,0,0xFE,0x60
9.349791791666666,0,0xFE,0x60
9.366518208333334,0,0xFE,0x60
9.383366708333334,0,0xFE,0x60
9.400032083333333,0,0xFE,0x60
9.416758541666667,0,0xFE,0x60
9.433484958333333,0,0xFE,0x60
9.450272416666667,0,0xFE,0x60
9.466998875000000,0,0xFE,0x60
9.483786333333333,0,0xFE,0x60
9.500512750000000,0,0xFE,0x60
9.517361291666667,0,0xFE,0x60
9.534026666666668,0,0xFE,0x60
9.554110583333333,0,0xFE,0x60
9.567479499999999,0,0xFE,0x60
9.584205958333333,0,0xFE,0x60
9.600932374999999,0,0xFE,0x60
9.617719833333334,0,0xFE,0x60
9.634446250000000,0,0xFE,0x60
9.651172708333334,0,0xFE,0x60
9.667960166666667,0,0xFE,0x60
9.684686583333333,0,0xFE,0x60
9.701474083333334,0,0xFE,0x60
9.718200500000000,0,0xFE,0x60
9.735049000000000,0,0xFE,0x60
9.751775458333332,0,0xFE,0x60
9.770943708333334,0,0xFE,0x60
9.785167250000001,0,0xFE,0x60
9.801893666666667,0,0xFE,0x60
9.818620125000001,0,0xFE,0x60
9.835407583333334,0,0xFE,0x60
9.852134000000000,0,0xFE,0x60
9.868860458333334,0,0xFE,0x60
9.885647916666667,0,0xFE,0x60
9.902374333333333,0,0xFE,0x60
9.919161833333334,0,0xFE,0x60
9.935888250000000,0,0xFE,0x60
9.952675708333333,0,0xFE,0x60
9.969402125000000,0,0xFE,0x60
9.986250666666667,0,0xFE,0x60
10.005357875000000,0,0xFE,0x60
10.019581416666666,0,0xFE,0x60
10.036307833333334,0,0xFE,0x60
10.053095333333333,0,0xFE,0x60
10.069821749999999,0,0xFE,0x60
10.086548166666667,0,0xFE,0x60
10.103335666666666,0,0xFE,0x60
10.120062083333334,0,0xFE,0x60
10.136788500000000,0,0xFE,0x60
10.153575999999999,0,0xFE,0x60
10.170302416666667,0,0xFE,0x60
10.187089875000000,0,0xFE,0x60
10.203816291666667,0,0xFE,0x60
10.223350833333333,0,0xFE,0x60
10.237269166666668,0,0xFE,0x60
10.253995583333333,0,0xFE,0x60
10.270783083333333,0,0xFE,0x60
10.287509500000001,0,0xFE,0x60
10.304235916666666,0,0xFE,0x60
10.321023374999999,0,0xFE,0x60
10.337749833333334,0,0xFE,0x60
10.354476249999999,0,0xFE,0x60
10.371263708333334,0,0xFE,0x60
10.388051208333334,0,0xFE,0x60
10.404838666666667,0,0xFE,0x60
10.421504041666667,0,0xFE,0x60
10.438291541666667,0,0xFE,0x60
10.455994666666667,0,0xFE,0x60
10.471744375000000,0,0xFE,0x60
10.488592916666667,0,0xFE,0x60
10.505319333333333,0,0xFE,0x60
10.521984708333333,0,0xFE,0x60
10.538711125000001,0,0xFE,0x60
10.555559666666667,0,0xFE,0x60
10.572225041666666,0,0xFE,0x60
10.589073541666666,0,0xFE,0x60
10.605800000000000,0,0xFE,0x60
10.622465375000001,0,0xFE,0x60
10.639191791666667,0,0xFE,0x60
10.656040291666667,0,0xFE,0x60
10.675208541666667,0,0xFE,0x60
10.689432125000000,0,0xFE,0x60
10.706158541666667,0,0xFE,0x60
10.722885000000000,0,0xFE,0x60
10.739672458333333,0,0xFE,0x60
10.756398875000000,0,0xFE,0x60
10.773125291666666,0,0xFE,0x60
10.789851750000000,0,0xFE,0x60
10.806639208333333,0,0xFE,0x60
10.823365624999999,0,0xFE,0x60
10.840214166666666,0,0xFE,0x60
10.856879541666666,0,0xFE,0x60
10.873666999999999,0,0xFE,0x60
10.890454500000001,0,0xFE,0x60
10.908768083333333,0,0xFE,0x60
10.923846291666667,0,0xFE,0x60
10.940694791666667,0,0xFE,0x60
10.957360208333334,0,0xFE,0x60
10.974086625000000,0,0xFE,0x60
10.990874083333333,0,0xFE,0x60
11.007600541666667,0,0xFE,0x60
11.024326958333333,0,0xFE,0x60
11.041175458333333,0,0xFE,0x60
11.057840833333334,0,0xFE,0x60
11.074567291666666,0,0xFE,0x60
11.091354750000001,0,0xFE,0x60
11.108081166666667,0,0xFE,0x60
11.127188374999999,0,0xFE,0x60
11.141534041666667,0,0xFE,0x60
11.158260458333332,0,0xFE,0x60
11.175047916666667,0,0xFE,0x60
11.191774375000000,0,0xFE,0x60
11.208500791666667,0,0xFE,0x60
11.225288250000000,0,0xFE,0x60
11.242014708333333,0,0xFE,0x60
11.258741125000000,0,0xFE,0x60
11.275528583333333,0,0xFE,0x60
11.292316083333333,0,0xFE,0x60
11.309103541666667,0,0xFE,0x60
11.325768916666666,0,0xFE,0x60
11.342495333333334,0,0xFE,0x60
11.361846708333333,0,0xFE,0x60
11.375948208333334,0,0xFE,0x60
11.392735666666667,0,0xFE,0x60
11.409462083333333,0,0xFE,0x60
11.426188541666667,0,0xFE,0x60
11.442976000000000,0,0xFE,0x60
11.459702416666667,0,0xFE,0x60
11.476428875000000,0,0xFE,0x60
11.493216333333333,0,0xFE,0x60
11.509942750000000,0,0xFE,0x60
11.526730250000000,0,0xFE,0x60
11.543578750000000,0,0xFE,0x60
11.560244125000001,0,0xFE,0x60
11.578618791666667,0,0xFE,0x60
11.593697000000001,0,0xFE,0x60
11.610423416666666,0,0xFE,0x60
11.627149833333334,0,0xFE,0x60
11.643998375000001,0,0xFE,0x60
11.660663749999999,0,0xFE,0x60
11.677390166666667,0,0xFE,0x60
11.694177625000000,0,0xFE,0x60
11.710904083333334,0,0xFE,0x60
11.727630500000000,0,0xFE,0x60
11.744479000000000,0,0xFE,0x60
11.761144416666667,0,0xFE,0x60
11.777992916666667,0,0xFE,0x60
11.794658291666666,0,0xFE,0x60
11.813032958333334,0,0xFE,0x60
11.828111166666666,0,0xFE,0x60
11.844959666666666,0,0xFE,0x60
11.861625041666667,0,0xFE,0x60
11.878351500000001,0,0xFE,0x60
11.895077916666667,0,0xFE,0x60
11.911865375000000,0,0xFE,0x60
11.928591833333334,0,0xFE,0x60
11.945379291666667,0,0xFE,0x60
11.962105708333333,0,0xFE,0x60
11.978832125000000,0,0xFE,0x60
11.995619625000000,0,0xFE,0x60
12.012407083333333,0,0xFE,0x60
12.030720708333334,0,0xFE,0x60
12.045859958333333,0,0xFE,0x60
12.062586375000000,0,0xFE,0x60
12.079312791666666,0,0xFE,0x60
12.096039208333334,0,0xFE,0x60
12.112826708333333,0,0xFE,0x60
12.129553124999999,0,0xFE,0x60
12.146340583333334,0,0xFE,0x60
12.163005999999999,0,0xFE,0x60
12.179793458333334,0,0xFE,0x60
12.196519875000000,0,0xFE,0x60
12.213307374999999,0,0xFE,0x60
12.230033791666667,0,0xFE,0x60
12.246943333333334,0,0xFE,0x60
12.266294708333334,0,0xFE,0x60
12.280213083333333,0,0xFE,0x60
12.297000541666666,0,0xFE,0x60
12.313726958333334,0,0xFE,0x60
12.330453374999999,0,0xFE,0x60
12.347179833333334,0,0xFE,0x60
12.363967291666667,0,0xFE,0x60
12.380693708333334,0,0xFE,0x60
12.397420166666667,0,0xFE,0x60
12.414207625000000,0,0xFE,0x60
12.430934041666667,0,0xFE,0x60
12.447721500000000,0,0x60,0x60
12.464509000000000,0,0xFE,0x60
12.497961833333333,0,0x60,0x60
12.514627208333334,0,0x60,0x60
12.531414666666667,0,0x60,0x60
12.548141125000001,0,0x60,0x60
12.564867541666667,0,0x60,0x60
12.581655000000000,0,0x60,0x60
12.598442458333333,0,0x60,0x60
12.615107875000000,0,0x60,0x60
12.631895333333333,0,0x60,0x60
12.648621750000000,0,0x00,0x60
12.665409250000000,0,0x00,0x60
12.682074625000000,0,0x00,0x00
12.698923125000000,0,0x00,0x00
12.717969291666666,0,0x00,0x00
12.732314958333333,0,0x00,0x00
12.749041374999999,0,0x00,0x00
12.765767791666667,0,0x00,0x00
12.782494208333333,0,0x00,0x00
12.799281708333334,0,0x00,0x00
12.816008166666666,0,0xFE,0x00
13.417915375000000,0,0xFE,0x00
13.434641833333334,0,0xD0,0xD0
13.451429291666667,0,0xD0,0xD0
13.468155708333333,0,0x00,0xD0
13.535122458333333,0,0xFE,0x00
13.551848916666666,0,0xD0,0xD0
13.568636375000001,0,0xD0,0xD0
13.585423833333333,0,0x00,0xD0
13.652329541666667,0,0xFE,0x00
13.669117041666667,0,0xD0,0xD0
13.685843458333334,0,0xD0,0xD0
13.702630916666667,0,0x00,0xD0
13.769597666666666,0,0xFE,0x00
13.786324125000000,0,0xD0,0xD0
13.803172625000000,0,0xD0,0xD0
13.819838000000001,0,0x00,0xD0
13.886865791666667,0,0xFE,0x00
13.903592250000001,0,0xD0,0xD0
13.920318666666667,0,0xD0,0xD0
13.937106125000000,0,0x00,0xD0
14.004072875000000,0,0xFE,0x00
14.020799333333333,0,0xD0,0xD0
14.037586791666667,0,0xD0,0xD0
14.054252166666666,0,0x00,0xD0
14.121218916666667,0,0xFE,0x00
14.137945374999999,0,0xD0,0xD0
14.154671791666667,0,0xD0,0xD0
14.171459250000000,0,0x00,0xD0
14.238426000000000,0,0xFE,0x00
14.255274541666667,0,0xD0,0xD0
14.272062041666667,0,0xD0,0xD0
14.290375583333333,0,0x00,0xD0
14.355755208333333,0,0xFE,0x00
14.372420583333334,0,0xD0,0xD0
14.389146999999999,0,0xD0,0xD0
14.405873416666667,0,0x00,0xD0
14.472901208333333,0,0xFE,0x00
14.489627666666667,0,0xD0,0xD0
14.506476208333334,0,0xD0,0xD0
14.524789750000000,0,0x00,0xD0
14.590108291666667,0,0xFE,0x00
14.606834750000001,0,0xD0,0xD0
14.623622208333334,0,0xD0,0xD0
14.640348625000000,0,0x00,0xD0
14.707315375000000,0,0xFE,0x00
14.724102875000000,0,0xD0,0xD0
14.742477541666666,0,0xD0,0xD0
14.757616750000000,0,0x00,0xD0
14.824522500000000,0,0xFE,0x00
14.841309958333333,0,0xD0,0xD0
14.858097458333333,0,0xD0,0xD0
14.874762791666667,0,0x00,0xD0
14.941790624999999,0,0xFE,0x00
14.958578083333334,0,0xD0,0xD0
14.977746333333334,0,0xD0,0xD0
14.991969875000001,0,0x00,0xD0
15.058936666666666,0,0xFE,0x00
15.075724125000001,0,0xD0,0xD0
15.092450583333333,0,0xD0,0xD0
15.109176958333334,0,0x00,0xD0
15.176204791666667,0,0xFE,0x00
15.195311999999999,0,0xD0,0xD0
15.209657666666667,0,0xD0,0xD0
15.226384083333333,0,0xFE,0xD0
15.243171500000001,0,0x00,0x00
15.310138291666666,0,0xFE,0x00
15.326864750000000,0,0xD0,0xD0
15.343652208333333,0,0xD0,0xD0
15.360439625000000,0,0x00,0xD0
15.429787166666667,0,0xFE,0x00
15.444071833333334,0,0xD0,0xD0
15.460859291666667,0,0xFE,0xD0
15.477585708333333,0,0xD0,0xD0
15.494312125000000,0,0x00,0xD0
15.561339916666666,0,0xFE,0x00
15.578066375000001,0,0xD0,0xD0
15.594853833333334,0,0xD0,0xD0
15.611641291666666,0,0x00,0xD0
15.678608041666667,0,0xFE,0x00
15.695273458333334,0,0xD0,0xD0
15.712060916666667,0,0xD0,0xD0
15.728848375000000,0,0x00,0xD0
15.795815125000001,0,0xFE,0x00
15.812541583333333,0,0xD0,0xD0
15.829390083333333,0,0xD0,0xD0
15.846055458333334,0,0x00,0xD0
15.912961166666667,0,0xFE,0x00
15.929687625000000,0,0xD0,0xD0
15.946475083333333,0,0xD0,0xD0
15.963201500000000,0,0x00,0xD0
16.030229291666668,0,0xFE,0x00
16.046955749999999,0,0xD0,0xD0
16.063804250000000,0,0xD0,0xD0
16.080469624999999,0,0x00,0xD0
16.147436375000002,0,0xFE,0x00
16.164162833333332,0,0xD0,0xD0
16.180950291666665,0,0xD0,0xD0
16.197676708333333,0,0x00,0xD0
16.264643458333332,0,0xFE,0x00
16.281430958333335,0,0xD0,0xD0
16.298218416666668,0,0xD0,0xD0
16.315005875000001,0,0x00,0xD0
16.381850541666665,0,0xFE,0x00
16.398638041666668,0,0xD0,0xD0
16.415425500000001,0,0xD0,0xD0
16.432090875000000,0,0x00,0xD0
16.499118708333334,0,0xFE,0x00
16.515906166666667,0,0xD0,0xD0
16.532693666666667,0,0xD0,0xD0
16.551007208333335,0,0x00,0xD0
16.616386833333333,0,0xFE,0x00
16.633052208333332,0,0xD0,0xD0
16.649778625000000,0,0xD0,0xD0
16.666566083333333,0,0x00,0xD0
16.733532875000002,0,0xFE,0x00
16.750320333333335,0,0xD0,0xD0
16.767107833333334,0,0xD0,0xD0
16.786153916666667,0,0x00,0xD0
16.850739958333332,0,0xFE,0x00
16.867466374999999,0,0xD0,0xD0
16.884192791666667,0,0xD0,0xD0
16.900980250000000,0,0x00,0xD0
16.968069125000000,0,0xFE,0x00
16.984734499999998,0,0xD0,0xD0
17.003109166666668,0,0xD0,0xD0
17.018187333333334,0,0x00,0xD0
17.086069791666667,0,0xFE,0x00
17.102674125000000,0,0xD0,0xD4
17.119400583333334,0,0xD0,0xD4
17.136188000000001,0,0x00,0xD4
17.168969375000000,0,0xFE,0x00
26.845329750000001,0,0xFE,0xFE
26.848687250000001,0,0xFE,0x60
26.865352625000000,0,0xFE,0x60
26.882140083333333,0,0xFE,0x60
26.898866541666667,0,0xFE,0x60
26.915592958333335,0,0xFE,0x60
26.933296124999998,0,0xFE,0x60
26.949106833333332,0,0xFE,0x60
26.965833291666666,0,0xFE,0x60
26.982620749999999,0,0xFE,0x60
26.999347166666666,0,0xFE,0x60
27.016073625000001,0,0xFE,0x60
27.032800041666668,0,0xFE,0x60
27.049587500000001,0,0xFE,0x60
27.066313916666665,0,0xFE,0x60
27.083040375000000,0,0xFE,0x60
27.099827833333332,0,0xFE,0x60
27.116554250000000,0,0xFE,0x60
27.133280708333334,0,0xFE,0x60
27.150068166666667,0,0xFE,0x60
27.169236416666667,0,0xFE,0x60
27.183520999999999,0,0xFE,0x60
27.200247458333333,0,0xFE,0x60
27.217034916666666,0,0xFE,0x60
27.233761333333334,0,0xFE,0x60
27.250487750000001,0,0xFE,0x60
27.267275250000001,0,0xFE,0x60
27.284001666666665,0,0xFE,0x60
27.300728083333333,0,0xFE,0x60
27.317515583333332,0,0xFE,0x60
27.334242000000000,0,0xFE,0x60
27.350968416666667,0,0xFE,0x60
27.367755875000000,0,0xFE,0x60
27.385397999999999,0,0xFE,0x60
27.401208749999999,0,0xFE,0x60
27.417996208333335,0,0xFE,0x60
27.434722666666666,0,0xFE,0x60
27.451449083333333,0,0xFE,0x60
27.468236541666666,0,0xFE,0x60
27.484962958333334,0,0xFE,0x60
27.501689416666668,0,0xFE,0x60
27.518415833333332,0,0xFE,0x60
27.535203291666665,0,0xFE,0x60
27.551929749999999,0,0xFE,0x60
27.568656166666667,0,0xFE,0x60
27.585443625000000,0,0xFE,0x60
27.602170041666668,0,0xFE,0x60
27.621338291666667,0,0xFE,0x60
27.635683958333335,0,0xFE,0x60
27.652410374999999,0,0xFE,0x60
27.669136791666666,0,0xFE,0x60
27.685924291666666,0,0xFE,0x60
27.702650708333334,0,0xFE,0x60
27.719377125000001,0,0xFE,0x60
27.736164625000001,0,0xFE,0x60
27.752891041666668,0,0xFE,0x60
27.769617458333332,0,0xFE,0x60
27.786343875000000,0,0xFE,0x60
27.803131375000000,0,0xFE,0x60
27.819857791666667,0,0xFE,0x60
27.837560958333334,0,0xFE,0x60
27.853371708333334,0,0xFE,0x60
27.870098124999998,0,0xFE,0x60
27.886824541666666,0,0xFE,0x60
27.903611999999999,0,0xFE,0x60
27.920338458333333,0,0xFE,0x60
27.937064875000001,0,0xFE,0x60
27.953852333333334,0,0xFE,0x60
27.970578791666668,0,0xFE,0x60
27.987366250000001,0,0xFE,0x60
28.004031625000000,0,0xFE,0x60
28.020819083333333,0,0xFE,0x60
28.037545541666667,0,0xFE,0x60
28.054271958333334,0,0xFE,0x60
28.073440208333334,0,0xFE,0x60
28.087785875000002,0,0xFE,0x60
28.104512291666666,0,0xFE,0x60
28.121299749999999,0,0xFE,0x60
28.138026166666666,0,0xFE,0x60
28.154752625000000,0,0xFE,0x60
28.171540083333333,0,0xFE,0x60
28.188266500000001,0,0xFE,0x60
28.204992916666665,0,0xFE,0x60
28.221780416666668,0,0xFE,0x60
28.238506833333332,0,0xFE,0x60
28.255233250000000,0,0xFE,0x60
28.272020749999999,0,0xFE,0x60
28.291188958333333,0,0xFE,0x60
28.305473583333335,0,0xFE,0x60
28.322199999999999,0,0xFE,0x60
28.338987500000002,0,0xFE,0x60
28.355713916666666,0,0xFE,0x60
28.372440333333333,0,0xFE,0x60
28.389227833333333,0,0xFE,0x60
28.405954250000001,0,0xFE,0x60
28.422680666666668,0,0xFE,0x60
28.439468125000001,0,0xFE,0x60
28.456194583333332,0,0xFE,0x60
28.472920999999999,0,0xFE,0x60
28.489708458333332,0,0xFE,0x60
28.506434875000000,0,0xFE,0x60
28.524138041666667,0,0xFE,0x60
28.539948791666667,0,0xFE,0x60
28.556675208333335,0,0xFE,0x60
28.573401666666665,0,0xFE,0x60
28.590128083333333,0,0xFE,0x60
28.606915541666666,0,0xFE,0x60
28.623641958333334,0,0xFE,0x60
28.640368416666668,0,0xFE,0x60
28.657155875000001,0,0xFE,0x60
28.673882291666665,0,0xFE,0x60
28.690608749999999,0,0xFE,0x60
28.707396208333332,0,0xFE,0x60
28.724122625000000,0,0xFE,0x60
28.741825791666667,0,0xFE,0x60
28.757636541666667,0,0xFE,0x60
28.774362958333334,0,0xFE,0x60
28.791089374999999,0,0xFE,0x60
28.807815791666666,0,0xFE,0x60
28.824603291666666,0,0xFE,0x60
28.841329708333333,0,0xFE,0x60
28.858056125000001,0,0xFE,0x60
28.874843625000000,0,0xFE,0x60
28.891570041666668,0,0xFE,0x60
28.908296458333332,0,0xFE,0x60
28.925083916666665,0,0xFE,0x60
28.941810374999999,0,0xFE,0x60
28.958536791666667,0,0xFE,0x60
28.977644000000002,0,0xFE,0x60
28.992050708333334,0,0xFE,0x60
29.008777125000002,0,0xFE,0x60
29.025564583333335,0,0xFE,0x60
29.042290999999999,0,0xFE,0x60
29.059017458333333,0,0xFE,0x60
29.077208958333333,0,0xFE,0x60
29.092531333333334,0,0xFE,0x60
29.109257791666668,0,0xFE,0x60
29.125984208333332,0,0xFE,0x60
29.142771666666668,0,0xFE,0x60
29.159498083333332,0,0xFE,0x60
29.176224541666667,0,0xFE,0x60
29.195514875000001,0,0xFE,0x60
29.209738416666667,0,0xFE,0x60
29.226464875000001,0,0xFE,0x60
29.243252333333334,0,0xFE,0x60
29.259978749999998,0,0xFE,0x60
29.276705166666666,0,0xFE,0x60
29.293492666666666,0,0xFE,0x60
29.311745208333335,0,0xFE,0x60
29.326945500000001,0,0xFE,0x60
29.343732958333334,0,0xFE,0x60
29.360459416666668,0,0xFE,0x60
29.377185833333332,0,0xFE,0x60
29.393912250000000,0,0xFE,0x60
29.410699749999999,0,0xFE,0x60
29.429806916666667,0,0xFE,0x60
29.444152583333334,0,0xFE,0x60
29.460940041666667,0,0xFE,0x60
29.477666500000002,0,0xFE,0x60
29.494392916666666,0,0xFE,0x60
29.511180374999999,0,0xFE,0x60
29.527906833333333,0,0xFE,0x60
29.544633250000000,0,0xFE,0x60
29.561420708333333,0,0xFE,0x60
29.578147125000001,0,0xFE,0x60
29.594873583333332,0,0xFE,0x60
29.611599999999999,0,0xFE,0x60
29.628387458333332,0,0xFE,0x60
29.647494666666667,0,0xFE,0x60
29.661840333333334,0,0xFE,0x60
29.678627791666667,0,0xFE,0x60
29.695354208333335,0,0xFE,0x60
29.712080666666665,0,0xFE,0x60
29.728868125000002,0,0xFE,0x60
29.745594541666666,0,0xFE,0x60
29.762320958333333,0,0xFE,0x60
29.779108458333333,0,0xFE,0x60
29.795834875000001,0,0xFE,0x60
29.812561291666668,0,0xFE,0x60
29.829348791666668,0,0xFE,0x60
29.846075208333332,0,0xFE,0x60
29.862801624999999,0,0xFE,0x60
29.881969874999999,0,0xFE,0x60
29.896315541666667,0,0xFE,0x60
29.913041958333334,0,0xFE,0x60
29.929768374999998,0,0xFE,0x60
29.946555875000001,0,0xFE,0x60
29.963282291666665,0,0xFE,0x60
29.980008708333333,0,0xFE,0x60
29.996796166666666,0,0xFE,0x60
30.013522625000000,0,0xFE,0x60
30.030249041666668,0,0xFE,0x60
30.047036500000001,0,0xFE,0x60
30.063762916666665,0,0xFE,0x60
30.080489374999999,0,0xFE,0x60
30.098192500000000,0,0xFE,0x60
30.114003250000000,0,0xFE,0x60
30.130729708333334,0,0xFE,0x60
30.147517166666667,0,0xFE,0x60
30.164243583333334,0,0xFE,0x60
30.180969999999999,0,0xFE,0x60
30.197696458333333,0,0xFE,0x60
30.214483916666666,0,0xFE,0x60
30.231210333333333,0,0xFE,0x60
30.247936791666667,0,0xFE,0x60
30.264724250000000,0,0xFE,0x60
30.281450666666668,0,0xFE,0x60
30.298177083333332,0,0xFE,0x60
30.314964583333332,0,0xFE,0x60
30.334254916666666,0,0xFE,0x60
30.348417416666667,0,0xFE,0x60
30.365204875000000,0,0xFE,0x60
30.381931333333334,0,0xFE,0x60
30.398657750000002,0,0xFE,0x60
30.415384166666666,0,0xFE,0x60
30.432171666666665,0,0xFE,0x60
30.448898083333333,0,0xFE,0x60
30.465624500000001,0,0xFE,0x60
30.482411958333334,0,0xFE,0x60
30.499138416666668,0,0xFE,0x60
30.515864833333332,0,0xFE,0x60
30.532652291666668,0,0xFE,0x60
30.550294416666667,0,0xFE,0x60
30.566105166666667,0,0xFE,0x60
30.582892624999999,0,0xFE,0x60
30.599619041666667,0,0xFE,0x60
30.616345500000001,0,0xFE,0x60
30.633132958333334,0,0xFE,0x60
30.649859374999998,0,0xFE,0x60
30.666585791666666,0,0xFE,0x60
30.683373291666665,0,0xFE,0x60
30.700099708333333,0,0xFE,0x60
30.716826125000001,0,0xFE,0x60
30.733552583333335,0,0xFE,0x60
30.750340041666668,0,0xFE,0x60
30.767066458333332,0,0xFE,0x60
30.786356791666666,0,0xFE,0x60
30.800580374999999,0,0xFE,0x60
30.817306791666667,0,0xFE,0x60
30.834033208333334,0,0xFE,0x60
30.850820708333334,0,0xFE,0x60
30.867547125000002,0,0xFE,0x60
30.884273541666666,0,0xFE,0x60
30.901060999999999,0,0xFE,0x60
30.917787458333333,0,0xFE,0x60
30.934513875000000,0,0xFE,0x60
30.951301333333333,0,0xFE,0x60
30.968027791666668,0,0xFE,0x60
30.984754208333332,0,0xFE,0x60
31.002457333333332,0,0xFE,0x60
31.018268083333332,0,0xFE,0x60
31.034994541666666,0,0xFE,0x60
31.051720958333334,0,0xFE,0x60
31.068508416666667,0,0xFE,0x60
31.085234833333335,0,0xFE,0x60
31.101961291666665,0,0xFE,0x60
31.118748750000002,0,0xFE,0x60
31.135475166666666,0,0xFE,0x60
31.152201625000000,0,0xFE,0x60
31.168989083333333,0,0xFE,0x60
31.185715500000001,0,0xFE,0x60
31.202441916666668,0,0xFE,0x60
31.219168374999999,0,0xFE,0x60
31.238397666666668,0,0xFE,0x60
31.252682249999999,0,0xFE,0x60
31.269408708333334,0,0xFE,0x60
31.286196166666667,0,0xFE,0x60
31.302922583333334,0,0xFE,0x60
31.319648999999998,0,0xFE,0x60
31.336436500000001,0,0xFE,0x60
31.353162916666665,0,0xFE,0x60
31.369889333333333,0,0xFE,0x60
31.386676791666666,0,0xFE,0x60
31.403403250000000,0,0xFE,0x60
31.420129666666668,0,0xFE,0x60
31.436917125000001,0,0xFE,0x60
31.454559249999999,0,0xFE,0x60
31.470369999999999,0,0xFE,0x60
31.487157458333332,0,0xFE,0x60
31.503883875000000,0,0xFE,0x60
31.520610333333334,0,0xFE,0x60
31.537336750000001,0,0xFE,0x60
31.554124208333334,0,0xFE,0x60
31.570850624999999,0,0x60,0x60
31.587638083333335,0,0x60,0x60
31.621090958333333,0,0x60,0x60
31.637817375000001,0,0x60,0x60
31.654543791666665,0,0x60,0x60
31.671331250000001,0,0x60,0x60
31.690438458333333,0,0x60,0x60
31.704784125000000,0,0x60,0x60
31.721571583333333,0,0x60,0x60
31.738298041666667,0,0x60,0x60
31.755024458333335,0,0x00,0x60
31.771750874999999,0,0x00,0x60
31.788477291666666,0,0x00,0x60
31.805264791666666,0,0x00,0x00
31.821991208333333,0,0x00,0x00
31.838717625000001,0,0x00,0x00
31.855444041666665,0,0x00,0x00
31.872231541666668,0,0x00,0x00
31.888957958333332,0,0x00,0x00
31.908126208333332,0,0x00,0x00
31.922471874999999,0,0xFE,0x00
31.939198333333334,0,0xFE,0x00
31.989438624999998,0,0xFD,0x00
32.006165041666669,0,0xFD,0x00
32.056466416666666,0,0xFD,0x00
32.057748375000003,0,0xFD,0xFD
32.059030333333332,0,0xFD,0xFD
32.060312250000003,0,0xFD,0xFD
32.061594208333332,0,0xFD,0xFD
32.062876166666669,0,0xFD,0xFD
32.064219166666668,0,0xFD,0xFD
32.065562166666666,0,0xFD,0xFD
32.066844125000003,0,0xFD,0xFD
32.068126041666666,0,0xFD,0x04
32.069408041666669,0,0x3C,0xF9
32.070689999999999,0,0x8B,0xF7
32.071971916666669,0,0xDB,0xF6
32.073253874999999,0,0x2D,0xF7
32.074535833333336,0,0x81,0xFA
32.075817791666665,0,0xD7,0x05
32.077099708333336,0,0x2F,0x0E
32.078442750000001,0,0x89,0x19
32.079785708333333,0,0xE5,0x25
32.081128708333331,0,0x42,0xFD
32.082471750000003,0,0xFD,0xFD
32.083814750000002,0,0xFD,0xFD
32.085096666666665,0,0xFD,0xFD
32.086378625000002,0,0xFD,0xFD
32.087660583333331,0,0xFD,0xFD
32.088942541666668,0,0xFD,0xFD
32.090224499999998,0,0xFD,0xFD
32.091506458333335,0,0x91,0xFD
32.092849458333333,0,0x84,0x81
32.094192458333332,0,0x83,0x8B
32.095474375000002,0,0x50,0x94
32.096756374999998,0,0x80,0x84
32.098038333333335,0,0x92,0x50
32.099320291666665,0,0x87,0x86
32.100602208333335,0,0x50,0x80
32.101884208333331,0,0x89,0x91
32.103166125000001,0,0x80,0x98
32.104448083333331,0,0x82,0x50
32.105730041666668,0,0x01,0x89
32.107011958333331,0,0xB0,0x01
32.108355000000003,0,0xFF,0xB1
32.109697958333335,0,0x00,0xFF
32.110979916666665,0,0x00,0x00
32.112261875000002,0,0x00,0x00
32.113543833333331,0,0x00,0x00
32.114825750000001,0,0x00,0x00
32.116107749999998,0,0xB0,0x00
32.117389666666668,0,0x00,0xB1
32.118671624999998,0,0x16,0x00
32.119953583333334,0,0x00,0x15
32.121235541666664,0,0x00,0x00
32.122578541666670,0,0x14,0x00
32.123921541666668,0,0x14,0x15
32.125203458333331,0,0x2D,0x15
32.126485416666668,0,0x0A,0x2D
32.127767374999998,0,0x2D,0x21
32.129049333333334,0,0x00,0x27
32.130331291666664,0,0x00,0x00
32.131613250000001,0,0x21,0x00
32.132895208333331,0,0xAF,0x08
32.134177125000001,0,0x00,0x28
32.135459083333330,0,0x00,0x00
32.136741083333334,0,0xCD,0x00
32.138084041666666,0,0x00,0xCA
32.139427041666664,0,0x2C,0x00
32.140709000000001,0,0x00,0x2D
32.141990958333331,0,0x30,0x00
32.143272916666668,0,0x00,0x31
32.144554833333331,0,0x41,0x00
32.145836791666667,0,0x00,0x31
32.147118749999997,0,0x2B,0x00
32.148400708333334,0,0x00,0x2D
32.149682666666664,0,0x32,0x00
32.150964666666667,0,0x90,0x41
32.152307666666665,0,0xD5,0xA9
32.153650583333331,0,0x23,0x45
32.154932541666668,0,0x28,0x23
32.156214499999997,0,0x00,0x1E
32.157496458333334,0,0x00,0x00
32.158778416666664,0,0x06,0x00
32.160060375000000,0,0x00,0x06
32.161342333333330,0,0x16,0x00
32.162624291666667,0,0x00,0x15
32.163906208333330,0,0x0C,0x00
32.165188208333333,0,0x00,0x0C
32.166470124999996,0,0x0A,0x00
32.167813125000002,0,0x00,0x0D
32.169156125000001,0,0x0E,0x00
32.170438083333330,0,0x00,0x0A
32.171720041666667,0,0x0B,0x00
32.173001999999997,0,0x00,0x0B
32.174283958333334,0,0x00,0x00
32.175565916666663,0,0x00,0x00
32.176847833333333,0,0x00,0x00
32.178129791666670,0,0x00,0x00
32.179411750000000,0,0x00,0x00
32.180693708333337,0,0x00,0x00
32.182036708333335,0,0x00,0x00
32.183379708333334,0,0x00,0x00
32.184661666666663,0,0x00,0x00
32.185943625000000,0,0x00,0x00
32.187225541666663,0,0x00,0x00
32.188507500000000,0,0x00,0x00
32.189789458333337,0,0x00,0x00
32.191071416666666,0,0x00,0x00
32.192353375000003,0,0x00,0x00
32.193635333333333,0,0x00,0x00
32.194917291666670,0,0x00,0x00
32.196199208333333,0,0x00,0x00
32.197542208333331,0,0x00,0x00
32.198885208333330,0,0x00,0x00
32.200167166666667,0,0x00,0x00
32.201449125000003,0,0x00,0x00
32.202731083333333,0,0x00,0x00
32.204013041666670,0,0x00,0x00
32.205295000000000,0,0x00,0x00
32.206576958333336,0,0x00,0x00
32.207858874999999,0,0x00,0x00
32.209140833333336,0,0x00,0x00
32.210422791666666,0,0x00,0x00
32.211765791666664,0,0x00,0x00
32.213108791666670,0,0x00,0x00
32.214390750000000,0,0x00,0x00
32.215672708333337,0,0x00,0x00
32.216954666666666,0,0x00,0x00
32.218236583333336,0,0x00,0x00
32.219518541666666,0,0x00,0x00
32.220800500000003,0,0x00,0x00
32.222082458333333,0,0x00,0x00
32.223364416666669,0,0x00,0x00
32.224646374999999,0,0x00,0x00
32.225928333333336,0,0x00,0x00
32.227271333333334,0,0x00,0x00
32.228614291666666,0,0x00,0x00
32.229896250000003,0,0x00,0x00
32.231178208333333,0,0x00,0x00
32.232460166666669,0,0x00,0x00
32.233742124999999,0,0x00,0x00
32.235024083333336,0,0x00,0x00
32.236306041666666,0,0x00,0x00
32.237588000000002,0,0x00,0x00
32.238869916666665,0,0x00,0x00
32.240151875000002,0,0x00,0x00
32.241494875000001,0,0x00,0x00
32.242837874999999,0,0x00,0x00
32.244119833333336,0,0x00,0x00
32.245401791666666,0,0x00,0x00
32.246683750000003,0,0x00,0x00
32.247965708333332,0,0x00,0x00
32.249247625000002,0,0x00,0x00
32.250529583333332,0,0x00,0x00
32.251811541666669,0,0x00,0x00
32.253093499999999,0,0x00,0x00
32.254375458333335,0,0x00,0x00
32.255657416666665,0,0x00,0x00
32.257000416666664,0,0x00,0x00
32.258343416666669,0,0x00,0x00
32.259625333333332,0,0x00,0x00
32.260907291666669,0,0x00,0x00
32.262189249999999,0,0x00,0x00
32.263471208333335,0,0x00,0x00
32.264753166666665,0,0x00,0x00
32.266035125000002,0,0x00,0x00
32.267317083333332,0,0x00,0x00
32.268599041666668,0,0x00,0x00
32.269880958333331,0,0x00,0x00
32.271223958333330,0,0x00,0x00
32.272566958333336,0,0x00,0x00
32.273848916666665,0,0x00,0x00
32.275130875000002,0,0x00,0x00
32.276412833333332,0,0x00,0x00
32.277694791666669,0,0x00,0x00
32.278976749999998,0,0x00,0x00
32.280258666666668,0,0x00,0x00
32.281540624999998,0,0x00,0x00
32.282822583333335,0,0x00,0x00
32.284104541666665,0,0x00,0x00
32.285386500000001,0,0x00,0x00
32.286729500000000,0,0x00,0x00
32.288072499999998,0,0x00,0x00
32.289354458333335,0,0x00,0x00
32.290636374999998,0,0x00,0x00
32.291918333333335,0,0x00,0x00
32.293200291666665,0,0x00,0x00
32.294482250000001,0,0x00,0x00
32.295764208333331,0,0x00,0x00
32.297046166666668,0,0x00,0x00
32.298328124999998,0,0x00,0x00
32.299610041666668,0,0x00,0x00
32.300953041666666,0,0x00,0x00
32.302296041666665,0,0x00,0x00
32.303578000000002,0,0x00,0x00
32.304859958333331,0,0x00,0x00
32.306141916666668,0,0x00,0x00
32.307423874999998,0,0x00,0x00
32.308705833333335,0,0x00,0x00
32.309987791666664,0,0x00,0x00
32.311269708333334,0,0x00,0x00
32.312551666666664,0,0x00,0x00
32.313833625000001,0,0x00,0x00
32.315115583333331,0,0x00,0x00
32.316458583333336,0,0x00,0x00
32.317801583333335,0,0x00,0x00
32.319083541666664,0,0x00,0x00
32.320365500000001,0,0x00,0x00
32.321647416666664,0,0x00,0x00
32.322929375000001,0,0x00,0x00
32.324211333333331,0,0x00,0x00
32.325493291666668,0,0x00,0x00
32.326775249999997,0,0x00,0x00
32.328057208333334,0,0x00,0x00
32.329339166666664,0,0x00,0x00
32.330682166666669,0,0x00,0x00
32.332025125000001,0,0x00,0x00
32.333307083333331,0,0x00,0x00
32.334589041666668,0,0x00,0x00
32.335870999999997,0,0x00,0x00
32.337152958333334,0,0x00,0x00
32.338434916666664,0,0x00,0x00
32.339716875000001,0,0x00,0x00
32.340998791666664,0,0x00,0x00
32.342280750000000,0,0x00,0x00
32.343562708333330,0,0x00,0x00
32.344844666666667,0,0x00,0x00
32.346187666666665,0,0x00,0x00
32.347530666666664,0,0x00,0x00
32.348812625000001,0,0x00,0x00
32.350094583333330,0,0x00,0x00
32.351376541666667,0,0x00,0x00
32.352658458333330,0,0x00,0x00
32.353940416666667,0,0x00,0x00
32.355222374999997,0,0x00,0x00
32.356504333333334,0,0x00,0x00
32.357786291666663,0,0x00,0x00
32.359068250000000,0,0x00,0x00
32.360411249999999,0,0x00,0x00
32.361754249999997,0,0x00,0x00
32.363036166666667,0,0x00,0x00
32.364318124999997,0,0x00,0x00
32.365600083333334,0,0x00,0x00
32.366882041666663,0,0x00,0x00
32.368164000000000,0,0x00,0x00
32.369445958333330,0,0x00,0x00
32.370727916666667,0,0x00,0x00
32.372009833333337,0,0x00,0x00
32.373291791666666,0,0x00,0x00
32.374573750000003,0,0x00,0x00
32.375916750000002,0,0x00,0x00
32.377259750000000,0,0x00,0x00
32.378541708333330,0,0x00,0x00
32.379823666666667,0,0x00,0x00
32.381105624999996,0,0x00,0x00
32.382387541666667,0,0x00,0x00
32.383669500000003,0,0x00,0x00
32.384951458333333,0,0x00,0x00
32.386233416666670,0,0x00,0x00
32.387515375000000,0,0x00,0x00
32.388797333333336,0,0x00,0x00
32.390140333333335,0,0x00,0x00
32.391483333333333,0,0x00,0x00
32.392765291666670,0,0x00,0x00
32.394047208333333,0,0x00,0x00
32.395329166666670,0,0x00,0x00
32.396611125000000,0,0x00,0x00
32.397893083333337,0,0x00,0x00
32.399175041666666,0,0x00,0x00
32.400457000000003,0,0x00,0x00
32.401738958333333,0,0x00,0x00
32.403020875000003,0,0x00,0x00
32.404302833333333,0,0x00,0x00
32.405645833333331,0,0x00,0x00
32.406988833333337,0,0x00,0x00
32.408270791666666,0,0x00,0x00
32.409552750000003,0,0x00,0x00
32.410834708333333,0,0x00,0x00
32.412116666666670,0,0x00,0x00
32.413398583333333,0,0x00,0x00
32.414680541666669,0,0x00,0x00
32.415962499999999,0,0x00,0x00
32.417244458333336,0,0x00,0x00
32.418526416666666,0,0x00,0x00
32.419869416666664,0,0x00,0x00
32.421212416666670,0,0x00,0x00
32.422494374999999,0,0x00,0x00
32.423776333333336,0,0x00,0x00
32.425058249999999,0,0x00,0x00
32.426340208333336,0,0x00,0x00
32.427622166666666,0,0x00,0x00
32.428904125000003,0,0x00,0x00
32.430186083333332,0,0x00,0x00
32.431468041666669,0,0x00,0x00
32.432749999999999,0,0x00,0x00
32.434031916666669,0,0x00,0x00
32.435374916666667,0,0x00,0x00
32.436717916666666,0,0x00,0x00
32.437999875000003,0,0x00,0x00
32.439281833333332,0,0x00,0x00
32.440563791666669,0,0x00,0x00
32.441845749999999,0,0x00,0x00
32.443127708333336,0,0x00,0x00
32.444409624999999,0,0x00,0x00
32.445691583333335,0,0x00,0x00
32.446973541666665,0,0x00,0x00
32.448255500000002,0,0x00,0x00
32.449598500000000,0,0x00,0x00
32.450941499999999,0,0x00,0x00
32.452223458333336,0,0x00,0x00
32.453505416666665,0,0x00,0x00
32.454787375000002,0,0x00,0x00
32.456069291666665,0,0x00,0x00
32.457351291666669,0,0x91,0x00
32.458633208333332,0,0x84,0x81
32.459915208333335,0,0x83,0x8B
32.461197124999998,0,0x50,0x94
32.462479125000002,0,0x80,0x84
32.463761041666665,0,0x92,0x50
32.465104083333337,0,0x87,0x86
32.466447000000002,0,0x50,0x80
32.467728999999999,0,0x89,0x91
32.469010916666669,0,0x80,0x98
32.470292916666665,0,0x82,0x50
32.471574833333335,0,0x00,0x89
32.472856791666665,0,0x00,0x00
32.474138750000002,0,0x00,0x00
32.475420666666665,0,0x00,0x00
32.476702625000001,0,0x00,0x00
32.477984583333331,0,0x00,0x00
32.479327583333337,0,0x00,0x00
32.480670583333335,0,0x00,0x00
32.481952541666665,0,0x00,0x00
32.483234500000002,0,0x00,0x00
32.484516458333331,0,0x00,0x00
32.485798375000002,0,0x00,0x00
32.487080333333331,0,0x00,0x00
32.488362291666668,0,0x00,0x00
32.489644249999998,0,0x00,0x00
32.490926208333335,0,0x00,0x00
32.492208166666664,0,0x00,0x00
32.493490125000001,0,0x00,0x00
32.494833125000000,0,0x00,0x00
32.496176124999998,0,0x00,0x00
32.497458041666668,0,0x00,0x00
32.498739999999998,0,0x00,0x00
32.500021958333335,0,0x00,0x00
32.501303916666664,0,0x00,0x00
32.502585875000001,0,0x00,0x00
32.503867833333331,0,0x00,0x00
32.505149791666668,0,0x00,0x00
32.506431708333331,0,0x00,0x00
32.507713666666668,0,0x00,0x00
32.509056666666666,0,0x00,0x00
32.510399666666665,0,0x00,0x00
32.511681625000001,0,0x00,0x00
32.512963583333331,0,0x00,0x00
32.514245541666668,0,0x00,0x00
32.515527499999997,0,0x00,0x00
32.516809416666668,0,0x00,0x00
32.518091374999997,0,0x00,0x00
32.519373333333334,0,0x00,0x00
32.520655291666664,0,0x00,0x00
32.521937250000001,0,0x00,0x00
32.523219208333330,0,0x00,0x00
32.524562208333336,0,0x00,0x00
32.525905208333334,0,0x00,0x00
32.527187124999998,0,0x00,0x00
32.528469083333334,0,0x00,0x00
32.529751041666664,0,0x00,0x00
32.531033000000001,0,0x00,0x00
32.532314958333330,0,0x00,0x00
32.533596916666667,0,0x00,0x00
32.534878874999997,0,0x00,0x00
32.536160833333334,0,0x00,0x00
32.537442749999997,0,0x00,0x00
32.538785750000002,0,0x00,0x00
32.540128750000001,0,0x00,0x00
32.541410708333331,0,0x00,0x00
32.542692708333334,0,0x82,0x00
32.543974666666664,0,0x87,0x92
32.545256583333334,0,0x80,0x90
32.546538583333330,0,0x91,0x94
32.547820500000000,0,0x8C,0x88
32.549102458333330,0,0x80,0x91
32.550384416666667,0,0x8D,0x93
32.551666333333330,0,0x83,0x8B
32.552948291666667,0,0x84,0x84
32.554291333333332,0,0x91,0x50
32.555634291666664,0,0x50,0x50
32.556916250000000,0,0x00,0x50
32.558198166666664,0,0x00,0x00
32.559480125000000,0,0x00,0x00
32.560762083333330,0,0x00,0x00
32.562044041666667,0,0x00,0x00
32.563326000000004,0,0x00,0x00
32.564607958333333,0,0x00,0x00
32.565889916666670,0,0x00,0x00
32.567171833333333,0,0x00,0x00
32.568514833333332,0,0x00,0x00
32.569857833333330,0,0x00,0x00
32.571139791666667,0,0x00,0x00
32.572421749999997,0,0x00,0x00
32.573703708333333,0,0x00,0x00
32.574985666666670,0,0x00,0x00
32.576267625000000,0,0x00,0x00
32.577549583333337,0,0x00,0x00
32.578831500000000,0,0x00,0x00
32.580113458333336,0,0x00,0x00
32.581395416666666,0,0x00,0x00
32.582677375000003,0,0x00,0x00
32.584020375000001,0,0x00,0x00
32.585363375000000,0,0x00,0x00
32.586645333333337,0,0x00,0x00
32.587927291666666,0,0x00,0x00
32.589209208333337,0,0x00,0x00
32.590491166666666,0,0x00,0x00
32.591773125000003,0,0x00,0x00
32.593055083333333,0,0x00,0x00
32.594337041666670,0,0x00,0x00
32.595618999999999,0,0x00,0x00
32.596900958333336,0,0x00,0x00
32.598243958333335,0,0x00,0x00
32.599586916666667,0,0x00,0x00
32.600868875000003,0,0x00,0x00
32.602150833333333,0,0x00,0x00
32.603432791666670,0,0x00,0x00
32.604714749999999,0,0x00,0x00
32.605996708333336,0,0x00,0x00
32.607278666666666,0,0x00,0x00
32.608560625000003,0,0x00,0x00
32.609842541666666,0,0x00,0x00
32.611124500000003,0,0x00,0x00
32.612406458333332,0,0x00,0x00
32.613749458333331,0,0x00,0x00
32.615092458333336,0,0x00,0x00
32.616374416666666,0,0x00,0x00
32.617656375000003,0,0x00,0x00
32.618938333333332,0,0x00,0x00
32.620220250000003,0,0x00,0x00
32.621502208333332,0,0x00,0x00
32.622784166666669,0,0x00,0x00
32.624066124999999,0,0x00,0x00
32.625348083333336,0,0x00,0x00
32.626630041666665,0,0x00,0x00
32.627973041666664,0,0x48,0x00
32.629316041666669,0,0x00,0x48
32.630597958333333,0,0x00,0x00
32.631940999999998,0,0xFD,0x00
32.633222958333334,0,0xFD,0xFD
32.634504874999998,0,0xFD,0xFD
32.635786833333334,0,0xFD,0xFD
32.637068791666664,0,0xFD,0xFD
32.638350708333334,0,0xFD,0x00
32.639632666666664,0,0x00,0x00
32.640914625000001,0,0x00,0x00
32.642196583333330,0,0x00,0x00
32.643539583333336,0,0x00,0x00
32.644882583333334,0,0x00,0x00
32.646164541666664,0,0x00,0x00
32.647446500000001,0,0x00,0xFF
32.648728458333331,0,0xFF,0xFF
32.650010375000001,0,0xFF,0x00
32.651292333333330,0,0x00,0x00
32.652574291666667,0,0x00,0x00
32.653856249999997,0,0x00,0x00
32.655138208333334,0,0x00,0x00
32.656420166666663,0,0x00,0x00
32.657702125000000,0,0x00,0x00
32.659045124999999,0,0x00,0x00
32.660388124999997,0,0x00,0x00
32.661670083333334,0,0x00,0x00
32.662951999999997,0,0x00,0x00
32.664233958333334,0,0x00,0x00
32.665515916666664,0,0x00,0x00
32.666797875000000,0,0x00,0x00
32.668079833333330,0,0x00,0x00
32.669361791666667,0,0x00,0x00
32.670643750000004,0,0x00,0x00
32.671925666666667,0,0x00,0x00
32.673268666666665,0,0x00,0x00
32.674611666666664,0,0x00,0x00
32.675893625000000,0,0x00,0x00
32.677175583333330,0,0x00,0x00
32.678457541666667,0,0x00,0x00
32.679739499999997,0,0x00,0x00
32.681021458333333,0,0x00,0x00
32.682303374999996,0,0x00,0x00
32.683585333333333,0,0x00,0x00
32.684867291666670,0,0x00,0x00
32.686149250000000,0,0x00,0x00
32.687431208333336,0,0x00,0x00
32.688774208333335,0,0x00,0x00
32.690117208333334,0,0x00,0x00
32.691399166666663,0,0x00,0x00
32.692681125000000,0,0x00,0x00
32.693963041666663,0,0x00,0x00
32.695245000000000,0,0x00,0x00
32.696526958333337,0,0x00,0x00
32.697808916666666,0,0x00,0x00
32.699090875000003,0,0x00,0x00
32.700372833333333,0,0x00,0x00
32.701654791666670,0,0x00,0x00
32.702997750000002,0,0x00,0x00
32.704340750000000,0,0x00,0x00
32.705622708333337,0,0x00,0x00
32.706904666666667,0,0x00,0x00
32.708186625000003,0,0x00,0x00
32.709468583333333,0,0x00,0x00
32.710750541666670,0,0x00,0x00
32.712032499999999,0,0x00,0x00
32.713314416666670,0,0x00,0x00
32.714596374999999,0,0x00,0x00
32.715878333333336,0,0x00,0x00
32.717160291666666,0,0x00,0x00
32.718503291666664,0,0x00,0x00
32.719846291666670,0,0x00,0x00
32.721128250000000,0,0x00,0x00
32.722410208333336,0,0x00,0x00
32.723692124999999,0,0x00,0x00
32.724974083333336,0,0x00,0x00
32.726256041666666,0,0x00,0x00
32.727538000000003,0,0x00,0x00
32.728819958333332,0,0x00,0x00
32.730101916666669,0,0x00,0x00
32.731383874999999,0,0x00,0x00
32.732726874999997,0,0x00,0x00
32.734069833333336,0,0x00,0x00
32.735351791666666,0,0x00,0x00
32.736633750000003,0,0x00,0x00
32.737915708333333,0,0x00,0x00
32.739197666666669,0,0x00,0x00
32.740479624999999,0,0x00,0x00
32.741761583333336,0,0x00,0x00
32.743043541666665,0,0x00,0x00
32.744325458333336,0,0x00,0x00
32.745607416666665,0,0x00,0x00
32.746889375000002,0,0x00,0x00
32.748232375000001,0,0x00,0x00
32.749575374999999,0,0x00,0x00
32.750857333333336,0,0x00,0x00
32.752139291666666,0,0x00,0x00
32.753421250000002,0,0x00,0x00
32.754703166666665,0,0x00,0x00
32.755985125000002,0,0x00,0x00
32.757267083333332,0,0x00,0x00
32.758549041666669,0,0x00,0x00
32.759830999999998,0,0x00,0x00
32.761112958333335,0,0x00,0x00
32.762455958333334,0,0x00,0x00
32.763798958333332,0,0x00,0x00
32.765080875000002,0,0x00,0x00
32.766362833333332,0,0x00,0x00
32.767644791666669,0,0x00,0x00
32.768926749999999,0,0x00,0x00
32.770208708333335,0,0x00,0x00
32.771490666666665,0,0x00,0x00
32.772772625000002,0,0x00,0x00
32.774054541666665,0,0x00,0x00
32.775336500000002,0,0x00,0x00
32.776618458333331,0,0x00,0x00
32.777961458333330,0,0x00,0x00
32.779304458333336,0,0x00,0x00
32.780586416666665,0,0x00,0x00
32.781868375000002,0,0x00,0x00
32.783150333333332,0,0x00,0x00
32.784432291666668,0,0x00,0x00
32.785714208333331,0,0x00,0x00
32.786996166666668,0,0x00,0x00
32.788278124999998,0,0x00,0x00
32.789560083333335,0,0x00,0x00
32.790842041666664,0,0x00,0x00
32.792185041666670,0,0x00,0x00
32.793528041666669,0,0x00,0x00
32.794809999999998,0,0x00,0x00
32.796091916666668,0,0x00,0x00
32.797373874999998,0,0x00,0x00
32.798655833333335,0,0x00,0x00
32.799937791666665,0,0x00,0x00
32.801219750000001,0,0x00,0x00
32.802501708333331,0,0x00,0x00
32.803783666666668,0,0x00,0x00
32.805065583333331,0,0x00,0x00
32.806347541666668,0,0x00,0x00
32.807690541666666,0,0x00,0x00
32.809033541666665,0,0x00,0x00
32.810315500000002,0,0x00,0x00
32.811597458333331,0,0x00,0x00
32.812879416666668,0,0x00,0x00
32.814161374999998,0,0x00,0x00
32.815443333333334,0,0x00,0x00
32.816725249999998,0,0x00,0x00
32.818007208333334,0,0x00,0x00
32.819289166666664,0,0x00,0x00
32.820571125000001,0,0x00,0x00
32.821914124999999,0,0x00,0x00
32.823257124999998,0,0x00,0x00
32.824539083333335,0,0x00,0x00
32.825821041666664,0,0x00,0x00
32.827102958333334,0,0x00,0x00
32.828384916666664,0,0x00,0x00
32.829666875000001,0,0x00,0x00
32.830948833333331,0,0x00,0x00
32.832230791666667,0,0x00,0x00
32.833512749999997,0,0x00,0x00
32.834794708333334,0,0x00,0x00
32.836076624999997,0,0x00,0x00
32.837419625000003,0,0x00,0x00
32.838762625000001,0,0x00,0x00
32.840044583333331,0,0x00,0x00
32.841326541666668,0,0x00,0x00
32.842608499999997,0,0x00,0x00
32.843890458333334,0,0x00,0x00
32.845172416666664,0,0x00,0x00
32.846454333333334,0,0x00,0x00
32.847736291666664,0,0x00,0x00
32.849018250000000,0,0x00,0x00
32.850300208333330,0,0x00,0x00
32.851643208333336,0,0x00,0x00
32.852986208333334,0,0x00,0x00
32.854268166666664,0,0x00,0x00
32.855550125000001,0,0x00,0x00
32.856832083333330,0,0x00,0x00
32.858114000000000,0,0x00,0x00
32.859395958333330,0,0x00,0x00
32.860677916666667,0,0x00,0x00
32.861959874999997,0,0x00,0x00
32.863241833333333,0,0x00,0x00
32.864523791666670,0,0x00,0x00
32.865805750000000,0,0x00,0x00
32.867148708333332,0,0x00,0x00
32.868491708333330,0,0x00,0x00
32.869773666666667,0,0x00,0x00
32.871055624999997,0,0x00,0x00
32.872337583333334,0,0x00,0x00
32.873619541666663,0,0x00,0x00
32.874901500000000,0,0x00,0x00
32.876183458333337,0,0x00,0x00
32.877465375000000,0,0x00,0x00
32.878747333333337,0,0x00,0x00
32.880029291666666,0,0x00,0x00
32.881372291666665,0,0x00,0x00
32.882715291666663,0,0x00,0x00
32.883997250000000,0,0x00,0x00
32.885279208333330,0,0x00,0x00
32.886561166666667,0,0x00,0x00
32.887843125000003,0,0x00,0x00
32.889125041666667,0,0x00,0x00
32.890407000000003,0,0x00,0x00
41.534490333333331,0,0x00,0x00
41.554024833333337,0,0x00,0x60
41.567882166666664,0,0xFE,0x60
41.584669624999997,0,0xFE,0x60
41.601396083333334,0,0xFE,0x60
41.618122499999998,0,0xFE,0x60
41.635276249999997,0,0xFE,0x60
41.651636375000002,0,0xFE,0x60
41.668362833333333,0,0xFE,0x60
41.685150291666666,0,0xFE,0x60
41.701876708333330,0,0xFE,0x60
41.718603166666668,0,0xFE,0x60
41.736306291666665,0,0xFE,0x60
41.752117041666665,0,0xFE,0x60
41.768904499999998,0,0xFE,0x60
41.785691999999997,0,0xFE,0x60
41.802479458333330,0,0xFE,0x60
41.819511124999998,0,0xFE,0x60
41.835871249999997,0,0xFE,0x60
41.852719791666665,0,0xFE,0x60
41.869385166666667,0,0xFE,0x60
41.886172625000000,0,0xFE,0x60
41.902838041666669,0,0xFE,0x60
41.920724291666666,0,0xFE,0x60
41.936351916666666,0,0xFE,0x60
41.953078333333330,0,0xFE,0x60
41.969926874999999,0,0xFE,0x60
41.986653291666670,0,0xFE,0x60
42.003318666666665,0,0xFE,0x60
42.020411375000002,0,0xFE,0x60
42.036832583333336,0,0xFE,0x60
42.053681083333331,0,0xFE,0x60
42.070346458333333,0,0xFE,0x60
42.087072916666664,0,0xFE,0x60
42.104898124999998,0,0xFE,0x60
42.120647833333337,0,0xFE,0x60
42.137374250000001,0,0xFE,0x60
42.154039666666669,0,0xFE,0x60
42.170766083333334,0,0xFE,0x60
42.187614583333335,0,0xFE,0x60
42.204646250000003,0,0xFE,0x60
42.221067458333330,0,0xFE,0x60
42.237793875000001,0,0xFE,0x60
42.254581333333334,0,0xFE,0x60
42.271246750000003,0,0xFE,0x60
42.288034208333336,0,0xFE,0x60
42.306408875000002,0,0xFE,0x60
42.321548083333333,0,0xFE,0x60
42.338213500000002,0,0xFE,0x60
42.355000958333335,0,0xFE,0x60
42.371727374999999,0,0xFE,0x60
42.388881124999997,0,0xFE,0x60
42.405180250000001,0,0xFE,0x60
42.421967708333334,0,0xFE,0x60
42.438694124999998,0,0xFE,0x60
42.455542666666666,0,0xFE,0x60
42.472208041666669,0,0xFE,0x60
42.489850124999997,0,0xFE,0x60
42.505660874999997,0,0xFE,0x60
42.522570458333334,0,0xFE,0x60
42.539174791666667,0,0xFE,0x60
42.555962250000000,0,0xFE,0x60
42.573054958333330,0,0xFE,0x60
42.589476166666664,0,0xFE,0x60
42.606263624999997,0,0xFE,0x60
42.622928999999999,0,0xFE,0x60
42.639655458333330,0,0xFE,0x60
42.656503958333332,0,0xFE,0x60
42.674207125000002,0,0xFE,0x60
42.689956791666667,0,0xFE,0x60
42.706622208333336,0,0xFE,0x60
42.723470708333330,0,0xFE,0x60
42.740136083333333,0,0xFE,0x60
42.756862499999997,0,0xFE,0x60
42.774077291666664,0,0xFE,0x60
42.790437458333336,0,0xFE,0x60
42.807102833333332,0,0xFE,0x60
42.823890333333331,0,0xFE,0x60
42.840616750000002,0,0xFE,0x60
42.858564083333334,0,0xFE,0x60
42.874130624999999,0,0xFE,0x60
42.890857083333330,0,0xFE,0x60
42.907583500000001,0,0xFE,0x60
42.924432000000003,0,0xFE,0x60
42.941158458333334,0,0xFE,0x60
42.958190083333335,0,0xFE,0x60
42.974550250000000,0,0xFE,0x60
42.991398750000002,0,0xFE,0x60
43.008064166666664,0,0xFE,0x60
43.024851624999997,0,0xFE,0x60
43.041578041666668,0,0xFE,0x60
43.061051499999998,0,0xFE,0x60
43.074969875000001,0,0xFE,0x60
43.091757333333334,0,0xFE,0x60
43.108483749999998,0,0xFE,0x60
43.125210166666669,0,0xFE,0x60
43.142363916666667,0,0xFE,0x60
43.158724083333333,0,0xFE,0x60
43.175450499999997,0,0xFE,0x60
43.192237958333337,0,0xFE,0x60
43.208964416666667,0,0xFE,0x60
43.225690833333331,0,0xFE,0x60
43.243455041666664,0,0xFE,0x60
43.259204750000002,0,0xFE,0x60
43.275992208333335,0,0xFE,0x60
43.292718624999999,0,0xFE,0x60
43.309567166666668,0,0xFE,0x60
43.326659833333331,0,0xFE,0x60
43.342958958333334,0,0xFE,0x60
43.359746416666667,0,0xFE,0x60
43.376533916666666,0,0xFE,0x60
43.393199291666669,0,0xFE,0x60
43.410047791666663,0,0xFE,0x60
43.429277083333332,0,0xFE,0x60
43.443378583333335,0,0xFE,0x60
43.460166041666668,0,0xFE,0x60
43.476892458333332,0,0xFE,0x60
43.493618875000003,0,0xFE,0x60
43.510406375000002,0,0xFE,0x60
43.527499041666665,0,0xFE,0x60
43.543859208333330,0,0xFE,0x60
43.560646666666663,0,0xFE,0x60
43.577373125000001,0,0xFE,0x60
43.594099541666665,0,0xFE,0x60
43.611924791666667,0,0xFE,0x60
43.627674499999998,0,0xFE,0x60
43.644400916666669,0,0xFE,0x60
43.661127333333333,0,0xFE,0x60
43.677914791666666,0,0xFE,0x60
43.694702291666665,0,0xFE,0x60
43.711795000000002,0,0xFE,0x60
43.728094083333332,0,0xFE,0x60
43.744881583333331,0,0xFE,0x60
43.761669041666664,0,0xFE,0x60
43.778334416666667,0,0xFE,0x60
43.795182916666668,0,0xFE,0x60
43.814351166666668,0,0xFE,0x60
43.828574750000001,0,0xFE,0x60
43.845301166666665,0,0xFE,0x60
43.862027583333337,0,0xFE,0x60
43.878815083333336,0,0xFE,0x60
43.895907749999999,0,0xFE,0x60
43.912267916666664,0,0xFE,0x60
43.928994333333335,0,0xFE,0x60
43.945781833333335,0,0xFE,0x60
43.962508249999999,0,0xFE,0x60
43.979234666666663,0,0xFE,0x60
43.996937833333334,0,0xFE,0x60
44.012870666666664,0,0xFE,0x60
44.029536041666667,0,0xFE,0x60
44.046262458333331,0,0xFE,0x60
44.063049958333330,0,0xFE,0x60
44.080203708333336,0,0xFE,0x60
44.096563833333335,0,0xFE,0x60
44.113290291666665,0,0xFE,0x60
44.130016708333336,0,0xFE,0x60
44.146804166666669,0,0xFE,0x60
44.163530583333333,0,0xFE,0x60
44.182759875000002,0,0xFE,0x60
44.196983458333335,0,0xFE,0x60
44.213709874999999,0,0xFE,0x60
44.230436291666663,0,0xFE,0x60
44.247162750000001,0,0xFE,0x60
44.263950208333334,0,0xFE,0x60
44.281042916666664,0,0xFE,0x60
44.297403041666669,0,0xFE,0x60
44.314190541666669,0,0xFE,0x60
44.330916958333333,0,0xFE,0x60
44.347643374999997,0,0xFE,0x60
44.365468624999998,0,0xFE,0x60
44.381157291666668,0,0xFE,0x60
44.398066833333331,0,0xFE,0x60
44.414671166666665,0,0xFE,0x60
44.431458666666664,0,0xFE,0x60
44.448185083333335,0,0xFE,0x60
44.465338833333334,0,0xFE,0x60
44.481760041666668,0,0xFE,0x60
44.498425416666670,0,0xFE,0x60
44.515151833333334,0,0xFE,0x60
44.532000333333336,0,0xFE,0x60
44.548665749999998,0,0xFE,0x60
44.568139208333335,0,0xFE,0x60
44.582118583333333,0,0xFE,0x60
44.598844999999997,0,0xFE,0x60
44.615571458333335,0,0xFE,0x60
44.632358916666668,0,0xFE,0x60
44.649451624999998,0,0xFE,0x60
44.665811750000003,0,0xFE,0x60
44.682538208333334,0,0xFE,0x60
44.699325666666667,0,0xFE,0x60
44.716052083333331,0,0xFE,0x60
44.732778500000002,0,0xFE,0x60
44.752007791666664,0,0xFE,0x60
44.766292416666666,0,0xFE,0x60
44.783018833333337,0,0xFE,0x60
44.799806333333336,0,0xFE,0x60
44.816532750000000,0,0xFE,0x60
44.833625458333330,0,0xFE,0x60
44.850046624999997,0,0xFE,0x60
44.866773083333335,0,0xFE,0x60
44.883560541666668,0,0xFE,0x60
44.900286958333332,0,0xFE,0x60
44.917013375000003,0,0xFE,0x60
44.934838624999998,0,0xFE,0x60
44.950527291666667,0,0xFE,0x60
44.967436874999997,0,0xFE,0x60
44.984041208333331,0,0xFE,0x60
45.000767625000002,0,0xFE,0x60
45.017555083333335,0,0xFE,0x60
45.034708833333333,0,0xFE,0x60
45.051068999999998,0,0xFE,0x60
45.067795416666669,0,0xFE,0x60
45.084521833333334,0,0xFE,0x60
45.101309333333333,0,0xFE,0x60
45.119073499999999,0,0xFE,0x60
45.134823208333330,0,0xFE,0x60
45.151488583333332,0,0xFE,0x60
45.168337125000001,0,0xFE,0x60
45.185002500000003,0,0xFE,0x60
45.201728916666667,0,0xFE,0x60
45.218882666666666,0,0xFE,0x60
45.235303875000000,0,0xFE,0x60
45.251969250000002,0,0xFE,0x60
45.268695666666666,0,0xFE,0x60
45.285483124999999,0,0xFE,0x60
45.302331666666667,0,0xFE,0x60
45.319851666666665,0,0xFE,0x60
45.335662416666665,0,0xFE,0x60
45.352449916666664,0,0xFE,0x60
45.369237374999997,0,0xFE,0x60
45.385963791666668,0,0xFE,0x60
45.403056499999998,0,0xFE,0x60
45.419416666666663,0,0xFE,0x60
45.436204125000003,0,0xFE,0x60
45.452930541666667,0,0xFE,0x60
45.469718041666667,0,0xFE,0x60
45.486383416666669,0,0xFE,0x60
45.505246416666665,0,0xFE,0x60
45.519897291666666,0,0xFE,0x60
45.536623708333330,0,0xFE,0x60
45.553350166666668,0,0xFE,0x60
45.570198666666670,0,0xFE,0x60
45.587230333333331,0,0xFE,0x60
45.603590500000003,0,0xFE,0x60
45.620316916666667,0,0xFE,0x60
45.637165416666669,0,0xFE,0x60
45.653830791666664,0,0xFE,0x60
45.670557250000002,0,0xFE,0x60
45.689115041666668,0,0xFE,0x60
45.704132166666668,0,0xFE,0x60
45.720797541666670,0,0xFE,0x60
45.737585041666669,0,0xFE,0x60
45.754311458333333,0,0xFE,0x60
45.771098916666666,0,0xFE,0x60
45.788130583333334,0,0xFE,0x60
45.804551791666668,0,0xFE,0x60
45.821278208333332,0,0xFE,0x60
45.838126708333334,0,0xFE,0x60
45.854792125000003,0,0xFE,0x60
45.873166750000003,0,0xFE,0x60
45.888306000000000,0,0xFE,0x60
45.905093500000000,0,0xFE,0x60
45.921758875000002,0,0xFE,0x60
45.938485291666666,0,0xFE,0x60
45.955272749999999,0,0xFE,0x60
45.972426499999997,0,0xFE,0x60
45.988725625000001,0,0xFE,0x60
46.005513083333334,0,0xFE,0x60
46.022239499999998,0,0xFE,0x60
46.039026999999997,0,0xFE,0x60
46.055753416666668,0,0xFE,0x60
46.075165833333337,0,0xFE,0x60
46.089206249999997,0,0xFE,0x60
46.105932708333334,0,0xFE,0x60
46.122659124999998,0,0xFE,0x60
46.139446583333331,0,0xFE,0x60
46.156539291666668,0,0xFE,0x60
46.172899458333333,0,0xFE,0x60
46.189686916666666,0,0xFE,0x60
46.206413333333330,0,0xFE,0x60
46.223139791666668,0,0xFE,0x60
46.239927250000001,0,0xFE,0x60
46.257569333333336,0,0xFE,0x60
46.273441124999998,0,0xFE,0x60
46.290228624999997,0,0xFE,0x60
46.306955041666669,0,0xFE,0x60
46.323681458333333,0,0xFE,0x60
46.340835208333331,0,0xFE,0x60
46.357256416666665,0,0xFE,0x60
46.373921791666668,0,0xFE,0x60
46.390648208333332,0,0xFE,0x60
46.407435708333331,0,0xFE,0x60
46.424284208333333,0,0xFE,0x60
46.441926333333335,0,0xFE,0x60
46.457614958333330,0,0xFE,0x60
46.474402458333330,0,0xFE,0x60
46.491189916666670,0,0xFE,0x60
46.507916333333334,0,0xFE,0x60
46.524642791666665,0,0xFE,0x60
46.541735458333335,0,0xFE,0x60
46.558156666666669,0,0xFE,0x60
46.574883083333333,0,0xFE,0x60
46.591670583333332,0,0xFE,0x60
46.608335958333335,0,0xFE,0x60
46.627565250000004,0,0xFE,0x60
46.641788791666670,0,0xFE,0x60
46.658515250000001,0,0xFE,0x60
46.675302708333334,0,0xFE,0x60
46.692029124999998,0,0xFE,0x60
46.708755541666669,0,0xFE,0x60
46.725848249999999,0,0xFE,0x60
46.742269416666666,0,0x60,0x60
46.759056916666665,0,0xFE,0x60
46.792448708333332,0,0x60,0x60
46.809297208333334,0,0x60,0x60
46.828526500000002,0,0x60,0x60
46.842689041666667,0,0x60,0x60
46.859476500000000,0,0x60,0x60
46.876202916666664,0,0x60,0x60
46.892990416666663,0,0x60,0x60
46.910083083333333,0,0x60,0x60
46.926443249999998,0,0x60,0x60
46.943169666666670,0,0x00,0x60
46.959896125000000,0,0x00,0x60
46.976622541666664,0,0x00,0x00
46.993409999999997,0,0x00,0x00
47.012517208333335,0,0x00,0x00
47.026862874999999,0,0x00,0x00
47.043650333333332,0,0x00,0x00
47.060376750000003,0,0x00,0x00
47.077103208333334,0,0x00,0x00
47.094195874999997,0,0x00,0x00
47.110617124999997,0,0xFE,0x00
54.746719374999998,0,0xFE,0x00
54.763384750000000,0,0xFE,0x62
54.780111166666664,0,0xFE,0x62
54.796898624999997,0,0xFE,0x62
54.813686124999997,0,0xFE,0x62
54.830717749999998,0,0xFE,0x62
54.847138958333332,0,0xFE,0x62
54.863865375000003,0,0xFE,0x62
54.880652875000003,0,0xFE,0x62
54.897379291666667,0,0xFE,0x62
54.915143499999999,0,0xFE,0x62
54.930832125000002,0,0xFE,0x62
54.947680666666663,0,0xFE,0x62
54.964346041666666,0,0xFE,0x62
54.981072458333337,0,0xFE,0x62
54.997920999999998,0,0xFE,0x62
55.015013666666668,0,0xFE,0x62
55.031312791666664,0,0xFE,0x62
55.048100249999997,0,0xFE,0x62
55.064826708333335,0,0xFE,0x62
55.081736249999999,0,0xFE,0x62
55.098340583333332,0,0xFE,0x62
55.117814041666669,0,0xFE,0x62
55.131732416666665,0,0xFE,0x62
55.148519874999998,0,0xFE,0x62
55.165246291666669,0,0xFE,0x62
55.181972708333333,0,0xFE,0x62
55.199126458333332,0,0xFE,0x62
55.215486624999997,0,0xFE,0x62
55.232213041666668,0,0xFE,0x62
55.249000500000001,0,0xFE,0x62
55.265726958333332,0,0xFE,0x62
55.282453375000003,0,0xFE,0x62
55.300156541666666,0,0xFE,0x62
55.315967291666666,0,0xFE,0x62
55.332815791666668,0,0xFE,0x62
55.349481166666664,0,0xFE,0x62
55.366268624999996,0,0xFE,0x62
55.383422375000002,0,0xFE,0x62
55.399782541666667,0,0xFE,0x62
55.416508958333331,0,0xFE,0x62
55.433235375000002,0,0xFE,0x62
55.449961833333333,0,0xFE,0x62
55.466871374999997,0,0xFE,0x62
55.486039624999997,0,0xFE,0x62
55.500141083333332,0,0xFE,0x62
55.516928583333332,0,0xFE,0x62
55.533655000000003,0,0xFE,0x62
55.550381416666667,0,0xFE,0x62
55.567168875000000,0,0xFE,0x62
55.584261583333330,0,0xFE,0x62
55.600621750000002,0,0xFE,0x62
55.617409208333335,0,0xFE,0x62
55.634135666666666,0,0xFE,0x62
55.650862083333337,0,0xFE,0x62
55.668687333333331,0,0xFE,0x62
55.684375958333334,0,0xFE,0x62
55.701163458333333,0,0xFE,0x62
55.717950916666666,0,0xFE,0x62
55.734677333333330,0,0xFE,0x62
55.751403750000001,0,0xFE,0x62
55.768557500000000,0,0xFE,0x62
55.784978708333334,0,0xFE,0x62
55.801644083333336,0,0xFE,0x62
55.818370500000000,0,0xFE,0x62
55.835096958333331,0,0xFE,0x62
55.852006500000002,0,0xFE,0x62
55.871113708333333,0,0xFE,0x62
55.885337291666666,0,0xFE,0x62
55.902063708333330,0,0xFE,0x62
55.918790125000001,0,0xFE,0x62
55.935577583333334,0,0xFE,0x62
55.952670291666664,0,0xFE,0x62
55.969030458333336,0,0xFE,0x62
55.985756875000000,0,0xFE,0x62
56.002544333333333,0,0xFE,0x62
56.019270791666663,0,0xFE,0x62
56.035997208333335,0,0xFE,0x62
56.053700374999998,0,0xFE,0x62
56.069511083333332,0,0xFE,0x62
56.086298583333331,0,0xFE,0x62
56.103147083333333,0,0xFE,0x62
56.119812458333335,0,0xFE,0x62
56.136905166666665,0,0xFE,0x62
56.153326374999999,0,0xFE,0x62
56.170113833333332,0,0xFE,0x62
56.186779208333334,0,0xFE,0x62
56.203505666666665,0,0xFE,0x62
56.220293124999998,0,0xFE,0x62
56.239522416666667,0,0xFE,0x62
56.253745958333333,0,0xFE,0x62
56.270472416666664,0,0xFE,0x62
56.287198833333335,0,0xFE,0x62
56.303925249999999,0,0xFE,0x62
56.320712708333332,0,0xFE,0x62
56.337805416666669,0,0xFE,0x62
56.354165583333334,0,0xFE,0x62
56.370953041666667,0,0xFE,0x62
56.387679458333331,0,0xFE,0x62
56.404405916666668,0,0xFE,0x62
56.422292208333332,0,0xFE,0x62
56.437919791666666,0,0xFE,0x62
56.454768333333334,0,0xFE,0x62
56.471433708333336,0,0xFE,0x62
56.488282208333331,0,0xFE,0x62
56.504947583333333,0,0xFE,0x62
56.522040291666670,0,0xFE,0x62
56.538522541666666,0,0xFE,0x62
56.555248958333337,0,0xFE,0x62
56.571914333333332,0,0xFE,0x62
56.588640791666670,0,0xFE,0x62
56.605428250000003,0,0xFE,0x62
56.624901708333333,0,0xFE,0x62
56.638881083333331,0,0xFE,0x62
56.655607541666669,0,0xFE,0x62
56.672333958333333,0,0xFE,0x62
56.689121416666666,0,0xFE,0x62
56.706214125000002,0,0xFE,0x62
56.722574291666668,0,0xFE,0x62
56.739300708333332,0,0xFE,0x62
56.756088166666665,0,0xFE,0x62
56.772814625000002,0,0xFE,0x62
56.789541041666666,0,0xFE,0x62
56.808770333333335,0,0xFE,0x62
56.823054916666663,0,0xFE,0x62
56.839781375000001,0,0xFE,0x62
56.856568833333334,0,0xFE,0x62
56.873295249999998,0,0xFE,0x62
56.890387958333335,0,0xFE,0x62
56.906809166666669,0,0xFE,0x62
56.923535583333333,0,0xFE,0x62
56.940323041666666,0,0xFE,0x62
56.957049458333330,0,0xFE,0x62
56.973775916666668,0,0xFE,0x62
56.991662208333331,0,0xFE,0x62
57.007289791666665,0,0xFE,0x62
57.024138333333333,0,0xFE,0x62
57.040803708333335,0,0xFE,0x62
57.057591166666668,0,0xFE,0x62
57.074317583333332,0,0xFE,0x62
57.091410291666669,0,0xFE,0x62
57.107831500000003,0,0xFE,0x62
57.124618958333336,0,0xFE,0x62
57.141284333333331,0,0xFE,0x62
57.158010791666669,0,0xFE,0x62
57.175835999999997,0,0xFE,0x62
57.191646749999997,0,0xFE,0x62
57.208251083333330,0,0xFE,0x62
57.224977541666668,0,0xFE,0x62
57.241765000000001,0,0xFE,0x62
57.258552458333334,0,0xFE,0x62
57.275645166666663,0,0xFE,0x62
57.292005333333336,0,0xFE,0x62
57.308731750000000,0,0xFE,0x62
57.325519208333333,0,0xFE,0x62
57.342245666666663,0,0xFE,0x62
57.359033083333337,0,0x62,0x62
57.376675208333332,0,0xFE,0x62
57.409151333333334,0,0x62,0x62
57.425938791666667,0,0x62,0x62
57.442726250000000,0,0x62,0x62
57.459818958333337,0,0x62,0x62
57.476179125000002,0,0x62,0x62
57.492905541666666,0,0x62,0x62
57.509631958333337,0,0x62,0x62
57.526541541666667,0,0x62,0x62
57.543145875000000,0,0x62,0x62
57.561764708333335,0,0x00,0x62
57.576598708333336,0,0x00,0x62
57.593386208333335,0,0x00,0x00
57.610051583333330,0,0x00,0x00
57.626839041666663,0,0x00,0x00
57.643931750000000,0,0x00,0x00
57.660352958333334,0,0x00,0x00
57.677079374999998,0,0x00,0x00
57.693805791666669,0,0x00,0x00
57.710532208333333,0,0x00,0x00
57.727380791666668,0,0xFE,0x00
100.946145874999999,0,0xFE,0x00
100.962872291666670,0,0xFE,0x62
100.979598708333327,0,0xFE,0x62
100.996386208333334,0,0xFE,0x62
101.013234708333329,0,0xFE,0x62
101.029839041666662,0,0xFE,0x62
101.046626500000002,0,0xFE,0x62
101.063352958333340,0,0xFE,0x62
101.082643291666670,0,0xFE,0x62
101.096805791666668,0,0xFE,0x62
101.113532208333339,0,0xFE,0x62
101.130319708333332,0,0xFE,0x62
101.147046125000003,0,0xFE,0x62
101.163772541666660,0,0xFE,0x62
101.180560000000000,0,0xFE,0x62
101.197286416666671,0,0xFE,0x62
101.214073916666663,0,0xFE,0x62
101.230800333333335,0,0xFE,0x62
101.247587791666660,0,0xFE,0x62
101.264375291666667,0,0xFE,0x62
101.281040666666669,0,0xFE,0x62
101.298255458333330,0,0xFE,0x62
101.314554541666666,0,0xFE,0x62
101.331280958333338,0,0xFE,0x62
101.348007416666661,0,0xFE,0x62
101.364855916666670,0,0xFE,0x62
101.381582333333327,0,0xFE,0x62
101.398247708333329,0,0xFE,0x62
101.415035208333336,0,0xFE,0x62
101.431761624999993,0,0xFE,0x62
101.448488041666664,0,0xFE,0x62
101.465397624999994,0,0xFE,0x62
101.482001958333328,0,0xFE,0x62
101.501231208333337,0,0xFE,0x62
101.515454791666670,0,0xFE,0x62
101.532181208333327,0,0xFE,0x62
101.548907624999998,0,0xFE,0x62
101.565695125000005,0,0xFE,0x62
101.582421541666662,0,0xFE,0x62
101.599147916666666,0,0x62,0x62
101.615935458333340,0,0xFE,0x62
101.649388250000001,0,0x62,0x62
101.666236791666662,0,0x62,0x62
101.682963208333334,0,0x62,0x62
101.700055916666670,0,0x62,0x62
101.716477083333331,0,0x62,0x62
101.733142458333333,0,0x62,0x62
101.749990999999994,0,0x62,0x62
101.766656374999997,0,0x62,0x62
101.783382791666668,0,0x62,0x62
101.800170249999994,0,0x00,0x62
101.816896708333331,0,0x00,0x62
101.833684166666671,0,0x00,0x00
101.850349541666674,0,0x00,0x00
101.867075958333331,0,0x00,0x00
101.883802416666668,0,0x00,0x00
101.900589874999994,0,0x00,0x00
101.919819166666670,0,0x00,0x00
101.934042708333337,0,0x00,0x00
101.950769124999994,0,0x00,0x00
101.967495583333331,0,0xFE,0x00
103.536544208333339,0,0xFE,0x00
103.541671958333339,0,0x62,0x62
103.558520541666667,0,0xFE,0x62
103.591851250000005,0,0x62,0x62
103.608577666666662,0,0x62,0x62
103.625365166666668,0,0x62,0x62
103.642091583333340,0,0x62,0x62
103.658817999999997,0,0x62,0x62
103.675605458333337,0,0x62,0x62
103.692331874999994,0,0x62,0x62
103.709119375000000,0,0x62,0x62
103.725845791666671,0,0x62,0x62
103.742633249999997,0,0x62,0x62
103.759359708333335,0,0x62,0x62
103.776513416666660,0,0x00,0x00
103.792812541666663,0,0x00,0x00
103.809538958333334,0,0x00,0x00
103.826326416666660,0,0x00,0x00
103.843113916666667,0,0x00,0x00
103.859779291666669,0,0x00,0x00
103.876627791666664,0,0x00,0x00
103.893293166666666,0,0x00,0x00
103.910019625000004,0,0x00,0x00
103.960259916666672,0,0x00,0x00
103.977047416666665,0,0xFD,0x00
104.027226666666664,0,0xFD,0x00
104.028569666666669,0,0xFD,0xFD
104.029851625000006,0,0xFD,0xFD
104.031133583333329,0,0xFD,0xFD
104.032415541666666,0,0xFD,0xFD
104.033697500000002,0,0xFD,0xFD
104.034979416666673,0,0xFD,0xFD
104.036261374999995,0,0xFD,0xFD
104.037543333333332,0,0xFD,0xFD
104.038886333333338,0,0xFD,0x40
104.040229333333329,0,0x61,0xA9
104.041511291666666,0,0xDF,0x14
104.042793250000003,0,0x5F,0x81
104.044075208333339,0,0xE1,0xF0
104.045357124999995,0,0x65,0x61
104.046639083333332,0,0xEB,0xD3
104.047921041666669,0,0x73,0x47
104.049203000000006,0,0xFC,0xBD
104.050545999999997,0,0x87,0x35
104.051827958333334,0,0x14,0xFD
104.053109916666671,0,0xFD,0xFD
104.054391874999993,0,0xFD,0xFD
104.055673791666663,0,0xFD,0xFD
104.056955750000000,0,0xFD,0xFD
104.058237708333337,0,0xFD,0xFD
104.059519666666674,0,0xFD,0xFD
104.060862666666665,0,0xFD,0xFD
104.062205666666671,0,0x91,0xFD
104.063487624999993,0,0x84,0x81
104.064769583333330,0,0x83,0x8B
104.066051500000000,0,0x50,0x94
104.067333500000004,0,0x80,0x84
104.068615458333326,0,0x92,0x50
104.069897416666663,0,0x87,0x86
104.071179333333333,0,0x50,0x80
104.072461333333337,0,0x89,0x91
104.073743250000007,0,0x80,0x98
104.075025208333329,0,0x82,0x50
104.076368208333335,0,0x01,0x89
104.077711166666660,0,0xB1,0x01
104.078993124999997,0,0xFF,0xB0
104.080275083333333,0,0x00,0xFF
104.081557041666670,0,0x00,0x00
104.082839000000007,0,0x00,0x00
104.084120958333330,0,0x00,0x00
104.085402875000000,0,0x00,0x00
104.086684875000003,0,0xB1,0x00
104.087966791666673,0,0x00,0xB0
104.089248749999996,0,0x15,0x00
104.090591750000002,0,0x00,0x16
104.091934749999993,0,0x00,0x00
104.093216708333330,0,0x15,0x00
104.094498666666667,0,0x15,0x14
104.095780583333337,0,0x2D,0x14
104.097062541666673,0,0x21,0x2D
104.098344499999996,0,0x27,0x0A
104.099626458333333,0,0x00,0x2D
104.100908416666670,0,0x00,0x00
104.102190375000006,0,0x08,0x00
104.103472333333329,0,0x28,0x21
104.104754291666666,0,0x00,0xAF
104.106097250000005,0,0x00,0x00
104.107440291666663,0,0xCA,0x00
104.108722250000000,0,0x00,0xCD
104.110004166666670,0,0x2D,0x00
104.111286125000007,0,0x00,0x2C
104.112568083333329,0,0x31,0x00
104.113850041666666,0,0x00,0x30
104.115132000000003,0,0x31,0x00
104.116413916666673,0,0x00,0x41
104.117695874999995,0,0x2D,0x00
104.118977833333332,0,0x00,0x2B
104.120320833333338,0,0x41,0x00
104.121663833333329,0,0xA9,0x32
104.122945791666666,0,0x45,0x90
104.124227750000003,0,0x23,0xD5
104.125509666666673,0,0x1E,0x23
104.126791624999996,0,0x00,0x28
104.128073583333332,0,0x00,0x00
104.129355541666669,0,0x06,0x00
104.130637500000006,0,0x00,0x06
104.131919458333329,0,0x15,0x00
104.133201416666665,0,0x00,0x16
104.134483375000002,0,0x0C,0x00
104.135826374999994,0,0x00,0x0C
104.137169333333333,0,0x0D,0x00
104.138451291666669,0,0x00,0x0A
104.139733250000006,0,0x0A,0x00
104.141015208333329,0,0x00,0x0E
104.142297166666665,0,0x0B,0x00
104.143579125000002,0,0x00,0x0B
104.144861041666672,0,0x00,0x00
104.146142999999995,0,0x00,0x00
104.147424958333332,0,0x00,0x00
104.148706916666669,0,0x00,0x00
104.150049916666660,0,0x00,0x00
104.151392916666666,0,0x00,0x00
104.152674875000002,0,0x00,0x00
104.153956833333339,0,0x00,0x00
104.155238791666662,0,0x00,0x00
104.156520708333332,0,0x00,0x00
104.157802666666669,0,0x00,0x00
104.159084625000006,0,0x00,0x00
104.160366583333328,0,0x00,0x00
104.161648541666665,0,0x00,0x00
104.162930500000002,0,0x00,0x00
104.164212458333338,0,0x00,0x00
104.165555458333330,0,0x00,0x00
104.166898416666669,0,0x00,0x00
104.168180375000006,0,0x00,0x00
104.169462333333328,0,0x00,0x00
104.170744291666665,0,0x00,0x00
104.172026250000002,0,0x00,0x00
104.173308208333339,0,0x00,0x00
104.174590166666661,0,0x00,0x00
104.175872083333331,0,0x00,0x00
104.177154041666668,0,0x00,0x00
104.178436000000005,0,0x00,0x00
104.179778999999996,0,0x00,0x00
104.181122000000002,0,0x00,0x00
104.182403958333339,0,0x00,0x00
104.183685916666661,0,0x00,0x00
104.184967874999998,0,0x00,0x00
104.186249833333335,0,0x00,0x00
104.187531750000005,0,0x00,0x00
104.188813708333328,0,0x00,0x00
104.190095666666664,0,0x00,0x00
104.191377625000001,0,0x00,0x00
104.192659583333338,0,0x00,0x00
104.193941541666661,0,0x00,0x00
104.195284541666666,0,0x00,0x00
104.196627541666672,0,0x00,0x00
104.197909458333328,0,0x00,0x00
104.199191416666665,0,0x00,0x00
104.200473375000001,0,0x00,0x00
104.201755333333338,0,0x00,0x00
104.203037291666661,0,0x00,0x00
104.204319249999998,0,0x00,0x00
104.205601208333334,0,0x00,0x00
104.206883125000004,0,0x00,0x00
104.208165083333327,0,0x00,0x00
104.209508083333333,0,0x00,0x00
104.210851083333338,0,0x00,0x00
104.212133041666661,0,0x00,0x00
104.213414999999998,0,0x00,0x00
104.214696958333334,0,0x00,0x00
104.215978916666671,0,0x00,0x00
104.217260833333327,0,0x00,0x00
104.218542791666664,0,0x00,0x00
104.219824750000001,0,0x00,0x00
104.221106708333338,0,0x00,0x00
104.222388666666660,0,0x00,0x00
104.223670624999997,0,0x00,0x00
104.225013625000003,0,0x00,0x00
104.226356624999994,0,0x00,0x00
104.227638541666664,0,0x00,0x00
104.228920500000001,0,0x00,0x00
104.230202458333338,0,0x00,0x00
104.231484416666660,0,0x00,0x00
104.232766374999997,0,0x00,0x00
104.234048333333334,0,0x00,0x00
104.235330291666671,0,0x00,0x00
104.236612208333327,0,0x00,0x00
104.237894166666663,0,0x00,0x00
104.239237166666669,0,0x00,0x00
104.240580166666660,0,0x00,0x00
104.241862124999997,0,0x00,0x00
104.243144083333334,0,0x00,0x00
104.244426041666671,0,0x00,0x00
104.245707999999993,0,0x00,0x00
104.246989916666664,0,0x00,0x00
104.248271875000000,0,0x00,0x00
104.249553833333337,0,0x00,0x00
104.250835791666660,0,0x00,0x00
104.252117749999996,0,0x00,0x00
104.253399708333333,0,0x00,0x00
104.254742708333339,0,0x00,0x00
104.256085708333330,0,0x00,0x00
104.257367625000001,0,0x00,0x00
104.258649583333337,0,0x00,0x00
104.259931541666660,0,0x00,0x00
104.261213499999997,0,0x00,0x00
104.262495458333333,0,0x00,0x00
104.263777416666670,0,0x00,0x00
104.265059375000007,0,0x00,0x00
104.266341291666663,0,0x00,0x00
104.267623250000000,0,0x00,0x00
104.268966250000005,0,0x00,0x00
104.270309249999997,0,0x00,0x00
104.271591208333334,0,0x00,0x00
104.272873166666670,0,0x00,0x00
104.274155124999993,0,0x00,0x00
104.275437083333330,0,0x00,0x00
104.276719041666666,0,0x00,0x00
104.278000958333337,0,0x00,0x00
104.279282916666673,0,0x00,0x00
104.280564874999996,0,0x00,0x00
104.281846833333333,0,0x00,0x00
104.283128791666670,0,0x00,0x00
104.284471791666661,0,0x00,0x00
104.285814791666667,0,0x00,0x00
104.287096750000003,0,0x00,0x00
104.288378666666674,0,0x00,0x00
104.289660624999996,0,0x00,0x00
104.290942583333333,0,0x00,0x00
104.292224541666670,0,0x00,0x00
104.293506500000007,0,0x00,0x00
104.294788458333329,0,0x00,0x00
104.296070416666666,0,0x00,0x00
104.297352333333336,0,0x00,0x00
104.298695333333328,0,0x00,0x00
104.300038333333333,0,0x00,0x00
104.301320291666670,0,0x00,0x00
104.302602250000007,0,0x00,0x00
104.303884208333329,0,0x00,0x00
104.305166166666666,0,0x00,0x00
104.306448125000003,0,0x00,0x00
104.307730041666673,0,0x00,0x00
104.309011999999996,0,0x00,0x00
104.310293958333332,0,0x00,0x00
104.311575916666669,0,0x00,0x00
104.312857875000006,0,0x00,0x00
104.314200874999997,0,0x00,0x00
104.315543875000003,0,0x00,0x00
104.316825833333340,0,0x00,0x00
104.318107749999996,0,0x00,0x00
104.319389708333333,0,0x00,0x00
104.320671666666669,0,0x00,0x00
104.321953625000006,0,0x00,0x00
104.323235583333329,0,0x00,0x00
104.324517541666665,0,0x00,0x00
104.325799500000002,0,0x00,0x00
104.327081416666672,0,0x00,0x00
104.328424416666664,0,0x00,0x00
104.329767416666670,0,0x00,0x00
104.331049375000006,0,0x00,0x00
104.332331333333329,0,0x00,0x00
104.333613291666666,0,0x00,0x00
104.334895250000002,0,0x00,0x00
104.336177208333339,0,0x00,0x00
104.337459124999995,0,0x00,0x00
104.338741083333332,0,0x00,0x00
104.340023041666669,0,0x00,0x00
104.341305000000006,0,0x00,0x00
104.342586958333328,0,0x00,0x00
104.343929958333334,0,0x00,0x00
104.345272958333339,0,0x00,0x00
104.346554916666662,0,0x00,0x00
104.347836833333332,0,0x00,0x00
104.349118791666669,0,0x00,0x00
104.350400750000006,0,0x00,0x00
104.351682708333328,0,0x00,0x00
104.352964666666665,0,0x00,0x00
104.354246625000002,0,0x00,0x00
104.355528583333339,0,0x00,0x00
104.356810499999995,0,0x00,0x00
104.358153500000000,0,0x00,0x00
104.359496500000006,0,0x00,0x00
104.360778458333328,0,0x00,0x00
104.362060416666665,0,0x00,0x00
104.363342375000002,0,0x00,0x00
104.364624333333339,0,0x00,0x00
104.365906291666661,0,0x00,0x00
104.367188208333332,0,0x00,0x00
104.368470166666668,0,0x00,0x00
104.369752125000005,0,0x00,0x00
104.371034083333328,0,0x00,0x00
104.372316041666664,0,0x00,0x00
104.373659041666670,0,0x00,0x00
104.375002041666662,0,0x00,0x00
104.376283999999998,0,0x00,0x00
104.377565958333335,0,0x00,0x00
104.378847875000005,0,0x00,0x00
104.380129833333328,0,0x00,0x00
104.381411791666665,0,0x00,0x00
104.382693750000001,0,0x00,0x00
104.383975708333338,0,0x00,0x00
104.385257666666661,0,0x00,0x00
104.386539624999997,0,0x00,0x00
104.387882583333337,0,0x00,0x00
104.389225583333328,0,0x00,0x00
104.390507541666665,0,0x00,0x00
104.391789500000002,0,0x00,0x00
104.393071458333338,0,0x00,0x00
104.394353416666661,0,0x00,0x00
104.395635374999998,0,0x00,0x00
104.396917333333334,0,0x00,0x00
104.398199250000005,0,0x00,0x00
104.399481208333327,0,0x00,0x00
104.400763166666664,0,0x00,0x00
104.402045125000001,0,0x00,0x00
104.403388125000006,0,0x00,0x00
104.404731124999998,0,0x00,0x00
104.406013083333335,0,0x00,0x00
104.407295041666671,0,0x00,0x00
104.408576958333327,0,0x00,0x00
104.409858916666664,0,0x00,0x00
104.411140875000001,0,0x00,0x00
104.412422833333338,0,0x00,0x00
104.413704791666660,0,0x00,0x00
104.414986749999997,0,0x00,0x00
104.416268708333334,0,0x00,0x00
104.417611708333339,0,0x00,0x00
104.418954666666664,0,0x00,0x00
104.420236625000001,0,0x00,0x00
104.421518583333338,0,0x00,0x00
104.422800541666660,0,0x00,0x00
104.424082499999997,0,0x00,0x00
104.425364458333334,0,0x00,0x00
104.426646416666671,0,0x00,0x00
104.427928374999993,0,0x81,0x00
104.429210333333330,0,0x8B,0x91
104.430492250000000,0,0x94,0x84
104.431774250000004,0,0x84,0x83
104.433117208333329,0,0x50,0x50
104.434460250000001,0,0x86,0x80
104.435742208333338,0,0x80,0x92
104.437024166666660,0,0x91,0x87
104.438306041666664,0,0x98,0x50
104.439588041666667,0,0x50,0x89
104.440870000000004,0,0x89,0x80
104.442151916666660,0,0x00,0x82
104.443433874999997,0,0x00,0x00
104.444715833333333,0,0x00,0x00
104.445997791666670,0,0x00,0x00
104.447340791666662,0,0x00,0x00
104.448683791666667,0,0x00,0x00
104.449965708333337,0,0x00,0x00
104.451247666666660,0,0x00,0x00
104.452529624999997,0,0x00,0x00
104.453811583333334,0,0x00,0x00
104.455093541666670,0,0x00,0x00
104.456375499999993,0,0x00,0x00
104.457657416666663,0,0x00,0x00
104.458939375000000,0,0x00,0x00
104.460221333333337,0,0x00,0x00
104.461503291666673,0,0x00,0x00
104.462846291666665,0,0x00,0x00
104.464189291666671,0,0x00,0x00
104.465471249999993,0,0x00,0x00
104.466753208333330,0,0x00,0x00
104.468035166666667,0,0x00,0x00
104.469317083333337,0,0x00,0x00
104.470599041666674,0,0x00,0x00
104.471880999999996,0,0x00,0x00
104.473162958333333,0,0x00,0x00
104.474444916666670,0,0x00,0x00
104.475726875000007,0,0x00,0x00
104.477069874999998,0,0x00,0x00
104.478412875000004,0,0x00,0x00
104.479694791666660,0,0x00,0x00
104.480976749999996,0,0x00,0x00
104.482258708333333,0,0x00,0x00
104.483540666666670,0,0x00,0x00
104.484822625000007,0,0x00,0x00
104.486104583333329,0,0x00,0x00
104.487386541666666,0,0x00,0x00
104.488668458333336,0,0x00,0x00
104.489950416666673,0,0x00,0x00
104.491232374999996,0,0x00,0x00
104.492575375000001,0,0x00,0x00
104.493918375000007,0,0x00,0x00
104.495200333333329,0,0x00,0x00
104.496482291666666,0,0x00,0x00
104.497764250000003,0,0x00,0x00
104.499046166666673,0,0x00,0x00
104.500328124999996,0,0x00,0x00
104.501610083333333,0,0x00,0x00
104.502892041666669,0,0x00,0x00
104.504174000000006,0,0x00,0x00
104.505455958333329,0,0x00,0x00
104.506798958333334,0,0x00,0x00
104.508141958333340,0,0x00,0x00
104.509423874999996,0,0x00,0x00
104.510705833333333,0,0x00,0x00
104.511987791666670,0,0x00,0x00
104.513269791666673,0,0x92,0x00
104.514551749999995,0,0x90,0x82
104.515833708333332,0,0x94,0x87
104.517115625000002,0,0x88,0x80
104.518397625000006,0,0x91,0x91
104.519679499999995,0,0x93,0x8C
104.520961458333332,0,0x8B,0x80
104.522304458333338,0,0x84,0x8D
104.523647458333329,0,0x50,0x83
104.524929416666666,0,0x50,0x84
104.526211375000003,0,0x50,0x91
104.527493291666673,0,0x00,0x50
104.528775249999995,0,0x00,0x00
104.530057208333332,0,0x00,0x00
104.531339166666669,0,0x00,0x00
104.532621125000006,0,0x00,0x00
104.533903083333328,0,0x00,0x00
104.535185041666665,0,0x00,0x00
104.536528041666671,0,0x00,0x00
104.537871041666662,0,0x00,0x00
104.539152999999999,0,0x00,0x00
104.540434916666669,0,0x00,0x00
104.541716875000006,0,0x00,0x00
104.542998833333328,0,0x00,0x00
104.544280791666665,0,0x00,0x00
104.545562750000002,0,0x00,0x00
104.546844708333339,0,0x00,0x00
104.548126624999995,0,0x00,0x00
104.549408583333332,0,0x00,0x00
104.550690541666668,0,0x00,0x00
104.552033541666660,0,0x00,0x00
104.553376541666665,0,0x00,0x00
104.554658500000002,0,0x00,0x00
104.555940458333339,0,0x00,0x00
104.557222416666662,0,0x00,0x00
104.558504374999998,0,0x00,0x00
104.559786291666668,0,0x00,0x00
104.561068250000005,0,0x00,0x00
104.562350208333328,0,0x00,0x00
104.563632166666665,0,0x00,0x00
104.564914125000001,0,0x00,0x00
104.566257125000007,0,0x00,0x00
104.567600124999998,0,0x00,0x00
104.568882083333335,0,0x00,0x00
104.570164000000005,0,0x00,0x00
104.571445958333328,0,0x00,0x00
104.572727916666665,0,0x00,0x00
104.574009875000002,0,0x00,0x00
104.575291833333338,0,0x00,0x00
104.576573791666661,0,0x00,0x00
104.577855749999998,0,0x00,0x00
104.579137666666668,0,0x00,0x00
104.580419625000005,0,0x00,0x00
104.581762624999996,0,0x00,0x00
104.583105625000002,0,0x00,0x00
104.584387583333339,0,0x00,0x00
104.585669541666661,0,0x00,0x00
104.586951499999998,0,0x00,0x00
104.588233458333335,0,0x00,0x00
104.589515375000005,0,0x00,0x00
104.590797333333327,0,0x00,0x00
104.592079291666664,0,0x00,0x00
104.593361250000001,0,0x00,0x00
104.594643208333338,0,0x00,0x00
104.595986208333329,0,0x00,0x00
104.597329208333335,0,0x00,0x00
104.598611166666672,0,0x48,0x00
104.599893083333328,0,0x00,0x48
104.601175041666664,0,0x00,0x00
104.602518083333337,0,0xFD,0x00
104.603800000000007,0,0xFD,0xFD
104.605081958333329,0,0xFD,0xFD
104.606363916666666,0,0xFD,0xFD
104.607645875000003,0,0xFD,0xFD
104.608927791666673,0,0xFD,0x00
104.610209749999996,0,0x00,0x00
104.611552750000001,0,0x00,0x00
104.612895750000007,0,0x00,0x00
104.614177708333330,0,0x00,0x00
104.615459666666666,0,0x00,0x00
104.616741625000003,0,0x00,0x00
104.618023583333340,0,0x00,0xFF
104.619305541666662,0,0xFF,0xFF
104.620587458333333,0,0xFF,0x00
104.621869416666669,0,0x00,0x00
104.623151375000006,0,0x00,0x00
104.624433333333329,0,0x00,0x00
104.625715291666666,0,0x00,0x00
104.627058291666671,0,0x00,0x00
104.628401291666663,0,0x00,0x00
104.629683249999999,0,0x00,0x00
104.630965166666670,0,0x00,0x00
104.632247125000006,0,0x00,0x00
104.633529083333329,0,0x00,0x00
104.634811041666666,0,0x00,0x00
104.636093000000002,0,0x00,0x00
104.637374958333339,0,0x00,0x00
104.638656916666662,0,0x00,0x00
104.639938833333332,0,0x00,0x00
104.641281833333338,0,0x00,0x00
104.642624833333329,0,0x00,0x00
104.643906791666666,0,0x00,0x00
104.645188750000003,0,0x00,0x00
104.646470708333339,0,0x00,0x00
104.647752666666662,0,0x00,0x00
104.649034624999999,0,0x00,0x00
104.650316541666669,0,0x00,0x00
104.651598500000006,0,0x00,0x00
104.652880458333328,0,0x00,0x00
104.654162416666665,0,0x00,0x00
104.655444375000002,0,0x00,0x00
104.656787374999993,0,0x00,0x00
104.658130374999999,0,0x00,0x00
104.659412333333336,0,0x00,0x00
104.660694250000006,0,0x00,0x00
104.661976208333328,0,0x00,0x00
104.663258166666665,0,0x00,0x00
104.664540125000002,0,0x00,0x00
104.665822083333339,0,0x00,0x00
104.667104041666661,0,0x00,0x00
104.668385999999998,0,0x00,0x00
104.669667916666668,0,0x00,0x00
104.671010916666660,0,0x00,0x00
104.672353916666665,0,0x00,0x00
104.673635875000002,0,0x00,0x00
104.674917833333339,0,0x00,0x00
104.676199791666662,0,0x00,0x00
104.677481749999998,0,0x00,0x00
104.678763708333335,0,0x00,0x00
104.680045666666672,0,0x00,0x00
104.681327583333328,0,0x00,0x00
104.682609541666665,0,0x00,0x00
104.683891500000001,0,0x00,0x00
104.685173458333338,0,0x00,0x00
104.686516458333330,0,0x00,0x00
104.687859458333335,0,0x00,0x00
104.689141416666672,0,0x00,0x00
104.690423374999995,0,0x00,0x00
104.691705291666665,0,0x00,0x00
104.692987250000002,0,0x00,0x00
104.694269208333338,0,0x00,0x00
104.695551166666661,0,0x00,0x00
104.696833124999998,0,0x00,0x00
104.698115083333334,0,0x00,0x00
104.699397041666671,0,0x00,0x00
104.700739999999996,0,0x00,0x00
104.702083000000002,0,0x00,0x00
104.703364958333339,0,0x00,0x00
104.704646916666661,0,0x00,0x00
104.705928874999998,0,0x00,0x00
104.707210833333335,0,0x00,0x00
104.708492791666671,0,0x00,0x00
104.709774749999994,0,0x00,0x00
104.711056666666664,0,0x00,0x00
104.712338625000001,0,0x00,0x00
104.713620583333338,0,0x00,0x00
104.714902541666660,0,0x00,0x00
104.716245541666666,0,0x00,0x00
104.717588541666672,0,0x00,0x00
104.718870499999994,0,0x00,0x00
104.720152458333331,0,0x00,0x00
104.721434375000001,0,0x00,0x00
104.722716333333338,0,0x00,0x00
104.723998291666661,0,0x00,0x00
104.725280249999997,0,0x00,0x00
104.726562208333334,0,0x00,0x00
104.727844166666671,0,0x00,0x00
104.729126124999993,0,0x00,0x00
104.730469124999999,0,0x00,0x00
104.731812083333338,0,0x00,0x00
104.733094041666661,0,0x00,0x00
104.734375999999997,0,0x00,0x00
104.735657958333334,0,0x00,0x00
104.736939916666671,0,0x00,0x00
104.738221874999994,0,0x00,0x00
104.739503833333330,0,0x00,0x00
104.740785750000001,0,0x00,0x00
104.742067708333337,0,0x00,0x00
104.743349666666660,0,0x00,0x00
104.744631624999997,0,0x00,0x00
104.745974625000002,0,0x00,0x00
104.747317624999994,0,0x00,0x00
104.748599583333331,0,0x00,0x00
104.749881541666667,0,0x00,0x00
104.751163458333338,0,0x00,0x00
104.752445416666660,0,0x00,0x00
104.753727374999997,0,0x00,0x00
104.755009333333334,0,0x00,0x00
104.756291291666670,0,0x00,0x00
104.757573249999993,0,0x00,0x00
104.758855208333330,0,0x00,0x00
104.760198208333335,0,0x00,0x00
104.761541208333327,0,0x00,0x00
104.762823124999997,0,0x00,0x00
104.764105083333334,0,0x00,0x00
104.765387041666671,0,0x00,0x00
104.766668999999993,0,0x00,0x00
104.767950958333330,0,0x00,0x00
104.769232916666667,0,0x00,0x00
104.770514875000003,0,0x00,0x00
104.771796791666674,0,0x00,0x00
104.773078749999996,0,0x00,0x00
104.774360708333333,0,0x00,0x00
104.775703708333339,0,0x00,0x00
104.777046708333330,0,0x00,0x00
104.778328666666667,0,0x00,0x00
104.779610625000004,0,0x00,0x00
104.780892583333326,0,0x00,0x00
104.782174499999996,0,0x00,0x00
104.783456458333333,0,0x00,0x00
104.784738416666670,0,0x00,0x00
104.786020375000007,0,0x00,0x00
104.787302333333329,0,0x00,0x00
104.788584291666666,0,0x00,0x00
104.789927291666672,0,0x00,0x00
104.791270291666663,0,0x00,0x00
104.792552208333333,0,0x00,0x00
104.793834166666670,0,0x00,0x00
104.795116125000007,0,0x00,0x00
104.796398083333330,0,0x00,0x00
104.797680041666666,0,0x00,0x00
104.798962000000003,0,0x00,0x00
104.800243958333340,0,0x00,0x00
104.801525874999996,0,0x00,0x00
104.802807833333333,0,0x00,0x00
104.804089791666669,0,0x00,0x00
104.805432791666661,0,0x00,0x00
104.806775791666666,0,0x00,0x00
104.808057750000003,0,0x00,0x00
104.809339708333340,0,0x00,0x00
104.810621666666663,0,0x00,0x00
104.811903583333333,0,0x00,0x00
104.813185541666670,0,0x00,0x00
104.814467500000006,0,0x00,0x00
104.815749458333329,0,0x00,0x00
104.817031416666666,0,0x00,0x00
104.818313375000002,0,0x00,0x00
104.819656374999994,0,0x00,0x00
104.820999375000000,0,0x00,0x00
104.822281291666670,0,0x00,0x00
104.823563250000007,0,0x00,0x00
104.824845208333329,0,0x00,0x00
104.826127166666666,0,0x00,0x00
104.827409125000003,0,0x00,0x00
104.828691083333339,0,0x00,0x00
104.829973041666662,0,0x00,0x00
104.831254958333332,0,0x00,0x00
104.832536916666669,0,0x00,0x00
104.833818875000006,0,0x00,0x00
104.835161874999997,0,0x00,0x00
104.836504875000003,0,0x00,0x00
104.837786833333340,0,0x00,0x00
104.839068791666662,0,0x00,0x00
104.840350749999999,0,0x00,0x00
104.841632666666669,0,0x00,0x00
104.842914625000006,0,0x00,0x00
104.844196583333328,0,0x00,0x00
104.845478541666665,0,0x00,0x00
104.846760500000002,0,0x00,0x00
104.848042458333339,0,0x00,0x00
104.849385458333330,0,0x00,0x00
104.850728458333336,0,0x00,0x00
104.852010375000006,0,0x00,0x00
104.853292333333329,0,0x00,0x00
104.854574291666665,0,0x00,0x00
104.855856250000002,0,0x00,0x00
104.857138208333339,0,0x00,0x00
104.858420166666662,0,0x00,0x00
104.859702124999998,0,0x00,0x00
104.860984083333335,0,0x00,0x00
110.072425541666661,0,0x00,0x00
110.089151958333332,0,0x00,0x6F
110.106061541666662,0,0xFE,0x6F
110.125290833333338,0,0xFE,0x6F
110.139392291666667,0,0xFE,0x6F
110.156118708333338,0,0xFE,0x6F
110.172845166666661,0,0xFE,0x6F
110.189632625000002,0,0xFE,0x6F
110.206359041666673,0,0xFE,0x6F
110.223451749999995,0,0xFE,0x6F
110.239811916666667,0,0xFE,0x6F
110.256599374999993,0,0xFE,0x6F
110.273325791666664,0,0xFE,0x6F
110.290052208333336,0,0xFE,0x6F
110.307877458333337,0,0xFE,0x6F
110.323627166666668,0,0xFE,0x6F
110.340353583333339,0,0xFE,0x6F
110.357202083333334,0,0xFE,0x6F
110.373867500000003,0,0xFE,0x6F
110.390593916666660,0,0xFE,0x6F
110.407747666666666,0,0xFE,0x6F
110.424168833333340,0,0xFE,0x6F
110.440834208333328,0,0xFE,0x6F
110.457560666666666,0,0xFE,0x6F
110.474348125000006,0,0xFE,0x6F
110.491196625000001,0,0xFE,0x6F
110.510731166666673,0,0xFE,0x6F
110.524527416666672,0,0xFE,0x6F
110.541253833333329,0,0xFE,0x6F
110.558041291666669,0,0xFE,0x6F
110.574767708333340,0,0xFE,0x6F
110.591860416666663,0,0xFE,0x6F
110.608220583333335,0,0xFE,0x6F
110.625008041666661,0,0xFE,0x6F
110.641734458333332,0,0xFE,0x6F
110.658460875000003,0,0xFE,0x6F
110.675248374999995,0,0xFE,0x6F
110.694538708333340,0,0xFE,0x6F
110.708701208333338,0,0xFE,0x6F
110.725488666666664,0,0xFE,0x6F
110.742215125000001,0,0xFE,0x6F
110.758941541666672,0,0xFE,0x6F
110.776034249999995,0,0xFE,0x6F
110.792455416666670,0,0xFE,0x6F
110.809181874999993,0,0xFE,0x6F
110.825969333333333,0,0xFE,0x6F
110.842695750000004,0,0xFE,0x6F
110.859422166666661,0,0xFE,0x6F
110.877247416666663,0,0xFE,0x6F
110.892936083333339,0,0xFE,0x6F
110.909723541666665,0,0xFE,0x6F
110.926511000000005,0,0xFE,0x6F
110.943176416666660,0,0xFE,0x6F
110.959963875000000,0,0xFE,0x6F
110.977117625000005,0,0xFE,0x6F
110.993477749999997,0,0xFE,0x6F
111.010204208333334,0,0xFE,0x6F
111.026930625000006,0,0xFE,0x6F
111.043657041666663,0,0xFE,0x6F
111.061604375000002,0,0xFE,0x6F
111.077170916666660,0,0xFE,0x6F
111.093897374999997,0,0xFE,0x6F
111.110684833333337,0,0xFE,0x6F
111.127472291666663,0,0xFE,0x6F
111.144198708333334,0,0xFE,0x6F
111.161230375000002,0,0xFE,0x6F
111.177651583333329,0,0xFE,0x6F
111.194439041666669,0,0xFE,0x6F
111.211104416666672,0,0xFE,0x6F
111.227952958333333,0,0xFE,0x6F
111.244618333333335,0,0xFE,0x6F
111.262382500000001,0,0xFE,0x6F
111.278132208333332,0,0xFE,0x6F
111.294858625000003,0,0xFE,0x6F
111.311646124999996,0,0xFE,0x6F
111.328433583333336,0,0xFE,0x6F
111.345465250000004,0,0xFE,0x6F
111.361825374999995,0,0xFE,0x6F
111.378612875000002,0,0xFE,0x6F
111.395461374999996,0,0xFE,0x6F
111.412065708333330,0,0xFE,0x6F
111.428853166666670,0,0xFE,0x6F
111.447472000000005,0,0xFE,0x6F
111.462367083333334,0,0xFE,0x6F
111.479032458333336,0,0xFE,0x6F
111.495758875000007,0,0xFE,0x6F
111.512546374999999,0,0xFE,0x6F
111.529700083333339,0,0xFE,0x6F
111.545999208333328,0,0xFE,0x6F
111.562786666666668,0,0xFE,0x6F
111.579513083333339,0,0xFE,0x6F
111.596300583333331,0,0xFE,0x6F
111.613027000000002,0,0xFE,0x6F
111.631523749999999,0,0xFE,0x6F
111.646479833333331,0,0xFE,0x6F
111.663328375000006,0,0xFE,0x6F
111.679993749999994,0,0xFE,0x6F
111.696720166666665,0,0xFE,0x6F
111.713446583333337,0,0xFE,0x6F
111.730661374999997,0,0xFE,0x6F
111.746960500000000,0,0xFE,0x6F
111.763686916666671,0,0xFE,0x6F
111.780474374999997,0,0xFE,0x6F
111.797261875000004,0,0xFE,0x6F
111.815575458333328,0,0xFE,0x6F
111.830714708333332,0,0xFE,0x6F
111.847441125000003,0,0xFE,0x6F
111.864228624999996,0,0xFE,0x6F
111.880955041666667,0,0xFE,0x6F
111.897681458333338,0,0xFE,0x6F
111.914774166666660,0,0xFE,0x6F
111.931256375000004,0,0xFE,0x6F
111.947921791666673,0,0xFE,0x6F
111.964648208333330,0,0xFE,0x6F
111.981374625000001,0,0xFE,0x6F
111.998223124999996,0,0xFE,0x6F
112.017879750000006,0,0xFE,0x6F
112.031614958333336,0,0xFE,0x6F
112.048341375000007,0,0xFE,0x6F
112.065128833333333,0,0xFE,0x6F
112.081855250000004,0,0xFE,0x6F
112.098947958333326,0,0xFE,0x6F
112.115369166666667,0,0xFE,0x6F
112.132095583333339,0,0xFE,0x6F
112.148821999999996,0,0xFE,0x6F
112.165609500000002,0,0xFE,0x6F
112.182335916666673,0,0xFE,0x6F
112.200039041666670,0,0xFE,0x6F
112.215849791666670,0,0xFE,0x6F
112.232637291666663,0,0xFE,0x6F
112.249424750000003,0,0xFE,0x6F
112.266151166666660,0,0xFE,0x6F
112.283182833333328,0,0xFE,0x6F
112.299604041666669,0,0xFE,0x6F
112.316391499999995,0,0xFE,0x6F
112.333056874999997,0,0xFE,0x6F
112.349905375000006,0,0xFE,0x6F
112.366570791666661,0,0xFE,0x6F
112.384457041666664,0,0xFE,0x6F
112.400084666666672,0,0xFE,0x6F
112.416811083333329,0,0x6F,0x6F
112.433659583333338,0,0xFE,0x6F
112.466990333333328,0,0x6F,0x6F
112.484144083333334,0,0x6F,0x6F
112.500504250000006,0,0x6F,0x6F
112.517413791666669,0,0x6F,0x6F
112.534018125000003,0,0x6F,0x6F
112.550744541666660,0,0x6F,0x6F
112.569973833333336,0,0x6F,0x6F
112.584197416666669,0,0x6F,0x6F
112.600923833333340,0,0x6F,0x6F
112.617711291666666,0,0x00,0x6F
112.634376666666668,0,0x00,0x6F
112.651164166666661,0,0x00,0x00
112.668256874999997,0,0x00,0x00
112.684617000000003,0,0x00,0x00
112.701343458333326,0,0x00,0x00
112.718130916666667,0,0x00,0x00
112.734857333333338,0,0x00,0x00
112.751644791666664,0,0x00,0x00
112.770752000000002,0,0x00,0x00
112.785097708333339,0,0xFE,0x00
